!;Filter: kein Filter
!auto
!3/21/2019 9:27:07 AM
!3/21/2019 9:27:22 AM
!SP-Measurements Prober G4
!SP-Measurements Prober G4
!01103_448C
!134
!233
!12
!40
!-20
!0.00299959
!1.83
!0.38139174
!0.38139174
# Hz S  RI   R 50
+1.00000000000E+007 +3.51786047220E-001 +7.61244120076E-003 +4.75126057863E-002 -1.88980381936E-002 +1.16367227747E-004 -2.48880882282E-004 +5.15449373052E-003 +1.74805324059E-003 
+2.10000000000E+008 +3.70762377977E-001 -3.36069650948E-002 -2.03876523301E-003 -4.90247085690E-002 -5.47633717360E-005 +9.54387502361E-008 +8.56947526336E-003 -4.67352662235E-003 
+4.10000000000E+008 +3.69895756245E-001 -7.46897757053E-002 -4.55372445285E-002 -1.55069986358E-002 -2.51422006841E-005 -4.08949790653E-006 +1.00175179541E-002 -7.02666072175E-003 
+6.10000000000E+008 +3.64294350147E-001 -1.14402018487E-001 -3.01831904799E-002 +3.61459068954E-002 -1.48337530845E-005 +1.61550160556E-005 +9.92923043668E-003 -1.16871241480E-002 
+8.10000000000E+008 +3.55060249567E-001 -1.52824729681E-001 +2.24702656269E-002 +4.14976887405E-002 +2.53526764027E-006 +1.66761201399E-005 +6.89769629389E-003 -1.52710163966E-002 
+1.01000000000E+009 +3.43284368515E-001 -1.89345702529E-001 +4.76700142026E-002 -6.02674297988E-003 -1.65337260114E-005 +1.97341323656E-005 +2.88647692651E-003 -1.90321151167E-002 
+1.21000000000E+009 +3.29595059156E-001 -2.24305540323E-001 +1.09476633370E-002 -4.65024262667E-002 -7.36341371521E-006 -2.40315839619E-005 -1.69423012994E-003 -2.11875233799E-002 
+1.41000000000E+009 +3.13839942217E-001 -2.58048206568E-001 -4.01131026447E-002 -2.69348807633E-002 +2.15219424717E-005 -1.09698094093E-005 -7.35482526943E-003 -2.44235005230E-002 
+1.61000000000E+009 +2.97048866749E-001 -2.90015608072E-001 -3.96232269704E-002 +2.92900167406E-002 -2.02688970603E-005 +1.31692249852E-005 -1.37567678466E-002 -2.66801211983E-002 
+1.81000000000E+009 +2.77818351984E-001 -3.20215612650E-001 +1.34452236816E-002 +4.64799068868E-002 +1.22345036289E-005 +8.49818661663E-006 -1.75744965672E-002 -2.77284197509E-002 
+2.01000000000E+009 +2.58143991232E-001 -3.48732262850E-001 +4.79173883796E-002 +3.42871178873E-003 +2.57229530689E-005 -1.59854407684E-005 -2.31735277921E-002 -2.67029702663E-002 
+2.21000000000E+009 +2.36898273230E-001 -3.75778317451E-001 +1.91042032093E-002 -4.35858182609E-002 -5.72618273509E-006 +6.60279192743E-006 -2.87155658007E-002 -2.45156139135E-002 
+2.41000000000E+009 +2.14390173554E-001 -4.00217384100E-001 -3.31007242203E-002 -3.27544398606E-002 -2.34554172494E-005 -2.28936028179E-006 -3.54406125844E-002 -2.22753081471E-002 
+2.61000000000E+009 +1.91597104073E-001 -4.22846794128E-001 -4.20542359352E-002 +1.88864544034E-002 -2.18266304728E-005 -2.79720425169E-005 -4.06828820705E-002 -1.92550793290E-002 
+2.81000000000E+009 +1.68237373233E-001 -4.43643480539E-001 +3.02245141938E-003 +4.53609786928E-002 +1.38496197906E-005 -1.41606378747E-005 -4.46006804705E-002 -1.43999056891E-002 
+3.01000000000E+009 +1.44312560558E-001 -4.62382167578E-001 +4.23679240048E-002 +1.36945117265E-002 +3.87110230804E-005 +2.09137833735E-005 -4.84591461718E-002 -8.68487358093E-003 
+3.21000000000E+009 +1.20566971600E-001 -4.79573935270E-001 +2.84952353686E-002 -3.45426015556E-002 +1.91318067664E-005 -9.43097256823E-006 -5.23676164448E-002 -2.28081666864E-003 
+3.41000000000E+009 +9.69582796097E-002 -4.95266556740E-001 -2.22101788968E-002 -3.81798520684E-002 -1.74000979314E-005 +2.01323769033E-006 -5.53403981030E-002 +4.83842147514E-003 
+3.61000000000E+009 +7.34185203910E-002 -5.09293794632E-001 -4.31946367025E-002 +6.00870605558E-003 -2.62859357463E-005 +8.63203240442E-006 -5.70741929114E-002 +1.17932073772E-002 
+3.81000000000E+009 +4.99066077173E-002 -5.21859824657E-001 -1.03256795555E-002 +4.33194674551E-002 -1.25741216834E-005 -1.25846645460E-005 -5.68947121501E-002 +1.91032458097E-002 
+4.01000000000E+009 +2.69048493356E-002 -5.33310711384E-001 +3.64033356309E-002 +2.42870394140E-002 +8.42422559799E-006 -3.84646909879E-006 -5.59183172882E-002 +2.69916709512E-002 
+4.21000000000E+009 +4.07778611407E-003 -5.43133497238E-001 +3.63573655486E-002 -2.42116190493E-002 -8.06522803032E-006 +4.34682551713E-005 -5.39272315800E-002 +3.57330366969E-002 
+4.41000000000E+009 -1.81894078851E-002 -5.52048444748E-001 -1.01688969880E-002 -4.38847504556E-002 +9.20048842090E-006 +3.65531741409E-006 -5.07365800440E-002 +4.41431328654E-002 
+4.61000000000E+009 -4.02194224298E-002 -5.59770703316E-001 -4.38209474087E-002 -5.61109418049E-003 +2.68048079306E-005 -3.63724943497E-008 -4.66735251248E-002 +5.13425990939E-002 
+4.81000000000E+009 -6.19160607457E-002 -5.66427052021E-001 -2.24065314978E-002 +3.87395508587E-002 +4.64907361675E-006 -2.87451598524E-006 -3.99902760983E-002 +5.85851669312E-002 
+5.01000000000E+009 -8.28628912568E-002 -5.72717785835E-001 +3.02238948643E-002 +3.54637689888E-002 +1.95823977265E-005 -9.74692648015E-006 -3.35074178874E-002 +6.51896670461E-002 
+5.21000000000E+009 -1.03407710791E-001 -5.78146040440E-001 +4.26825135946E-002 -1.55663564801E-002 +5.73820625505E-006 -1.85126591532E-005 -2.59779058397E-002 +7.12191760540E-002 
+5.41000000000E+009 -1.23281583190E-001 -5.82345604897E-001 +1.92684424110E-003 -4.68262732029E-002 -1.54320077854E-005 -8.06128718978E-006 -1.71859413385E-002 +7.64078646898E-002 
+5.61000000000E+009 -1.43328160048E-001 -5.86468815804E-001 -4.56663370132E-002 -1.71255581081E-002 +7.14362204235E-006 -2.06001404877E-005 -7.42792896926E-003 +7.95045942068E-002 
+5.81000000000E+009 -1.62410512567E-001 -5.89190602303E-001 -3.10708228499E-002 +3.55505980551E-002 +6.16056331637E-006 -9.92138757283E-006 +3.08720837347E-003 +8.04222971201E-002 
+6.01000000000E+009 -1.80593699217E-001 -5.91252923012E-001 +2.26868409663E-002 +4.42546457052E-002 +3.95356182707E-005 +9.37982622418E-006 +1.42289176583E-002 +8.24797973037E-002 
+6.21000000000E+009 -1.98915168643E-001 -5.92836916447E-001 +5.02827167511E-002 -9.68382973224E-003 +3.27875313815E-005 -2.11842889257E-005 +2.48938035220E-002 +8.17833393812E-002 
+6.41000000000E+009 -2.16212466359E-001 -5.93562722206E-001 +8.64345300943E-003 -4.87388037145E-002 -1.07568539534E-005 -3.73497641704E-005 +3.64424921572E-002 +7.99997225404E-002 
+6.61000000000E+009 -2.33333423734E-001 -5.94138622284E-001 -4.58310581744E-002 -2.66179312021E-002 -2.23025490413E-005 -1.86084380402E-005 +4.75426018238E-002 +7.48624652624E-002 
+6.81000000000E+009 -2.50191271305E-001 -5.94070792198E-001 -3.71137708426E-002 +3.73691022396E-002 +1.26780032588E-005 +6.31825514574E-006 +5.83617612720E-002 +6.89924359322E-002 
+7.01000000000E+009 -2.65986829996E-001 -5.93508124352E-001 +2.04353630543E-002 +4.65084500611E-002 +4.47353413620E-005 +1.74438373506E-005 +6.82678297162E-002 +6.27528354526E-002 
+7.21000000000E+009 -2.81629741192E-001 -5.92661619186E-001 +5.43083064258E-002 -5.69942221045E-003 -3.55805314030E-005 -4.36358777733E-006 +7.74069428444E-002 +5.41288442910E-002 
+7.41000000000E+009 -2.96629101038E-001 -5.91421186924E-001 +7.12742842734E-003 -5.10767474771E-002 -3.77384785679E-005 -2.86954400508E-005 +8.66785049438E-002 +4.39416058362E-002 
+7.61000000000E+009 -3.10453951359E-001 -5.89675307274E-001 -4.33321669698E-002 -2.50404551625E-002 -1.11885747174E-005 -2.18218337977E-006 +9.29237753153E-002 +3.18803489208E-002 
+7.81000000000E+009 -3.24906915426E-001 -5.87468743324E-001 -3.70784401894E-002 +3.72300036252E-002 +1.40791407830E-005 +2.38416960201E-005 +9.84587445855E-002 +1.96997895837E-002 
+8.01000000000E+009 -3.38039934635E-001 -5.84708988667E-001 +2.32864115387E-002 +4.05810959637E-002 +3.89989691030E-006 +2.92378717859E-006 +1.01987935603E-001 +5.84019441158E-003 
+8.21000000000E+009 -3.50804716349E-001 -5.82035481930E-001 +4.53027114272E-002 -6.13197078928E-003 +2.82299042738E-005 -1.58190357524E-006 +1.04118637741E-001 -8.21325927973E-003 
+8.41000000000E+009 -3.63321125507E-001 -5.78718364239E-001 +4.76283160970E-003 -4.52243648469E-002 +1.17186600619E-005 -2.00853901333E-005 +1.03753507137E-001 -2.33722813427E-002 
+8.61000000000E+009 -3.75259906054E-001 -5.75750708580E-001 -3.58256287873E-002 -1.63057036698E-002 -7.79484992108E-007 +2.31981066463E-005 +1.00489519536E-001 -3.88248749077E-002 
+8.81000000000E+009 -3.86746406555E-001 -5.72742283344E-001 -2.81351599842E-002 +2.68915053457E-002 -1.24831285575E-005 +4.13286625189E-006 +9.50301438570E-002 -5.43129108846E-002 
+9.01000000000E+009 -3.97912830114E-001 -5.69250583649E-001 +1.80992819369E-002 +3.19512598217E-002 -4.15932936448E-006 -4.57852502223E-006 +8.83296057582E-002 -6.79777711630E-002 
+9.21000000000E+009 -4.08550798893E-001 -5.65930485725E-001 +3.15303020179E-002 -4.55911783502E-003 -1.24887026232E-006 +9.30611258809E-006 +7.84649252892E-002 -8.28881561756E-002 
+9.41000000000E+009 -4.18585687876E-001 -5.62707245350E-001 +7.14742438868E-003 -3.08183599263E-002 +2.44777638727E-005 -4.18001900471E-006 +6.58814683557E-002 -9.63548719883E-002 
+9.61000000000E+009 -4.28519457579E-001 -5.58933138847E-001 -2.52554323524E-002 -1.38291800395E-002 -2.21519039769E-005 -1.25334263430E-005 +5.07025979459E-002 -1.08533591032E-001 
+9.81000000000E+009 -4.37578290701E-001 -5.55961251259E-001 -2.00262609869E-002 +1.56254433095E-002 +4.11866994909E-006 +1.47842447404E-005 +3.55305597186E-002 -1.17732740939E-001 
+1.00100000000E+010 -4.46992158890E-001 -5.52403807640E-001 +7.38614238799E-003 +2.40598395467E-002 -2.84624929918E-005 +1.47807077155E-005 +1.86502598226E-002 -1.25593110919E-001 
+1.02100000000E+010 -4.55544739962E-001 -5.48483431339E-001 +2.25747749209E-002 +1.75734181539E-004 -7.03755904397E-006 -1.79741109605E-005 +4.56000620034E-004 -1.32421091199E-001 
+1.04100000000E+010 -4.64186459780E-001 -5.45099198818E-001 +8.53649899364E-003 -1.86117831618E-002 -1.97227109311E-005 -2.84690049739E-005 -2.01238133013E-002 -1.37798920274E-001 
+1.06100000000E+010 -4.72494184971E-001 -5.41481912136E-001 -1.41559215263E-002 -1.42993275076E-002 +1.03528218460E-005 +5.74043906454E-006 -4.17234040797E-002 -1.40313237906E-001 
+1.08100000000E+010 -4.79685246944E-001 -5.38607180119E-001 -1.61542538553E-002 +7.78271723539E-003 -6.30106023891E-006 +1.57471731654E-005 -6.35341107845E-002 -1.39830529690E-001 
+1.10100000000E+010 -4.87266659737E-001 -5.35079777241E-001 +3.22169886203E-004 +1.66137423366E-002 +1.73751996044E-005 +2.74691228697E-006 -8.55117291212E-002 -1.36297896504E-001 
+1.12100000000E+010 -4.94309157133E-001 -5.32388389111E-001 +1.53177743778E-002 +5.33201731741E-003 +1.48036053815E-006 +5.67134884477E-006 -1.09256558120E-001 -1.29892259836E-001 
+1.14100000000E+010 -5.01489877701E-001 -5.28743505478E-001 +9.25204716623E-003 -1.11276768148E-002 +3.30408474838E-005 -2.59299008576E-006 -1.32245481014E-001 -1.19697116315E-001 
+1.16100000000E+010 -5.07252871990E-001 -5.25624334812E-001 -5.84204541519E-003 -1.23261911795E-002 -4.31522857980E-006 -1.28914653033E-005 -1.53983160853E-001 -1.06412976980E-001 
+1.18100000000E+010 -5.13591647148E-001 -5.22435069084E-001 -1.31575446576E-002 +1.19971821550E-003 +5.92400874666E-006 +1.48631297634E-005 -1.73604115844E-001 -8.96190777421E-002 
+1.20100000000E+010 -5.19929289818E-001 -5.18818557262E-001 -3.30459419638E-003 +1.13595426083E-002 +1.64770779065E-006 -7.61733099353E-006 -1.90534397960E-001 -7.02367946506E-002 
+1.22100000000E+010 -5.26303827763E-001 -5.14953017235E-001 +8.55653081089E-003 +7.38199427724E-003 +7.80723894422E-006 +1.58810871653E-005 -2.07947492599E-001 -4.83722835779E-002 
+1.24100000000E+010 -5.32017469406E-001 -5.11512279510E-001 +9.54834930599E-003 -5.25992829353E-003 -1.71867122845E-005 +3.35849631483E-006 -2.22322359681E-001 -2.30752639472E-002 
+1.26100000000E+010 -5.37670254707E-001 -5.07925093174E-001 -1.11504900269E-003 -9.74603649229E-003 -5.09295841766E-006 -2.65407761617E-005 -2.32600674033E-001 +4.41874656826E-003 
+1.28100000000E+010 -5.43042659760E-001 -5.04327654839E-001 -8.98957531899E-003 -2.92476150207E-003 +1.04478094727E-005 -1.52368638737E-005 -2.38813325763E-001 +3.35127413273E-002 
+1.30100000000E+010 -5.48280119896E-001 -5.00111520290E-001 -5.66812139004E-003 +7.08223693073E-003 -2.15872732952E-005 +5.70586813353E-008 -2.42465227842E-001 +6.33246228099E-002 
+1.32100000000E+010 -5.53066134453E-001 -4.96405661106E-001 +3.89590207487E-003 +7.27607728913E-003 +3.25105838783E-006 +6.95306334819E-006 -2.42796748877E-001 +9.48018729687E-002 
+1.34100000000E+010 -5.57903945446E-001 -4.92099791765E-001 +7.98849575222E-003 -5.80711814109E-004 -1.58888851729E-005 +9.56751136982E-006 -2.39148125052E-001 +1.26490563154E-001 
+1.36100000000E+010 -5.60878038406E-001 -4.88434046507E-001 +2.16726795770E-003 -7.33017595485E-003 +2.65188427875E-005 -2.21952232096E-005 -2.31518432498E-001 +1.59176751971E-001 
+1.38100000000E+010 -5.65709888935E-001 -4.85257953405E-001 -5.36802085117E-003 -4.54112328589E-003 +1.96523888008E-006 -1.32771529024E-005 -2.18302100897E-001 +1.91157504916E-001 
+1.40100000000E+010 -5.70351064205E-001 -4.81848031282E-001 -6.11034128815E-003 +3.04852030240E-003 -2.69261659014E-006 +2.11604201468E-005 -2.01574608684E-001 +2.22073093057E-001 
+1.42100000000E+010 -5.74565947056E-001 -4.78737115860E-001 +6.10734685324E-004 +6.42549525946E-003 +2.45975334110E-005 -3.44709832234E-007 -1.81153342128E-001 +2.53364771605E-001 
+1.44100000000E+010 -5.78963935375E-001 -4.74866360426E-001 +5.65366866067E-003 +1.89346284606E-003 -5.47842355445E-005 -1.08294143502E-005 -1.55365183949E-001 +2.81753540039E-001 
+1.46100000000E+010 -5.82341253757E-001 -4.71645593643E-001 +3.92178026959E-003 -4.35487087816E-003 +4.65586799692E-006 -1.09374996100E-005 -1.24721869826E-001 +3.07196378708E-001 
+1.48100000000E+010 -5.85542917252E-001 -4.66168701649E-001 -2.48253904283E-003 -4.94292052463E-003 -4.88553314426E-006 +5.90689251112E-006 -9.17736962438E-002 +3.29042643309E-001 
+1.50100000000E+010 -5.86976170540E-001 -4.65095788240E-001 -5.13776671141E-003 +2.18002212932E-004 -7.66421271692E-006 +7.95179857960E-006 -5.62981143594E-002 +3.48371714354E-001 
+1.52100000000E+010 -5.89552879333E-001 -4.64228421450E-001 -1.77163968328E-003 +4.72910562530E-003 +1.94307467609E-005 -2.31498233916E-005 -1.75120551139E-002 +3.63414674997E-001 
+1.54100000000E+010 -5.92864751816E-001 -4.61989253759E-001 +3.52860614657E-003 +3.20031936280E-003 +1.14284976007E-005 -2.57929241343E-005 +2.46129892766E-002 +3.73477727175E-001 
+1.56100000000E+010 -5.96222877502E-001 -4.58564877510E-001 +4.09184442833E-003 -1.76554021891E-003 +2.18083259824E-005 +4.85843838760E-006 +6.83955848217E-002 +3.77768278122E-001 
+1.58100000000E+010 -5.97368896008E-001 -4.57941949368E-001 -2.96631606034E-005 -4.39088325948E-003 -1.29769196064E-005 +7.04166905052E-006 +1.12282857299E-001 +3.78146797419E-001 
+1.60100000000E+010 -5.99509358406E-001 -4.56676483154E-001 -3.82105284370E-003 -1.48833438288E-003 +6.90018214300E-006 -1.22824012578E-005 +1.57264232635E-001 +3.73162180185E-001 
+1.62100000000E+010 -6.01636886597E-001 -4.55149710178E-001 -2.83896410838E-003 +2.69395043142E-003 +8.42150075187E-006 +1.55520338012E-005 +2.04606488347E-001 +3.62836331129E-001 
+1.64100000000E+010 -6.03594899178E-001 -4.53835606575E-001 +1.37869745959E-003 +3.57125839218E-003 -3.14680510201E-005 -1.14510994536E-005 +2.51234054565E-001 +3.46653938293E-001 
+1.66100000000E+010 -6.07082843781E-001 -4.52429860830E-001 +3.57518694364E-003 +4.85114687763E-005 -3.57513999916E-006 -3.02053340420E-005 +2.94993877411E-001 +3.22996795177E-001 
+1.68100000000E+010 -6.10326051712E-001 -4.50023770332E-001 +1.48499163333E-003 -3.11513547786E-003 +3.00412157230E-005 +1.22374449347E-005 +3.38101476431E-001 +2.95589596033E-001 
+1.70100000000E+010 -6.12059652805E-001 -4.47994619608E-001 -2.26077460684E-003 -2.50490126200E-003 +9.23697916733E-006 +4.37720445916E-005 +3.78012686968E-001 +2.64216929674E-001 
+1.72100000000E+010 -6.14460885525E-001 -4.46146160364E-001 -2.95728910714E-003 +1.05257844552E-003 +4.74659682368E-005 -6.10811111983E-005 +4.15423423052E-001 +2.25784286857E-001 
+1.74100000000E+010 -6.17681026459E-001 -4.44489061832E-001 -3.01139836665E-004 +2.97279213555E-003 +2.45877927227E-005 +7.19147510608E-006 +4.48726564646E-001 +1.82944223285E-001 
+1.76100000000E+010 -6.20567023754E-001 -4.42485302687E-001 +2.59040645324E-003 +1.37522013392E-003 -1.65584588103E-005 +9.83041354630E-006 +4.76417928934E-001 +1.36962592602E-001 
+1.78100000000E+010 -6.23784601688E-001 -4.40454214811E-001 +2.11443658918E-003 -1.75539881457E-003 -2.94828538472E-007 +1.60528252309E-005 +4.99928206205E-001 +8.83577987552E-002 
+1.80100000000E+010 -6.26379549503E-001 -4.38221395016E-001 -6.85136648826E-004 -2.56430753507E-003 -5.60148509976E-005 +7.11112943463E-006 +5.19183397293E-001 +3.72701324522E-002 
+1.82100000000E+010 -6.29393696785E-001 -4.36425864697E-001 -2.56283697672E-003 -3.04708519252E-004 -2.05026353228E-007 -3.38022061896E-007 +5.31846463680E-001 -1.70757062733E-002 
+1.84100000000E+010 -6.32409691811E-001 -4.34778451920E-001 -1.22779968660E-003 +2.09539849311E-003 +5.59509317100E-007 -2.68693875114E-005 +5.37973284721E-001 -7.42839127779E-002 
+1.86100000000E+010 -6.35583698750E-001 -4.32700455189E-001 +1.32808019407E-003 +1.92603468895E-003 +2.28445587709E-005 +3.01641593978E-005 +5.38218140602E-001 -1.30656361580E-001 
+1.88100000000E+010 -6.38298273087E-001 -4.30316418409E-001 +2.23771622404E-003 -5.11924969032E-004 +3.68855836541E-007 +4.23313258580E-006 +5.32333433628E-001 -1.87170416117E-001 
+1.90100000000E+010 -6.40255808830E-001 -4.28473740816E-001 +4.06535167713E-004 -2.10028840229E-003 +1.31374126795E-005 -3.27716975335E-006 +5.20532727242E-001 -2.43304476142E-001 
+1.92100000000E+010 -6.43061876297E-001 -4.27374899387E-001 -1.75258691888E-003 -1.24820880592E-003 -2.45035644184E-005 -2.03032705031E-005 +5.02587974072E-001 -3.00687789917E-001 
+1.94100000000E+010 -6.46047234535E-001 -4.25114840269E-001 -1.73597643152E-003 +1.13826338202E-003 -1.50059913722E-005 +2.01672501134E-005 +4.77162033319E-001 -3.55246037245E-001 
+1.96100000000E+010 -6.47154927254E-001 -4.22807902098E-001 +2.72280361969E-004 +1.90109550022E-003 +5.06610158482E-005 -2.55163413385E-005 +4.46400433779E-001 -4.07185852528E-001 
+1.98100000000E+010 -6.47203147411E-001 -4.19983983040E-001 +1.85387406964E-003 +4.57759248093E-004 -3.57906428690E-005 -2.42395690293E-005 +4.11648422480E-001 -4.54492092133E-001 
+2.00100000000E+010 -6.46990537643E-001 -4.18572038412E-001 +1.11455877777E-003 -1.42481201328E-003 -2.14557494473E-005 -1.24412440528E-006 +3.69935274124E-001 -5.00787615776E-001 
