!;Filter: kein Filter
!auto
!3/21/2019 9:27:39 AM
!3/21/2019 9:27:53 AM
!SP-Measurements Prober G4
!SP-Measurements Prober G4
!01103_448C
!134
!237
!12
!40
!-20
!0.00499992
!1.96
!0.64375220
!0.64375220
# Hz S  RI   R 50
+1.00000000000E+007 +1.36322841048E-001 +1.11999418586E-002 +6.39520958066E-002 -2.52181142569E-002 -1.90428225324E-004 -8.44053574838E-005 +5.46626979485E-003 +1.25149218366E-003 
+2.10000000000E+008 +1.58219620585E-001 -2.20548398793E-002 -1.46859895904E-003 -6.69971555471E-002 +3.84069644497E-005 -1.23738334423E-006 +8.60649812967E-003 -4.84061241150E-003 
+4.10000000000E+008 +1.59105986357E-001 -5.21679334342E-002 -6.29392117262E-002 -2.27427873760E-002 -4.50435945822E-005 +2.27721066040E-005 +9.94633231312E-003 -6.99118757620E-003 
+6.10000000000E+008 +1.56542763114E-001 -8.12546685338E-002 -4.23636920750E-002 +5.04161119461E-002 -1.17811823657E-005 +3.97798203267E-007 +9.93691384792E-003 -1.16358287632E-002 
+8.10000000000E+008 +1.51129111648E-001 -1.09986320138E-001 +3.16441431642E-002 +5.81452436745E-002 +2.49902655014E-006 -1.06364750536E-005 +6.85762893409E-003 -1.52287725359E-002 
+1.01000000000E+009 +1.43975421786E-001 -1.37248307467E-001 +6.65745511651E-002 -9.67463478446E-003 -8.67267590365E-006 +5.82892607781E-006 +2.86567606963E-003 -1.90171115100E-002 
+1.21000000000E+009 +1.35238692164E-001 -1.63779899478E-001 +1.40522839502E-002 -6.37851357460E-002 -1.80166853170E-006 -1.20038703244E-005 -1.71807559673E-003 -2.11461503059E-002 
+1.41000000000E+009 +1.24795354903E-001 -1.89617812634E-001 -5.40863983333E-002 -3.64268124104E-002 +2.00736394618E-005 -2.80729500446E-006 -7.32395704836E-003 -2.43900734931E-002 
+1.61000000000E+009 +1.13790243864E-001 -2.14374601841E-001 -5.30939400196E-002 +3.83393839002E-002 -2.64620084636E-005 -8.73870067153E-006 -1.37267671525E-002 -2.66055203974E-002 
+1.81000000000E+009 +1.00846849382E-001 -2.37717255950E-001 +1.59416813403E-002 +6.21250681579E-002 -2.69604993264E-006 -7.70925544202E-006 -1.75165534019E-002 -2.77049522847E-002 
+2.01000000000E+009 +8.78157988191E-002 -2.60035783052E-001 +6.41966462135E-002 +8.12696851790E-003 +1.83035137979E-006 -6.15301223661E-006 -2.31330338866E-002 -2.66115553677E-002 
+2.21000000000E+009 +7.33889490366E-002 -2.81504839659E-001 +2.97876540571E-002 -5.75440526009E-002 +5.09009078087E-006 +1.85992757906E-005 -2.86463499069E-002 -2.44309175760E-002 
+2.41000000000E+009 +5.80040998757E-002 -3.01164358854E-001 -4.18752990663E-002 -4.82640676200E-002 -7.17070577139E-007 +3.50069021806E-005 -3.53929959238E-002 -2.21635233611E-002 
+2.61000000000E+009 +4.25406992435E-002 -3.19729000330E-001 -6.10235892236E-002 +2.16173995286E-002 -8.48796844366E-006 +1.16126157081E-005 -4.06163707376E-002 -1.91773474216E-002 
+2.81000000000E+009 +2.63443477452E-002 -3.37102919817E-001 -9.09147085622E-004 +6.46315664053E-002 -5.94888024352E-006 -1.11943782031E-005 -4.45060543716E-002 -1.43279181793E-002 
+3.01000000000E+009 +9.72125958651E-003 -3.53063702583E-001 +5.93032091856E-002 +2.46876217425E-002 -1.88278136193E-005 -1.07204887172E-005 -4.83661517501E-002 -8.70185531676E-003 
+3.21000000000E+009 -6.98529230431E-003 -3.68056416512E-001 +4.54322174191E-002 -4.71814572811E-002 +9.31160957407E-006 +3.53486211679E-005 -5.22467195988E-002 -2.26518930867E-003 
+3.41000000000E+009 -2.36960630864E-002 -3.82011801004E-001 -2.86842118949E-002 -5.89912459254E-002 +1.17256677186E-005 -7.33712386136E-006 -5.52034862339E-002 +4.85339853913E-003 
+3.61000000000E+009 -4.04918529093E-002 -3.94929349422E-001 -6.54929503798E-002 +4.91903629154E-003 +5.61320666748E-006 -2.06714412343E-005 -5.69278337061E-002 +1.17911454290E-002 
+3.81000000000E+009 -5.75795397162E-002 -4.06697332859E-001 -1.91304329783E-002 +6.43783435225E-002 -8.20298828330E-006 -7.26600273993E-006 -5.67456521094E-002 +1.90605446696E-002 
+4.01000000000E+009 -7.43093118072E-002 -4.17825460434E-001 +5.37577718496E-002 +3.99766974151E-002 -4.48979926659E-006 +3.96077848563E-006 -5.57966232300E-002 +2.69408784807E-002 
+4.21000000000E+009 -9.11563634872E-002 -4.27697092295E-001 +5.73956258595E-002 -3.55270020664E-002 -2.33095834119E-005 -3.10338000418E-005 -5.37979863584E-002 +3.56849543750E-002 
+4.41000000000E+009 -1.07820563018E-001 -4.36819761992E-001 -1.36555321515E-002 -6.76965713501E-002 -2.76499577012E-006 +3.86636529583E-005 -5.05576655269E-002 +4.39904443920E-002 
+4.61000000000E+009 -1.24320402741E-001 -4.45061624050E-001 -6.81765228510E-002 -1.08469892293E-002 +4.66748388135E-005 +1.82881171895E-006 -4.64851148427E-002 +5.12076355517E-002 
+4.81000000000E+009 -1.40822365880E-001 -4.52562093735E-001 -3.53725031018E-002 +6.04843609035E-002 -4.28643352279E-006 +6.30659314993E-006 -3.99070382118E-002 +5.84370046854E-002 
+5.01000000000E+009 -1.56871929765E-001 -4.59808409214E-001 +4.59899380803E-002 +5.56224808097E-002 -1.72434545220E-006 +2.00781360036E-005 -3.33799421787E-002 +6.50241896510E-002 
+5.21000000000E+009 -1.72622069716E-001 -4.66411441565E-001 +6.87980055809E-002 -2.43023540825E-002 +1.12979469122E-005 -7.84586336522E-006 -2.58851256222E-002 +7.10020810366E-002 
+5.41000000000E+009 -1.88174813986E-001 -4.72035259008E-001 +1.20133964811E-003 -7.49793127179E-002 -2.51138953899E-006 +9.04840908333E-006 -1.71444304287E-002 +7.62349590659E-002 
+5.61000000000E+009 -2.03994929790E-001 -4.77377176285E-001 -7.27466642857E-002 -2.67933160067E-002 +3.65112623513E-006 +2.17180077016E-005 -7.41637079045E-003 +7.93502330780E-002 
+5.81000000000E+009 -2.18987330794E-001 -4.81795877218E-001 -4.99105416238E-002 +6.07232116163E-002 +8.39420317789E-006 -1.37808774525E-005 +3.08178528212E-003 +8.02109390497E-002 
+6.01000000000E+009 -2.33629852533E-001 -4.85549449921E-001 +4.24832068384E-002 +6.91958591342E-002 +1.08159511001E-005 -1.56238438649E-005 +1.41556151211E-002 +8.23395177722E-002 
+6.21000000000E+009 -2.48401165009E-001 -4.88805085421E-001 +8.12126249075E-002 -1.99554413557E-002 -1.03424063127E-005 -1.39428702823E-005 +2.47625783086E-002 +8.16121324897E-002 
+6.41000000000E+009 -2.62393295765E-001 -4.91455823183E-001 +6.05194503441E-003 -8.40856730938E-002 -5.26035455550E-006 -1.01098294181E-005 +3.62616442144E-002 +7.98404663801E-002 
+6.61000000000E+009 -2.76591777802E-001 -4.93717759848E-001 -7.98745527864E-002 -3.12158148736E-002 -5.64679157833E-006 +6.93813262842E-006 +4.73406426609E-002 +7.47090950608E-002 
+6.81000000000E+009 -2.90360629559E-001 -4.95418280363E-001 -5.24473451078E-002 +6.79264962673E-002 +2.07413886528E-005 -6.14113741904E-006 +5.81726208329E-002 +6.88012540340E-002 
+7.01000000000E+009 -3.03543716669E-001 -4.96787041426E-001 +4.86433245242E-002 +6.94433450699E-002 +2.46468789555E-005 -2.39403052547E-005 +6.80507197976E-002 +6.26055896282E-002 
+7.21000000000E+009 -3.16617190838E-001 -4.97523039579E-001 +7.91010037065E-002 -2.71196179092E-002 -5.86486157772E-006 -1.69014529092E-005 +7.71793723106E-002 +5.39710894227E-002 
+7.41000000000E+009 -3.28954368830E-001 -4.98192548752E-001 -3.86329065077E-003 -8.06009843946E-002 +1.73544485733E-005 +1.65549172380E-005 +8.64390581846E-002 +4.38269488513E-002 
+7.61000000000E+009 -3.40606331825E-001 -4.98257666826E-001 -7.50424936414E-002 -1.83696709573E-002 +3.41966756423E-006 +6.83443795424E-006 +9.26439240575E-002 +3.17850410938E-002 
+7.81000000000E+009 -3.52556884289E-001 -4.97752815485E-001 -3.64072732627E-002 +6.31637945771E-002 -2.38864668063E-005 +2.81628090306E-005 +9.81664434075E-002 +1.96889508516E-002 
+8.01000000000E+009 -3.63461971283E-001 -4.97099101543E-001 +4.57223393023E-002 +4.98565658927E-002 -1.42736662383E-005 -8.65301808517E-006 +1.01744249463E-001 +5.76654449105E-003 
+8.21000000000E+009 -3.74361932278E-001 -4.96304690838E-001 +5.90595826507E-002 -2.73947827518E-002 +3.59146142728E-005 -2.50490065810E-005 +1.03793948889E-001 -8.12493637204E-003 
+8.41000000000E+009 -3.84806722403E-001 -4.95002806187E-001 -9.68499667943E-003 -5.73782883584E-002 -1.07648957055E-005 +1.63952154253E-006 +1.03500008583E-001 -2.32829339802E-002 
+8.61000000000E+009 -3.95055443048E-001 -4.94148552418E-001 -4.90772314370E-002 -1.05091473088E-002 -3.21386069118E-005 -7.93447100023E-007 +1.00239947438E-001 -3.86536158621E-002 
+8.81000000000E+009 -4.04957294464E-001 -4.93050247431E-001 -2.51831319183E-002 +4.05565276742E-002 +1.33299217850E-005 -4.92728986501E-006 +9.47966873646E-002 -5.41476197541E-002 
+9.01000000000E+009 -4.14588123560E-001 -4.91598218679E-001 +2.71540321410E-002 +3.37827913463E-002 -1.84459477168E-005 +6.98093799656E-006 +8.81261602044E-002 -6.77459686995E-002 
+9.21000000000E+009 -4.23923134804E-001 -4.90282326937E-001 +3.81949767470E-002 -1.20126362890E-002 -1.54461690727E-006 +4.47154297945E-006 +7.82980322838E-002 -8.26085135341E-002 
+9.41000000000E+009 -4.32770967484E-001 -4.89010185003E-001 +1.45590386819E-003 -3.73649150133E-002 +7.21554079064E-006 +1.33313042170E-005 +6.57297670841E-002 -9.59993749857E-002 
+9.61000000000E+009 -4.41600948572E-001 -4.87223744392E-001 -3.10060437769E-002 -1.32140805945E-002 -2.45910359808E-006 +1.66756253748E-005 +5.06184548140E-002 -1.08203120530E-001 
+9.81000000000E+009 -4.49763596058E-001 -4.86162722111E-001 -2.23127380013E-002 +2.21077650785E-002 -6.21601748207E-006 -2.10713205888E-005 +3.54442000389E-002 -1.17365017533E-001 
+1.00100000000E+010 -4.58277165890E-001 -4.84376907349E-001 +1.20803760365E-002 +2.67537850887E-002 -1.14927688628E-005 +7.47129797674E-006 +1.86899304390E-002 -1.25157833099E-001 
+1.02100000000E+010 -4.66168105602E-001 -4.82289344072E-001 +2.66147349030E-002 -1.23176828492E-003 +2.75070706266E-005 -8.60583838858E-007 +5.48729731236E-004 -1.31965562701E-001 
+1.04100000000E+010 -4.74147558212E-001 -4.80540037155E-001 +8.62186960876E-003 -2.36260984093E-002 +1.78776044777E-005 -3.05238722831E-006 -2.00277827680E-002 -1.37415438890E-001 
+1.06100000000E+010 -4.81759041548E-001 -4.78487223387E-001 -1.78476423025E-002 -1.53748979792E-002 +6.91385594109E-006 -1.35154380132E-007 -4.15748469532E-002 -1.39861941338E-001 
+1.08100000000E+010 -4.88313794136E-001 -4.77195382118E-001 -1.92075632513E-002 +9.72007121891E-003 -1.52503537265E-006 -4.90981619805E-006 -6.33741691709E-002 -1.39392599463E-001 
+1.10100000000E+010 -4.95434373617E-001 -4.75274592638E-001 +1.40294793528E-003 +2.03937068582E-002 -1.55566322064E-005 -8.90216324478E-006 -8.52458626032E-002 -1.35911539197E-001 
+1.12100000000E+010 -5.02006173134E-001 -4.74077284336E-001 +1.83006841689E-002 +5.67016052082E-003 +1.22799583551E-005 +1.53415803652E-005 -1.08896471560E-001 -1.29544362426E-001 
+1.14100000000E+010 -5.08780479431E-001 -4.71996843815E-001 +1.14116286859E-002 -1.34457256645E-002 -1.75305322045E-005 -1.27476023408E-005 -1.31827563047E-001 -1.19472660124E-001 
+1.16100000000E+010 -5.14209628105E-001 -4.70302790403E-001 -7.74301262572E-003 -1.51498485357E-002 +2.18396944547E-005 +2.26825686696E-005 -1.53533145785E-001 -1.06177352369E-001 
+1.18100000000E+010 -5.20212292671E-001 -4.68524038792E-001 -1.58992782235E-002 +1.45186623558E-003 +3.52745269083E-006 +1.82746389328E-005 -1.73133894801E-001 -8.94767045975E-002 
+1.20100000000E+010 -5.26385545731E-001 -4.66221541166E-001 -4.55376924947E-003 +1.42551325262E-002 +1.22829260363E-005 -2.21717637032E-005 -1.89972266555E-001 -7.01058357954E-002 
+1.22100000000E+010 -5.32453477383E-001 -4.63611721992E-001 +1.09429955482E-002 +9.33037139475E-003 -5.81299309488E-006 -2.33404898609E-005 -2.07458898425E-001 -4.83647026122E-002 
+1.24100000000E+010 -5.38031935692E-001 -4.61582511663E-001 +1.19086513296E-002 -6.42259325832E-003 -4.08760297432E-006 +4.68351970540E-007 -2.21790015697E-001 -2.31695640832E-002 
+1.26100000000E+010 -5.43609261513E-001 -4.59411293268E-001 -1.05367088690E-003 -1.25807691365E-002 +1.74417491507E-005 +1.93604864762E-005 -2.32062548399E-001 +4.32510022074E-003 
+1.28100000000E+010 -5.48929691315E-001 -4.57088202238E-001 -1.16195622832E-002 -3.73004865833E-003 +7.18260344001E-006 -1.13861051432E-005 -2.38259211183E-001 +3.32854762673E-002 
+1.30100000000E+010 -5.54353296757E-001 -4.54129576683E-001 -7.25809810683E-003 +8.87945387512E-003 -8.51235654409E-006 -8.13446513348E-006 -2.41880565882E-001 +6.30598664284E-002 
+1.32100000000E+010 -5.59274613857E-001 -4.51639771461E-001 +4.88137779757E-003 +9.58903785795E-003 -1.41572618304E-005 -8.79579874891E-006 -2.42312982678E-001 +9.44054797292E-002 
+1.34100000000E+010 -5.64346373081E-001 -4.48413312435E-001 +1.03859603405E-002 -8.28471907880E-004 -6.67969652568E-006 -2.57584952124E-006 -2.38628551364E-001 +1.25987663865E-001 
+1.36100000000E+010 -5.67396879196E-001 -4.45760160685E-001 +2.90163606405E-003 -9.33102425188E-003 -1.00861661849E-005 -2.78922971120E-006 -2.31096953154E-001 +1.58676013350E-001 
+1.38100000000E+010 -5.72419106960E-001 -4.43652272224E-001 -6.94649433717E-003 -6.03724317625E-003 -2.39282871917E-005 +8.70188341651E-006 -2.17958673835E-001 +1.90511375666E-001 
+1.40100000000E+010 -5.77336430550E-001 -4.41295593977E-001 -7.98611249775E-003 +3.97205539048E-003 +1.62012543115E-006 +2.40639365074E-005 -2.01330915093E-001 +2.21430361271E-001 
+1.42100000000E+010 -5.81909894943E-001 -4.39107477665E-001 +6.26177934464E-004 +8.33575893193E-003 -2.64401342065E-006 +4.34321509601E-006 -1.80906534195E-001 +2.52630829811E-001 
+1.44100000000E+010 -5.86705029011E-001 -4.36113059521E-001 +7.46444007382E-003 +2.63289432041E-003 -2.42560217885E-005 -6.50738957120E-006 -1.55244916677E-001 +2.80984371901E-001 
+1.46100000000E+010 -5.90612351894E-001 -4.33709084988E-001 +5.14391530305E-003 -5.67721202970E-003 +2.70264263236E-005 +1.35429936563E-005 -1.24720014632E-001 +3.06401312351E-001 
+1.48100000000E+010 -5.94421446323E-001 -4.28927153349E-001 -3.15504358150E-003 -6.49763457477E-003 +1.35931504701E-005 +2.06793902180E-005 -9.17834341526E-002 +3.28241646290E-001 
+1.50100000000E+010 -5.96174120903E-001 -4.28407162428E-001 -6.85353716835E-003 +2.21612179303E-004 +2.62321409537E-005 +3.12392921842E-006 -5.63892088830E-002 +3.47588360310E-001 
+1.52100000000E+010 -5.99360048771E-001 -4.28062826395E-001 -2.37899366766E-003 +6.21461682022E-003 +1.32267514346E-005 +1.20381573652E-005 -1.77567098290E-002 +3.62644135952E-001 
+1.54100000000E+010 -6.03145897388E-001 -4.26274150610E-001 +4.55258134753E-003 +4.30363696069E-003 +8.59583724377E-006 +2.09503450606E-005 +2.42452807724E-002 +3.72737467289E-001 
+1.56100000000E+010 -6.07153594494E-001 -4.23199445009E-001 +5.48080727458E-003 -2.28479388170E-003 +2.23186161747E-005 +2.38699067268E-005 +6.80242627859E-002 +3.77157121897E-001 
+1.58100000000E+010 -6.08502268791E-001 -4.22611415386E-001 -1.14050862976E-005 -5.78662659973E-003 -2.10423004319E-005 +1.10009423224E-005 +1.11753962934E-001 +3.77528280020E-001 
+1.60100000000E+010 -6.11111342907E-001 -4.21576827765E-001 -5.03816967830E-003 -2.10820091888E-003 -1.74589840753E-005 +3.10931100103E-005 +1.56627044082E-001 +3.72611820698E-001 
+1.62100000000E+010 -6.13572120667E-001 -4.20183211565E-001 -3.82486451417E-003 +3.56931332499E-003 +2.10727575904E-005 +1.98206289497E-005 +2.03889891505E-001 +3.62368434668E-001 
+1.64100000000E+010 -6.15846455097E-001 -4.18781429529E-001 +1.78300647531E-003 +4.74530225620E-003 -2.49209606409E-005 -8.53155938785E-007 +2.50459879637E-001 +3.46189677715E-001 
+1.66100000000E+010 -6.19398474693E-001 -4.17133539915E-001 +4.77546220645E-003 +1.70904415427E-004 +3.12202282657E-005 +4.29183728556E-006 +2.94128626585E-001 +3.22710990906E-001 
+1.68100000000E+010 -6.22718513012E-001 -4.14832890034E-001 +2.04733852297E-003 -4.13517234847E-003 +2.57334013440E-005 +1.98134093807E-005 +3.37124705315E-001 +2.95408934355E-001 
+1.70100000000E+010 -6.24548375607E-001 -4.12870794535E-001 -2.93950154446E-003 -3.34729580209E-003 -7.93105573393E-006 -1.66631834873E-005 +3.77018123865E-001 +2.64134466648E-001 
+1.72100000000E+010 -6.27073764801E-001 -4.10906851292E-001 -4.01616748422E-003 +1.29894562997E-003 +9.23636980588E-006 +3.80245160159E-006 +4.14408028126E-001 +2.25779160857E-001 
+1.74100000000E+010 -6.30245983601E-001 -4.09105986357E-001 -4.24021476647E-004 +4.00110892951E-003 +3.55332631443E-005 +2.81705488305E-005 +4.47720676661E-001 +1.83019787073E-001 
+1.76100000000E+010 -6.32999181747E-001 -4.06964451075E-001 +3.45393409953E-003 +1.88204005826E-003 +5.73500756218E-006 +1.69655959326E-005 +4.75463688374E-001 +1.37186765671E-001 
+1.78100000000E+010 -6.36015474796E-001 -4.04995262623E-001 +2.88966647349E-003 -2.34031514265E-003 +1.65518667927E-005 +1.39907078847E-005 +4.98967260122E-001 +8.87164995074E-002 
+1.80100000000E+010 -6.38389766216E-001 -4.02674138546E-001 -8.86058551259E-004 -3.47626046278E-003 -3.72454414901E-005 -8.35396167531E-006 +5.18334269524E-001 +3.76264229417E-002 
+1.82100000000E+010 -6.41155838966E-001 -4.00820016861E-001 -3.44217033125E-003 -5.12666127179E-004 -9.11649567570E-006 -7.10899314527E-007 +5.31026184559E-001 -1.65917277336E-002 
+1.84100000000E+010 -6.43834829330E-001 -3.99343520403E-001 -1.69976532925E-003 +2.78683030047E-003 -2.60702217929E-005 +1.17555846373E-005 +5.37264347076E-001 -7.36482888460E-002 
+1.86100000000E+010 -6.46865725517E-001 -3.97417575121E-001 +1.76479632501E-003 +2.63326871209E-003 +1.26394240851E-006 +2.49441745837E-005 +5.37561953068E-001 -1.29962056875E-001 
+1.88100000000E+010 -6.49289309978E-001 -3.95177841187E-001 +3.01107484847E-003 -5.97394246142E-004 -4.65998891741E-006 -2.39558659132E-007 +5.31893610954E-001 -1.86394184828E-001 
+1.90100000000E+010 -6.51151001453E-001 -3.93363356590E-001 +6.22846127953E-004 -2.83285300247E-003 -1.60148408668E-006 +7.70019141783E-007 +5.20140647888E-001 -2.42458283901E-001 
+1.92100000000E+010 -6.53539299965E-001 -3.92360240221E-001 -2.28409050032E-003 -1.67034356855E-003 -5.18512824783E-005 +1.68092083186E-005 +5.02280771732E-001 -2.99801290035E-001 
+1.94100000000E+010 -6.56364440918E-001 -3.90154987574E-001 -2.33093276620E-003 +1.42425613012E-003 +1.14445419968E-005 +1.10380815386E-005 +4.76924180984E-001 -3.54236721992E-001 
+1.96100000000E+010 -6.57347202301E-001 -3.87692630291E-001 +3.20376129821E-004 +2.63327662833E-003 -1.39979902087E-005 +3.00071988022E-005 +4.46251243353E-001 -4.06036853790E-001 
+1.98100000000E+010 -6.56614601612E-001 -3.84655982256E-001 +2.45705456473E-003 +7.72460654844E-004 +3.45623557223E-005 +1.13142104965E-005 +4.11590158939E-001 -4.53313350677E-001 
+2.00100000000E+010 -6.55343651772E-001 -3.84293824434E-001 +1.62244087551E-003 -1.90110201947E-003 -1.09698976303E-005 +2.84351572191E-005 +3.69996041059E-001 -4.99615490437E-001 
