!;Filter: kein Filter
!auto
!3/21/2019 9:26:39 AM
!3/21/2019 9:26:51 AM
!SP-Measurements Prober G4
!SP-Measurements Prober G4
!01103_448C
!134
!235
!12
!40
!-20
!0.00099996
!1.65
!0.05816927
!0.05816927
# Hz S  RI   R 50
+1.00000000000E+007 +4.53601747751E-001 +4.20855265111E-003 +4.68433424830E-002 -1.93891879171E-002 +5.74043195229E-004 -1.63284821610E-005 +5.98540483043E-003 +2.18082379433E-004 
+2.10000000000E+008 +4.61738437414E-001 -4.80187088251E-002 -3.80200869404E-003 -4.78581152856E-002 -3.74280716642E-005 -3.75561103283E-005 +8.55268165469E-003 -4.72810817882E-003 
+4.10000000000E+008 +4.56013530493E-001 -9.53875407577E-002 -4.54112030566E-002 -1.17960181087E-002 -3.09096435558E-006 -3.45890584867E-005 +1.00049404427E-002 -7.01505783945E-003 
+6.10000000000E+008 +4.46172446012E-001 -1.40525385737E-001 -2.63499412686E-002 +3.85608747602E-002 -2.09382742469E-005 -3.13281707349E-005 +9.99558903277E-003 -1.16561008617E-002 
+8.10000000000E+008 +4.33916389942E-001 -1.83884277940E-001 +2.84814890474E-002 +3.82178723812E-002 +1.69023496710E-005 +1.01387895484E-005 +6.88489386812E-003 -1.52831897140E-002 
+1.01000000000E+009 +4.18291568756E-001 -2.26019769907E-001 +4.55863401294E-002 -1.44636761397E-002 -2.35359202634E-005 -3.48078924617E-006 +2.88720428944E-003 -1.90841872245E-002 
+1.21000000000E+009 +4.00422990322E-001 -2.64513313770E-001 +2.12001823820E-003 -4.98278439045E-002 +1.67974849319E-005 +1.90236607978E-006 -1.65510619991E-003 -2.12210826576E-002 
+1.41000000000E+009 +3.81438553333E-001 -3.04342448711E-001 -4.80650328100E-002 -1.53427869081E-002 +3.49635993189E-005 +1.44944124258E-005 -7.32722226530E-003 -2.44811493903E-002 
+1.61000000000E+009 +3.58036965132E-001 -3.39616328478E-001 -3.13356108963E-002 +3.94597351551E-002 -5.43510104762E-005 +6.81647361489E-006 -1.38043407351E-002 -2.66766529530E-002 
+1.81000000000E+009 +3.33973586559E-001 -3.70860815048E-001 +2.64210421592E-002 +4.63480018079E-002 -1.02562471511E-005 -1.07803971332E-005 -1.76154896617E-002 -2.77969911695E-002 
+2.01000000000E+009 +3.11694085598E-001 -4.01857614517E-001 +5.70355392992E-002 -1.36305689812E-002 -2.83462341031E-005 -2.22129528993E-005 -2.31848452240E-002 -2.67280228436E-002 
+2.21000000000E+009 +2.88572520018E-001 -4.31342273951E-001 +2.44780466892E-003 -6.66342899203E-002 +2.87116854452E-005 -2.32793954638E-005 -2.87451148033E-002 -2.45472844690E-002 
+2.41000000000E+009 +2.65124797821E-001 -4.63718503714E-001 -7.83521011472E-002 -1.04968873784E-002 +3.43861684087E-005 +1.07823198050E-005 -3.54787223041E-002 -2.22846381366E-002 
+2.61000000000E+009 +2.32614859939E-001 -4.98119920492E-001 -4.90992283449E-003 +8.25804248452E-002 -1.75599798240E-005 -1.40405891216E-005 -4.07288447022E-002 -1.92348957062E-002 
+2.81000000000E+009 +1.96804687381E-001 -5.22843480110E-001 +8.18720683455E-002 +9.45366173983E-003 -1.91585768334E-005 -4.73573527415E-006 -4.45572845638E-002 -1.43939256668E-002 
+3.01000000000E+009 +1.61683902144E-001 -5.40102064610E-001 +1.93570032716E-002 -7.58147910237E-002 +1.22083092720E-005 +1.48718163473E-005 -4.84991259873E-002 -8.71544238180E-003 
+3.21000000000E+009 +1.30209937692E-001 -5.52051901817E-001 -6.06979466975E-002 -3.13292182982E-002 -4.96008260598E-006 +2.81784127765E-006 -5.23909106851E-002 -2.30372394435E-003 
+3.41000000000E+009 +1.00821211934E-001 -5.62280058861E-001 -3.81792001426E-002 +4.64608632028E-002 +3.32304261974E-005 -1.95326883841E-005 -5.53400069475E-002 +4.79283556342E-003 
+3.61000000000E+009 +7.35305249691E-002 -5.71866631508E-001 +3.15921343863E-002 +4.39350120723E-002 -2.07393131859E-005 +2.85378573608E-005 -5.71494996548E-002 +1.17627549917E-002 
+3.81000000000E+009 +4.83530238271E-002 -5.79341828823E-001 +4.02771346271E-002 -1.24744651839E-002 +1.92268798855E-005 +4.49675426353E-005 -5.69500811398E-002 +1.91133096814E-002 
+4.01000000000E+009 +2.34245192260E-002 -5.86711466312E-001 -2.83705280162E-003 -3.52751575410E-002 -2.64353202510E-005 +3.87411710108E-005 -5.59909828007E-002 +2.70232725888E-002 
+4.21000000000E+009 -6.52894377708E-004 -5.94251573086E-001 -3.09468898922E-002 -9.19052772224E-003 -1.54640474648E-005 -3.05045359710E-005 -5.39937876165E-002 +3.58219370246E-002 
+4.41000000000E+009 -2.40847803652E-002 -6.00304841995E-001 -1.48121872917E-002 +2.23961118609E-002 -1.59150167747E-005 -8.50570540933E-006 -5.07380254567E-002 +4.41118143499E-002 
+4.61000000000E+009 -4.66268695891E-002 -6.05944514275E-001 +1.24795055017E-002 +1.77397634834E-002 +1.13554415293E-005 +2.04249627132E-005 -4.65650595725E-002 +5.13628609478E-002 
+4.81000000000E+009 -6.95089101791E-002 -6.11039936543E-001 +1.95438824594E-002 -4.44585876539E-003 -6.29241594652E-006 +1.82864841918E-005 -4.00058180094E-002 +5.86071163416E-002 
+5.01000000000E+009 -9.13492217660E-002 -6.15279018879E-001 +1.33265904151E-003 -1.71153992414E-002 -1.00023653431E-005 -1.80587903742E-005 -3.34694534540E-002 +6.52328953147E-002 
+5.21000000000E+009 -1.12407460809E-001 -6.19316756725E-001 -1.23693589121E-002 -6.81633595377E-003 +4.87655015604E-005 -1.36529597512E-005 -2.59165205061E-002 +7.12626576424E-002 
+5.41000000000E+009 -1.33282870054E-001 -6.22276604176E-001 -1.04820337147E-002 +8.10290686786E-003 -7.15289957043E-007 -3.25058390445E-005 -1.71222370118E-002 +7.65185356140E-002 
+5.61000000000E+009 -1.54057264328E-001 -6.24761223793E-001 +3.69912944734E-003 +1.11010959372E-002 +4.25494681622E-006 -6.31024613540E-006 -7.38337542862E-003 +7.95983001590E-002 
+5.81000000000E+009 -1.73731133342E-001 -6.26352310181E-001 +9.94512438774E-003 +1.00160914008E-003 +1.57394715643E-005 -1.70843850356E-005 +3.16529045813E-003 +8.05092453957E-002 
+6.01000000000E+009 -1.92821472883E-001 -6.27216100693E-001 +4.72945580259E-003 -8.20219423622E-003 -4.68829193778E-006 -1.74467459146E-005 +1.43050989136E-002 +8.25442895293E-002 
+6.21000000000E+009 -2.11643084884E-001 -6.27475857735E-001 -5.54967951030E-003 -6.51524774730E-003 +5.74806872464E-005 -7.69866346673E-006 +2.50152815133E-002 +8.18549767137E-002 
+6.41000000000E+009 -2.29396983981E-001 -6.27176821232E-001 -7.19302473590E-003 +2.11308337748E-003 -3.36743796652E-005 +2.37625718000E-005 +3.64957079291E-002 +8.00572335720E-002 
+6.61000000000E+009 -2.47191458941E-001 -6.26560986042E-001 -9.51264461037E-004 +7.05936318263E-003 +1.31180831886E-005 +5.65671052755E-006 +4.75719571114E-002 +7.49271586537E-002 
+6.81000000000E+009 -2.64175504446E-001 -6.25351965427E-001 +5.81283122301E-003 +3.05548915640E-003 +8.80772859091E-006 +3.39169787367E-006 +5.84418363869E-002 +6.89644217491E-002 
+7.01000000000E+009 -2.80474096537E-001 -6.24048113823E-001 +4.57371678203E-003 -3.65326693282E-003 -5.76471211389E-006 +1.04350692709E-005 +6.83682933450E-002 +6.27311319113E-002 
+7.21000000000E+009 -2.96471267939E-001 -6.22173249722E-001 -1.41545187216E-003 -5.29401004314E-003 +1.29314603328E-005 +1.47445680341E-005 +7.75160118937E-002 +5.40606081486E-002 
+7.41000000000E+009 -3.11646759510E-001 -6.20253086090E-001 -5.07507054135E-003 -5.21773588844E-004 -1.23755626191E-005 +5.63650928598E-007 +8.67989882827E-002 +4.38553281128E-002 
+7.61000000000E+009 -3.26003432274E-001 -6.17812275887E-001 -2.23593087867E-003 +3.97994695231E-003 +2.39810324274E-005 +8.44259193400E-006 +9.29940789938E-002 +3.17751839757E-002 
+7.81000000000E+009 -3.40590298176E-001 -6.14733338356E-001 +2.61774053797E-003 +3.49071295932E-003 -6.97919131198E-006 -4.18679373979E-005 +9.85273867846E-002 +1.96502022445E-002 
+8.01000000000E+009 -3.54157328606E-001 -6.11492753029E-001 +3.93063016236E-003 -1.10186508391E-003 -3.05288580194E-007 -3.45820080838E-005 +1.02083832026E-001 +5.62265235931E-003 
+8.21000000000E+009 -3.67388874292E-001 -6.08034014702E-001 +4.53200453194E-004 -3.60992224887E-003 +1.64505763678E-005 -1.58523635037E-005 +1.04152031243E-001 -8.27924534678E-003 
+8.41000000000E+009 -3.80030453205E-001 -6.04247868061E-001 -2.93642538600E-003 -1.84070446994E-003 -3.04931945720E-005 +3.38796371580E-006 +1.03844285011E-001 -2.34706047922E-002 
+8.61000000000E+009 -3.92526984215E-001 -6.00705087185E-001 -2.65851360746E-003 +1.98446516879E-003 -2.69930860668E-005 +2.12886716326E-005 +1.00579820573E-001 -3.89520637691E-002 
+8.81000000000E+009 -4.04413640499E-001 -5.96988260746E-001 +6.97422830854E-004 +2.90245818906E-003 +1.23758518384E-005 -3.78941899726E-006 +9.50637534261E-002 -5.44589422643E-002 
+9.01000000000E+009 -4.15916681290E-001 -5.92966318130E-001 +2.76713981293E-003 +5.28047850821E-004 +2.20004858420E-005 +3.55974339072E-006 +8.82948338985E-002 -6.81113898754E-002 
+9.21000000000E+009 -4.27043318748E-001 -5.88969349861E-001 +1.43328134436E-003 -2.23429710604E-003 +8.32260775496E-006 -6.88982845531E-006 +7.84811079502E-002 -8.30229967833E-002 
+9.41000000000E+009 -4.37406867743E-001 -5.85052788258E-001 -1.39744346961E-003 -2.00944347307E-003 -1.32264058266E-005 -5.79664038014E-006 +6.58767074347E-002 -9.65170338750E-002 
+9.61000000000E+009 -4.47632640600E-001 -5.80815494061E-001 -2.28357105516E-003 +3.99350275984E-004 -2.55540744547E-005 +1.56212227012E-005 +5.06605543196E-002 -1.08700014651E-001 
+9.81000000000E+009 -4.57050889730E-001 -5.77180266380E-001 -4.46836580522E-004 +2.22330330871E-003 -9.48375964072E-006 -9.79226570053E-006 +3.54502201080E-002 -1.17841713130E-001 
+1.00100000000E+010 -4.66757088900E-001 -5.72909176350E-001 +1.66675867513E-003 +1.14240380935E-003 +5.49446758669E-006 -8.31362012832E-006 +1.86097845435E-002 -1.25680759549E-001 
+1.02100000000E+010 -4.75657552481E-001 -5.68441510201E-001 +1.63251382764E-003 -1.02758989669E-003 +1.73724984052E-005 +1.55361394718E-005 +3.26737383148E-004 -1.32519364357E-001 
+1.04100000000E+010 -4.84598308802E-001 -5.64350247383E-001 -2.65014270553E-004 -1.78518809844E-003 +1.75563691300E-005 -3.13885648211E-005 -2.02892925590E-002 -1.37893781066E-001 
+1.06100000000E+010 -4.93171095848E-001 -5.60054600239E-001 -1.69680255931E-003 -4.15389833506E-004 +2.00125068659E-005 +3.92529218516E-005 -4.18408587575E-002 -1.40362173319E-001 
+1.08100000000E+010 -5.00571012497E-001 -5.56526660919E-001 -9.90236527286E-004 +1.29361054860E-003 +3.48806643160E-005 -3.99829741582E-006 -6.37452527881E-002 -1.39822870493E-001 
+1.10100000000E+010 -5.08253753185E-001 -5.52365899086E-001 +7.90999620222E-004 +1.43708917312E-003 +2.79561227217E-005 -1.75828790816E-005 -8.57233405113E-002 -1.36334881186E-001 
+1.12100000000E+010 -5.15449941158E-001 -5.49139320850E-001 +1.46180321462E-003 -1.30578235257E-004 -3.72711583623E-005 -1.35583650263E-005 -1.09426893294E-001 -1.29829511046E-001 
+1.14100000000E+010 -5.22756516933E-001 -5.44997572899E-001 +4.09653672250E-004 -1.30892929155E-003 +5.56681470698E-006 -1.45443555084E-005 -1.32377535105E-001 -1.19645923376E-001 
+1.16100000000E+010 -5.28625845909E-001 -5.41371881962E-001 -1.00547028705E-003 -9.23745275941E-004 -1.20961731227E-005 -1.78155787580E-005 -1.54140487313E-001 -1.06361359358E-001 
+1.18100000000E+010 -5.35123646259E-001 -5.37678480148E-001 -1.09103135765E-003 +5.82106120419E-004 +2.19095982175E-005 +1.19146216093E-005 -1.73746123910E-001 -8.95548090339E-002 
+1.20100000000E+010 -5.41686415672E-001 -5.33578038216E-001 +1.55812122102E-005 +1.20126584079E-003 -3.57695171260E-007 -2.41806628765E-006 -1.90639227629E-001 -7.00919479132E-002 
+1.22100000000E+010 -5.48213064671E-001 -5.29185116291E-001 +1.09842245001E-003 +4.22260287451E-004 +4.20505784859E-007 +3.64164989151E-005 -2.08103254437E-001 -4.82315942645E-002 
+1.24100000000E+010 -5.54116547108E-001 -5.25369644165E-001 +7.28080573026E-004 -7.89065612480E-004 -4.95450003655E-005 +2.48444712270E-006 -2.22446799278E-001 -2.29429900646E-002 
+1.26100000000E+010 -5.59900164604E-001 -5.21386146545E-001 -3.55849362677E-004 -9.81265329756E-004 +2.36877076532E-005 -1.34335696202E-005 -2.32705980539E-001 +4.66721830890E-003 
+1.28100000000E+010 -5.65426230431E-001 -5.17336189747E-001 -1.03497947566E-003 +1.92687639355E-005 +1.04649097921E-005 -3.27177549480E-005 -2.38865524530E-001 +3.36987152696E-002 
+1.30100000000E+010 -5.70930182934E-001 -5.12789249420E-001 -3.40443861205E-004 +8.67910857778E-004 +1.82935382327E-005 +1.76659068529E-005 -2.42380648851E-001 +6.36037886143E-002 
+1.32100000000E+010 -5.76042592525E-001 -5.08771598339E-001 +6.07462832704E-004 +6.45691179670E-004 -1.17355011753E-005 +2.67442956101E-005 -2.42748573422E-001 +9.50081497431E-002 
+1.34100000000E+010 -5.81255912781E-001 -5.04035830498E-001 +8.04220908321E-004 -2.94122874038E-004 -6.34338630334E-006 -5.67300085095E-005 -2.38995864987E-001 +1.26628085971E-001 
+1.36100000000E+010 -5.84261000156E-001 -4.99711662531E-001 +6.50961083011E-005 -8.13303806353E-004 -1.31171937028E-005 +4.82014802401E-005 -2.31414213777E-001 +1.59420683980E-001 
+1.38100000000E+010 -5.89378356934E-001 -4.96227711439E-001 -6.66468229610E-004 -3.94804461394E-004 -2.44580132858E-005 +2.98113172903E-005 -2.18167960644E-001 +1.91318511963E-001 
+1.40100000000E+010 -5.94244897366E-001 -4.92407888174E-001 -5.77074883040E-004 +4.55420115031E-004 +1.33901794470E-005 -8.55541202327E-007 -2.01401129365E-001 +2.22255885601E-001 
+1.42100000000E+010 -5.98768174648E-001 -4.88832026720E-001 +1.97816392756E-004 +6.51449663565E-004 -1.68156493601E-005 +2.76272794508E-006 -1.80863142014E-001 +2.53431648016E-001 
+1.44100000000E+010 -6.03520035744E-001 -4.84470665455E-001 +7.00552656781E-004 +1.03636375570E-004 -5.74694859097E-005 +1.12170428110E-005 -1.55051931739E-001 +2.81841248274E-001 
+1.46100000000E+010 -6.07237339020E-001 -4.80846762657E-001 +3.30226961523E-004 -5.60229062103E-004 -1.79184826266E-005 -9.68817585090E-006 -1.24367602170E-001 +3.07205617428E-001 
+1.48100000000E+010 -6.10971689224E-001 -4.74713325500E-001 -3.64398787497E-004 -4.86821576487E-004 -1.27884459289E-005 +2.25274798140E-005 -9.13628637791E-002 +3.29070091248E-001 
+1.50100000000E+010 -6.12472534180E-001 -4.72966164351E-001 -6.04872184340E-004 +1.02417441667E-004 +4.24744503107E-005 +6.00904604653E-006 -5.58885969222E-002 +3.48335683346E-001 
+1.52100000000E+010 -6.15340590477E-001 -4.71446931362E-001 -1.01817196992E-004 +5.63194218557E-004 -3.24469910993E-005 +3.91080084228E-006 -1.71763151884E-002 +3.63310098648E-001 
+1.54100000000E+010 -6.18955969810E-001 -4.68638122082E-001 +5.15099964105E-004 +2.68272560788E-004 +1.31484885060E-005 -2.13037455978E-005 +2.50061638653E-002 +3.73371899128E-001 
+1.56100000000E+010 -6.22734665871E-001 -4.64496225119E-001 +4.58303111373E-004 -2.75062484434E-004 +2.18619406951E-005 -2.94899655273E-005 +6.89080506563E-002 +3.77646118402E-001 
+1.58100000000E+010 -6.23883008957E-001 -4.63064014912E-001 -6.89374355716E-005 -5.75355603360E-004 +7.68169866205E-006 -2.48707074206E-005 +1.12628512084E-001 +3.77901643515E-001 
+1.60100000000E+010 -6.26202642918E-001 -4.61024105549E-001 -4.68566053314E-004 -1.06304782094E-004 -2.68989097094E-005 +1.19072956295E-005 +1.57565385103E-001 +3.72893869877E-001 
+1.62100000000E+010 -6.28452241421E-001 -4.58776563406E-001 -3.05964902509E-004 +3.91125329770E-004 -5.03417186337E-006 +3.30911134370E-005 +2.04881355166E-001 +3.62461030483E-001 
+1.64100000000E+010 -6.30539536476E-001 -4.56583410501E-001 +2.30662844842E-004 +4.43587690825E-004 +1.84774871741E-005 -7.26272901375E-006 +2.51458793879E-001 +3.46207380295E-001 
+1.66100000000E+010 -6.33979082108E-001 -4.54134643078E-001 +4.63917443994E-004 -3.34774558723E-005 -1.22188139358E-005 +4.50442275906E-005 +2.95154303312E-001 +3.22579205036E-001 
+1.68100000000E+010 -6.36990606785E-001 -4.50943619013E-001 +1.45648285979E-004 -4.06420964282E-004 +2.32050084037E-007 -5.56038030481E-005 +3.38183224201E-001 +2.95148909092E-001 
+1.70100000000E+010 -6.38614773750E-001 -4.48123306036E-001 -3.00351966871E-004 -2.93524964945E-004 -6.54773612041E-006 +4.96097927680E-005 +3.78016203642E-001 +2.63685286045E-001 
+1.72100000000E+010 -6.40855431557E-001 -4.45502519608E-001 -3.78178810934E-004 +1.41664699186E-004 +5.77643331781E-005 +1.85942408280E-005 +4.15350615978E-001 +2.25145742297E-001 
+1.74100000000E+010 -6.43818080425E-001 -4.42973256111E-001 +9.32491730055E-006 +3.66225198377E-004 +6.96830829838E-005 -4.26506048825E-005 +4.48620259762E-001 +1.82300940156E-001 
+1.76100000000E+010 -6.46473407745E-001 -4.40220922232E-001 +3.26010136632E-004 +8.73640237842E-005 +4.82509894937E-005 -5.63260618947E-006 +4.76259797812E-001 +1.36264324188E-001 
+1.78100000000E+010 -6.49206638336E-001 -4.37485367060E-001 +2.24230127060E-004 -2.54810875049E-004 +1.16555229397E-005 +2.12971317524E-005 +4.99559730291E-001 +8.77628475428E-002 
+1.80100000000E+010 -6.51434540749E-001 -4.34548079967E-001 -8.46987386467E-005 -3.11278417939E-004 -3.33622556354E-005 +2.47120369750E-005 +5.18792092800E-001 +3.66159193218E-002 
+1.82100000000E+010 -6.54002428055E-001 -4.32044446468E-001 -3.79842502298E-004 -3.07741029246E-005 +2.68855546892E-005 -1.46926649904E-005 +5.31448483467E-001 -1.76823474467E-002 
+1.84100000000E+010 -6.56450033188E-001 -4.29867893457E-001 -1.72067302628E-004 +3.17327707307E-004 -2.66074821411E-005 +1.05064020772E-006 +5.37462472916E-001 -7.47647881508E-002 
+1.86100000000E+010 -6.59153163433E-001 -4.27417129278E-001 +1.62809708854E-004 +2.09983118111E-004 +8.52281573316E-006 +1.30723374241E-005 +5.37667572498E-001 -1.31075024605E-001 
+1.88100000000E+010 -6.61395788193E-001 -4.24626469612E-001 +2.64879054157E-004 -6.86321218382E-005 +2.47540947385E-006 -7.99215195002E-006 +5.31782627106E-001 -1.87539085746E-001 
+1.90100000000E+010 -6.63073003292E-001 -4.22300785780E-001 +3.33580937877E-005 -2.90132244118E-004 +3.23983949784E-005 +4.16235634475E-005 +5.19922256470E-001 -2.43586763740E-001 
+1.92100000000E+010 -6.65372371674E-001 -4.20744806528E-001 -2.30856763665E-004 -1.36379909236E-004 +5.65531590837E-005 +2.48701417149E-006 +5.01821994781E-001 -3.00939470530E-001 
+1.94100000000E+010 -6.67874693871E-001 -4.17980939150E-001 -1.81889699888E-004 +1.41451135278E-004 +2.46587005677E-005 -5.77113360123E-006 +4.76273685694E-001 -3.55331212282E-001 
+1.96100000000E+010 -6.68579936028E-001 -4.15093660355E-001 +3.26934132318E-005 +2.86353635602E-004 -2.49547065323E-005 -6.45895343041E-005 +4.45537477732E-001 -4.07119810581E-001 
+1.98100000000E+010 -6.67807340622E-001 -4.11936104298E-001 +2.41629895754E-004 +3.55081283487E-005 -6.62483580527E-005 -4.21325603384E-005 +4.10748571157E-001 -4.54264760017E-001 
+2.00100000000E+010 -6.66812241077E-001 -4.10852253437E-001 +1.61283809575E-004 -2.32932841755E-004 +5.76089878450E-005 -1.08153588371E-004 +3.69005113840E-001 -5.00487744808E-001 
