!;Filter: kein Filter
!auto
!3/21/2019 9:27:54 AM
!3/21/2019 9:28:10 AM
!SP-Measurements Prober G4
!SP-Measurements Prober G4
!01103_448C
!134
!233
!12
!40
!-20
!0.00599970
!2.02
!0.74959551
!0.74959551
# Hz S  RI   R 50
+1.00000000000E+007 +2.17720195651E-001 +5.69551158696E-003 +4.06980924308E-002 -1.50897717103E-002 +4.44197008619E-004 -6.47463195492E-004 +5.55995199829E-003 +9.77077987045E-004 
+2.10000000000E+008 +2.30273291469E-001 -2.23145727068E-002 -1.86139787547E-003 -4.28251884878E-002 +7.65855111240E-006 -7.73685678723E-005 +8.55444278568E-003 -4.74456138909E-003 
+4.10000000000E+008 +2.33108848333E-001 -5.16728796065E-002 -4.01808470488E-002 -1.30342254415E-002 +2.29142769967E-005 -6.90872275300E-006 +9.93138831109E-003 -7.05681741238E-003 
+6.10000000000E+008 +2.32913434505E-001 -8.18656533957E-002 -2.54740230739E-002 +3.29217426479E-002 -2.93136035907E-005 +2.46187810262E-005 +9.88396629691E-003 -1.16408886388E-002 
+8.10000000000E+008 +2.29168206453E-001 -1.12977765501E-001 +2.12019737810E-002 +3.50153148174E-002 -1.01474279290E-005 -1.02737603811E-005 +6.85480795801E-003 -1.52887282893E-002 
+1.01000000000E+009 +2.22934424877E-001 -1.43096789718E-001 +3.99704761803E-002 -7.23492773250E-003 +1.35415411933E-005 -2.25890398724E-005 +2.82980711199E-003 -1.89868323505E-002 
+1.21000000000E+009 +2.14930251241E-001 -1.72178611159E-001 +7.07741687074E-003 -3.95000465214E-002 -2.08210003620E-005 -3.06497931888E-005 -1.75921421032E-003 -2.11794842035E-002 
+1.41000000000E+009 +2.04737663269E-001 -2.01049372554E-001 -3.39595340192E-002 -2.05218028277E-002 +2.93189032163E-006 -8.94306776900E-006 -7.39469984546E-003 -2.44309809059E-002 
+1.61000000000E+009 +1.93299993873E-001 -2.28524237871E-001 -3.10054719448E-002 +2.42114886642E-002 -5.90937361267E-006 +1.49015431816E-006 -1.37638244778E-002 -2.66337059438E-002 
+1.81000000000E+009 +1.80139854550E-001 -2.54773199558E-001 +1.13366944715E-002 +3.71742099524E-002 -3.75880772481E-005 -3.00249212160E-006 -1.76071822643E-002 -2.77269650251E-002 
+2.01000000000E+009 +1.66363924742E-001 -2.80010581017E-001 +3.85115258396E-002 +2.84587033093E-003 -1.75873319677E-005 -2.17946944758E-006 -2.31912154704E-002 -2.66771242023E-002 
+2.21000000000E+009 +1.51029050350E-001 -3.04124891758E-001 +1.63371693343E-002 -3.48246358335E-002 -1.09254312974E-006 -1.09413840619E-005 -2.87068746984E-002 -2.44804136455E-002 
+2.41000000000E+009 +1.34484246373E-001 -3.26642155647E-001 -2.64189783484E-002 -2.75196116418E-002 -1.64080665854E-005 +3.99173841288E-005 -3.54167670012E-002 -2.22387406975E-002 
+2.61000000000E+009 +1.17435947061E-001 -3.47829192877E-001 -3.50498631597E-002 +1.47824147716E-002 -1.21886323541E-005 +1.65889593973E-006 -4.06588651240E-002 -1.92337483168E-002 
+2.81000000000E+009 +9.95311066508E-002 -3.67618501186E-001 +1.42502901144E-003 +3.77423316240E-002 +3.29870199494E-005 -1.23986892504E-005 -4.45653162897E-002 -1.43452594057E-002 
+3.01000000000E+009 +8.09725821018E-002 -3.85866135359E-001 +3.53672839701E-002 +1.20713906363E-002 +1.99087535293E-005 +6.80846142131E-006 -4.84241247177E-002 -8.64262785763E-003 
+3.21000000000E+009 +6.21469877660E-002 -4.02865558863E-001 +2.38456428051E-002 -2.86240056157E-002 +2.04738298635E-005 -2.36717505686E-006 -5.23342564702E-002 -2.22457083873E-003 
+3.41000000000E+009 +4.32649627328E-002 -4.18555855751E-001 -1.82680152357E-002 -3.21130529046E-002 -7.29281009626E-006 -6.55188341625E-006 -5.52697442472E-002 +4.84687136486E-003 
+3.61000000000E+009 +2.41818465292E-002 -4.33069258928E-001 -3.60949113965E-002 +5.45626552776E-003 +8.74897159520E-006 +1.43364532050E-005 -5.70145323873E-002 +1.17968693376E-002 
+3.81000000000E+009 +4.71147848293E-003 -4.46162700653E-001 -7.77092669159E-003 +3.54884006083E-002 -1.06679590317E-005 +1.67541131191E-007 -5.68523146212E-002 +1.90839637071E-002 
+4.01000000000E+009 -1.43230706453E-002 -4.58271652460E-001 +3.01187448204E-002 +1.95894390345E-002 -3.46564920619E-005 +1.62074811669E-005 -5.58642596006E-002 +2.69994474947E-002 
+4.21000000000E+009 -3.34560945630E-002 -4.69158142805E-001 +2.87740696222E-002 -2.07622405142E-002 +1.49469633470E-005 +3.52697461494E-005 -5.38811795413E-002 +3.56883332133E-002 
+4.41000000000E+009 -5.24300523102E-002 -4.78892952204E-001 -9.01980977505E-003 -3.41552384198E-002 +5.69997428101E-006 +1.55660727614E-005 -5.07307350636E-002 +4.40866798162E-002 
+4.61000000000E+009 -7.10938125849E-002 -4.87632423639E-001 -3.47666963935E-002 -3.56821785681E-003 +1.76399516931E-005 -8.10219808045E-006 -4.65720854700E-002 +5.13397827744E-002 
+4.81000000000E+009 -8.97883549333E-002 -4.95552569628E-001 -1.56998913735E-002 +3.07485703379E-002 +1.33590356199E-005 +4.76047443954E-006 -3.99420671165E-002 +5.85785843432E-002 
+5.01000000000E+009 -1.08007468283E-001 -5.02979576588E-001 +2.29486990720E-002 +2.55386568606E-002 +4.21260028816E-006 -1.53921264427E-005 -3.34511734545E-002 +6.51325061917E-002 
+5.21000000000E+009 -1.25749349594E-001 -5.09681642056E-001 +3.16646210849E-002 -1.22128045186E-002 +3.93302343582E-006 +2.08198362088E-005 -2.59292386472E-002 +7.11556598544E-002 
+5.41000000000E+009 -1.43256023526E-001 -5.15216231346E-001 +3.60997510143E-005 -3.34741100669E-002 -1.10446762847E-005 +1.97886561182E-006 -1.71566586941E-002 +7.63459429145E-002 
+5.61000000000E+009 -1.60882532597E-001 -5.20446479321E-001 -3.10424175113E-002 -1.20313223451E-002 -6.75677392792E-006 -2.12952472793E-005 -7.42187909782E-003 +7.94579312205E-002 
+5.81000000000E+009 -1.77660331130E-001 -5.24620711803E-001 -2.21103355289E-002 +2.45173461735E-002 +1.38826380862E-005 +6.54510768072E-006 +3.07293073274E-003 +8.03547650576E-002 
+6.01000000000E+009 -1.93902447820E-001 -5.27996838093E-001 +1.46477213129E-002 +2.92017217726E-002 +2.39306846197E-005 -2.87080947601E-005 +1.41952289268E-002 +8.23890119791E-002 
+6.21000000000E+009 -2.10139676929E-001 -5.30849158764E-001 +3.24523448944E-002 -3.08989547193E-003 +2.07063148991E-005 -3.88310982089E-005 +2.48985737562E-002 +8.17202627659E-002 
+6.41000000000E+009 -2.25540190935E-001 -5.33092141151E-001 +8.56415554881E-003 -3.14193665981E-002 -2.89946419798E-005 +1.05916024040E-005 +3.63895930350E-002 +7.99116715789E-002 
+6.61000000000E+009 -2.41002455354E-001 -5.34967422485E-001 -2.60576475412E-002 -1.90653875470E-002 -7.68265454099E-006 -6.98123176335E-006 +4.74973358214E-002 +7.47921243310E-002 
+6.81000000000E+009 -2.55937755108E-001 -5.36272227764E-001 -2.72188261151E-002 +1.75287798047E-002 +1.20144086395E-005 -1.47246862525E-006 +5.82879967988E-002 +6.89601749182E-002 
+7.01000000000E+009 -2.70349293947E-001 -5.37280857563E-001 +7.04084895551E-003 +3.17014083266E-002 +2.02739902306E-005 +1.17774163755E-006 +6.81936889887E-002 +6.26985058188E-002 
+7.21000000000E+009 -2.84512937069E-001 -5.37702739239E-001 +3.18060293794E-002 +4.46894392371E-003 -2.17517190322E-005 +6.85660688760E-006 +7.73038789630E-002 +5.41078671813E-002 
+7.41000000000E+009 -2.97991424799E-001 -5.38070380688E-001 +1.54454177245E-002 -2.83031798899E-002 +1.34438505484E-006 +3.33669449901E-005 +8.65544453263E-002 +4.39216233790E-002 
+7.61000000000E+009 -3.10778260231E-001 -5.37837743759E-001 -2.14586053044E-002 -2.40444913507E-002 -4.36709706264E-006 +2.28842827710E-006 +9.27789807320E-002 +3.18873822689E-002 
+7.81000000000E+009 -3.23906004429E-001 -5.36991238594E-001 -2.95435432345E-002 +1.16559686139E-002 -3.91290013795E-005 +1.34863494168E-005 +9.83449965715E-002 +1.97142772377E-002 
+8.01000000000E+009 -3.36046904325E-001 -5.35935521126E-001 +7.65923585277E-004 +3.17502841353E-002 +1.33167195600E-005 -1.12247207653E-005 +1.01891353726E-001 +5.84549270570E-003 
+8.21000000000E+009 -3.47991675138E-001 -5.34579157829E-001 +2.99646165222E-002 +9.56081971526E-003 +1.85676690307E-005 -1.16684670814E-008 +1.04024313390E-001 -8.19998886436E-003 
+8.41000000000E+009 -3.59615027905E-001 -5.32805681229E-001 +1.87663603574E-002 -2.42939218879E-002 +2.48117285082E-005 +3.74803630621E-006 +1.03657595813E-001 -2.32678353786E-002 
+8.61000000000E+009 -3.70999455452E-001 -5.31231522560E-001 -1.63842700422E-002 -2.58176177740E-002 +9.50398407440E-006 +2.49658169196E-005 +1.00370034575E-001 -3.87532711029E-002 
+8.81000000000E+009 -3.81855994463E-001 -5.29495358467E-001 -2.91180871427E-002 +7.11701111868E-003 +1.06282805064E-005 -3.41723944075E-006 +9.49527695775E-002 -5.42000681162E-002 
+9.01000000000E+009 -3.92404347658E-001 -5.27346014977E-001 -3.08706262149E-003 +2.87570320070E-002 -7.47690910430E-006 -7.14034604243E-006 +8.82416814566E-002 -6.78708404303E-002 
+9.21000000000E+009 -4.02656465769E-001 -5.25212585926E-001 +2.57058739662E-002 +1.24541921541E-002 +2.80344393104E-005 -1.74827073351E-005 +7.83713757992E-002 -8.27585235238E-002 
+9.41000000000E+009 -4.12261962891E-001 -5.23116528988E-001 +1.93179398775E-002 -1.97397712618E-002 +2.18693435272E-006 -7.98396013124E-006 +6.58666789532E-002 -9.62052047253E-002 
+9.61000000000E+009 -4.21770781279E-001 -5.20542800426E-001 -1.13989152014E-002 -2.37007290125E-002 -1.30610703764E-006 -3.09718672042E-007 +5.06876036525E-002 -1.08397871256E-001 
+9.81000000000E+009 -4.30527806282E-001 -5.18626213074E-001 -2.55227386951E-002 +2.65502789989E-003 +2.03969611903E-005 +2.87299059210E-007 +3.55471223593E-002 -1.17612227798E-001 
+1.00100000000E+010 -4.39600646496E-001 -5.16017794609E-001 -5.51148178056E-003 +2.38111428916E-002 +1.73398930201E-005 -1.39144322020E-006 +1.86561960727E-002 -1.25465124846E-001 
+1.02100000000E+010 -4.47931617498E-001 -5.13196349144E-001 +1.93195734173E-002 +1.27787971869E-002 -1.74844481080E-005 -2.05516680580E-005 +4.85046242829E-004 -1.32264927030E-001 
+1.04100000000E+010 -4.56303983927E-001 -5.10754525661E-001 +1.79806016386E-002 -1.33314253762E-002 +5.89782666793E-006 -5.07381355419E-006 -2.00567599386E-002 -1.37673154473E-001 
+1.06100000000E+010 -4.64430749416E-001 -5.08048474789E-001 -6.23365724459E-003 -2.01163440943E-002 -5.71719374420E-006 -1.24741436593E-005 -4.16449829936E-002 -1.40159294009E-001 
+1.08100000000E+010 -4.71434772015E-001 -5.06057083607E-001 -1.97862833738E-002 -1.35512126144E-003 +1.89731290448E-005 +6.92200001140E-006 -6.34576231241E-002 -1.39720410109E-001 
+1.10100000000E+010 -4.78848427534E-001 -5.03385961056E-001 -7.85331800580E-003 +1.74014382064E-002 +1.25872320496E-005 -2.30716159422E-005 -8.54380279779E-002 -1.36212110519E-001 
+1.12100000000E+010 -4.85709756613E-001 -5.01487314701E-001 +1.27637116238E-002 +1.23878195882E-002 -5.59218324270E-006 -2.65787912213E-006 -1.09079539776E-001 -1.29790917039E-001 
+1.14100000000E+010 -4.92794364691E-001 -4.98699754477E-001 +1.53079740703E-002 -6.82418560609E-003 +1.16873425213E-005 +2.23006227316E-005 -1.32050022483E-001 -1.19651459157E-001 
+1.16100000000E+010 -4.98409479856E-001 -4.96388733387E-001 -9.18161007576E-004 -1.60756409168E-002 +1.18494790513E-005 +9.29891666601E-006 -1.53836533427E-001 -1.06361314654E-001 
+1.18100000000E+010 -5.04587173462E-001 -4.93850886822E-001 -1.44023559988E-002 -4.42746328190E-003 -1.16661985885E-005 -1.01823534351E-005 -1.73427686095E-001 -8.96136462688E-002 
+1.20100000000E+010 -5.10818779469E-001 -4.90958571434E-001 -8.94215144217E-003 +1.09513187781E-002 -5.34507080374E-006 -2.88133969661E-006 -1.90361067653E-001 -7.01963007450E-002 
+1.22100000000E+010 -5.17104864120E-001 -4.87825214863E-001 +6.67617702857E-003 +1.17442393675E-002 -2.82937471638E-005 -1.19586402434E-005 -2.07731053233E-001 -4.84054423869E-002 
+1.24100000000E+010 -5.22756636143E-001 -4.85110431910E-001 +1.24695124105E-002 -1.90688529983E-003 +1.39148332892E-005 +1.62884844030E-005 -2.22170218825E-001 -2.31509525329E-002 
+1.26100000000E+010 -5.28243184090E-001 -4.82088744640E-001 +2.84311035648E-003 -1.15286400542E-002 +4.97366499985E-006 +8.63391505845E-006 -2.32437655330E-001 +4.35897335410E-003 
+1.28100000000E+010 -5.33560037613E-001 -4.79161679745E-001 -9.24638286233E-003 -6.59023690969E-003 +1.74984197656E-005 -1.10806158773E-005 -2.38680586219E-001 +3.33870872855E-002 
+1.30100000000E+010 -5.38842499256E-001 -4.75605905056E-001 -8.90984944999E-003 +5.81859936938E-003 +1.62303931575E-005 -1.10403889266E-005 -2.42331415415E-001 +6.32692724466E-002 
+1.32100000000E+010 -5.43555259705E-001 -4.72550630569E-001 +1.77212618291E-003 +9.90296248347E-003 +2.61497302745E-006 -3.05774756271E-006 -2.42675498128E-001 +9.46361348033E-002 
+1.34100000000E+010 -5.48298954964E-001 -4.68826353550E-001 +9.46297962219E-003 +1.94340734743E-003 +6.37896755507E-006 -3.34198921337E-005 -2.39040330052E-001 +1.26276105642E-001 
+1.36100000000E+010 -5.51328718662E-001 -4.65727061033E-001 +4.97538829222E-003 -7.56799522787E-003 +2.85456171696E-005 +4.24422387368E-006 -2.31426864862E-001 +1.58989191055E-001 
+1.38100000000E+010 -5.56187272072E-001 -4.63145583868E-001 -4.74905595183E-003 -7.19259958714E-003 +1.19759624795E-005 -9.72510770225E-006 -2.18284174800E-001 +1.90921962261E-001 
+1.40100000000E+010 -5.60754656792E-001 -4.60262864828E-001 -8.18891916424E-003 +1.72147923149E-003 +2.88114097202E-005 -1.31162514663E-005 -2.01587066054E-001 +2.21833720803E-001 
+1.42100000000E+010 -5.64998984337E-001 -4.57695752382E-001 -1.31303048693E-003 +7.73306330666E-003 +4.02539535571E-006 -1.20681124827E-005 -1.81182011962E-001 +2.53102332354E-001 
+1.44100000000E+010 -5.69376707077E-001 -4.54325616360E-001 +6.28337729722E-003 +3.98606667295E-003 +2.08913133974E-005 -1.17250137919E-005 -1.55428990722E-001 +2.81507313251E-001 
+1.46100000000E+010 -5.72768628597E-001 -4.51651573181E-001 +5.73708163574E-003 -4.15389891714E-003 -2.45265127887E-005 -1.22235469462E-005 -1.24832212925E-001 +3.06953519583E-001 
+1.48100000000E+010 -5.76072394848E-001 -4.46748942137E-001 -1.57172675245E-003 -6.47659273818E-003 -1.36000790008E-005 -3.54769472324E-005 -9.19117927551E-002 +3.28877657652E-001 
+1.50100000000E+010 -5.77608704567E-001 -4.46154028177E-001 -6.24611368403E-003 -1.03090400808E-003 +3.49628207914E-005 +1.27311986944E-005 -5.64305745065E-002 +3.48235547543E-001 
+1.52100000000E+010 -5.80305337906E-001 -4.45715576410E-001 -3.19063384086E-003 +5.11802313849E-003 +1.43461438711E-005 -1.71865428911E-006 -1.77131667733E-002 +3.63262772560E-001 
+1.54100000000E+010 -5.83565533161E-001 -4.43909019232E-001 +3.34332161583E-003 +4.63680736721E-003 -1.68086407939E-005 -4.64454615212E-006 +2.44011636823E-002 +3.73341560364E-001 
+1.56100000000E+010 -5.86985349655E-001 -4.40961807966E-001 +5.27781527489E-003 -1.17450067773E-003 +1.30428734337E-005 -3.86181018257E-005 +6.81922137737E-002 +3.77681225538E-001 
+1.58100000000E+010 -5.88243484497E-001 -4.40686613321E-001 +9.30345966481E-004 -5.10727288201E-003 -1.82442654477E-005 +1.80398387783E-006 +1.12011820078E-001 +3.78107249737E-001 
+1.60100000000E+010 -5.90451538563E-001 -4.39734190702E-001 -4.10531042144E-003 -2.66401655972E-003 +3.91838329961E-005 +2.03747986234E-005 +1.57001182437E-001 +3.73107165098E-001 
+1.62100000000E+010 -5.92688441277E-001 -4.38608676195E-001 -3.90291865915E-003 +2.61663738638E-003 -4.09834956372E-006 -4.04787397201E-006 +2.04319790006E-001 +3.62796097994E-001 
+1.64100000000E+010 -5.94703793526E-001 -4.37614530325E-001 +8.79336439539E-004 +4.40918747336E-003 -2.47837724601E-005 +1.49717770910E-005 +2.50978708267E-001 +3.46664458513E-001 
+1.66100000000E+010 -5.98177850246E-001 -4.36390668154E-001 +4.15635760874E-003 +8.42675450258E-004 +5.10955669597E-006 +8.67615028710E-008 +2.94755846262E-001 +3.23091715574E-001 
+1.68100000000E+010 -6.01521313190E-001 -4.34462636709E-001 +2.30421684682E-003 -3.30095412210E-003 -2.36963205680E-005 -2.77031140286E-005 +3.37836861610E-001 +2.95755743980E-001 
+1.70100000000E+010 -6.03324234486E-001 -4.32738810778E-001 -2.03175540082E-003 -3.25928255916E-003 +4.17340334025E-006 -1.39171252158E-005 +3.77777576447E-001 +2.64408111572E-001 
+1.72100000000E+010 -6.05773687363E-001 -4.31249290705E-001 -3.60186654143E-003 +5.90691633988E-004 -5.92047726968E-005 -7.17991269994E-006 +4.15285080671E-001 +2.25908026099E-001 
+1.74100000000E+010 -6.09045863152E-001 -4.29799050093E-001 -9.20418067835E-004 +3.37019842118E-003 -2.63137808361E-005 +7.98771282007E-007 +4.48539227247E-001 +1.83197498322E-001 
+1.76100000000E+010 -6.12110316753E-001 -4.28124785423E-001 +2.60085356422E-003 +2.13958276436E-003 -3.16536966238E-006 -5.37027176506E-007 +4.76354658604E-001 +1.37238919735E-001 
+1.78100000000E+010 -6.15267634392E-001 -4.26437318325E-001 +2.86351307295E-003 -1.50290085003E-003 +1.02174544736E-005 +1.69740971501E-007 +4.99828368425E-001 +8.86826366186E-002 
+1.80100000000E+010 -6.17900609970E-001 -4.24439817667E-001 -2.16735774302E-004 -3.13778268173E-003 -5.95925812377E-005 +1.89030524780E-005 +5.19158482552E-001 +3.75085547566E-002 
+1.82100000000E+010 -6.21091425419E-001 -4.22884076834E-001 -2.94603244402E-003 -1.01078033913E-003 +1.28899600895E-005 +1.02729688933E-006 +5.31866133213E-001 -1.67984757572E-002 
+1.84100000000E+010 -6.24116420746E-001 -4.21487629414E-001 -1.96321192198E-003 +2.23632459529E-003 -4.24084191764E-006 +2.15063319047E-005 +5.37998735905E-001 -7.39111080766E-002 
+1.86100000000E+010 -6.27358555794E-001 -4.19689029455E-001 +1.20176922064E-003 +2.56540277041E-003 +1.59533756232E-005 -2.51437377301E-005 +5.38297772408E-001 -1.30329638720E-001 
+1.88100000000E+010 -6.30102753639E-001 -4.17678743601E-001 +2.75497930124E-003 -1.11977300548E-004 -6.93519632478E-006 +1.71027495526E-005 +5.32502770424E-001 -1.86854511499E-001 
+1.90100000000E+010 -6.32215857506E-001 -4.16023612022E-001 +9.26498847548E-004 -2.49644927680E-003 +1.24604530356E-005 +1.37364968396E-005 +5.20796000957E-001 -2.42974072695E-001 
+1.92100000000E+010 -6.35101199150E-001 -4.15085017681E-001 -1.87119096518E-003 -1.77992891986E-003 -1.97566373572E-006 -1.10852370199E-005 +5.02824187279E-001 -3.00440013409E-001 
+1.94100000000E+010 -6.38090848923E-001 -4.12928879261E-001 -2.26081046276E-003 +9.27258050069E-004 +1.18497846415E-005 +2.32067850447E-005 +4.77496534586E-001 -3.55006784201E-001 
+1.96100000000E+010 -6.39331221581E-001 -4.10956770182E-001 -1.11368162834E-005 +2.35313922167E-003 -5.44410977454E-006 -2.54420483543E-005 +4.46820557117E-001 -4.06975030899E-001 
+1.98100000000E+010 -6.39430999756E-001 -4.08464491367E-001 +2.03247461468E-003 +9.19570971746E-004 -1.04516357169E-005 -2.56878174696E-005 +4.12009447813E-001 -4.54318463802E-001 
+2.00100000000E+010 -6.39307856560E-001 -4.07343208790E-001 +1.59988435917E-003 -1.54499418568E-003 +1.03227584987E-005 +2.64380423687E-006 +3.70311170816E-001 -5.00712692738E-001 
