!;Filter: kein Filter
!auto
!3/21/2019 9:26:52 AM
!3/21/2019 9:27:07 AM
!SP-Measurements Prober G4
!SP-Measurements Prober G4
!01103_448C
!134
!235
!12
!40
!-20
!0.00199954
!1.75
!0.22129449
!0.22129449
# Hz S  RI   R 50
+1.00000000000E+007 +3.59756857157E-001 +1.06363147497E-002 +5.22138215601E-002 -2.15438641608E-002 +1.09542379505E-005 +2.12361264857E-005 +4.86891949549E-003 +1.66641408578E-003 
+2.10000000000E+008 +3.73487561941E-001 -3.78500521183E-002 -2.60178395547E-003 -5.39069063962E-002 -4.06420040235E-005 -1.28718766064E-005 +8.58319271356E-003 -4.75913705304E-003 
+4.10000000000E+008 +3.70758205652E-001 -7.91398435831E-002 -5.15551343560E-002 -1.59096624702E-002 -2.85185014945E-005 +1.68371898326E-005 +9.97338909656E-003 -6.99659623206E-003 
+6.10000000000E+008 +3.65039974451E-001 -1.18991933763E-001 -3.31095680594E-002 +4.31425236166E-002 +1.88520334632E-005 +1.68861606653E-005 +9.96928848326E-003 -1.16324946284E-002 
+8.10000000000E+008 +3.55552464724E-001 -1.59453317523E-001 +2.98205316067E-002 +4.37289886177E-002 -7.19737045074E-006 -4.38962888438E-005 +6.86064688489E-003 -1.52848409489E-002 
+1.01000000000E+009 +3.43103110790E-001 -1.97257578373E-001 +5.20441196859E-002 -1.25735271722E-002 +1.75755940290E-005 +4.89191870656E-006 +2.89584579878E-003 -1.90870612860E-002 
+1.21000000000E+009 +3.27788800001E-001 -2.33872741461E-001 +6.14688731730E-003 -5.22042475641E-002 +1.50041259985E-005 +5.66385551792E-006 -1.67939614039E-003 -2.11883373559E-002 
+1.41000000000E+009 +3.09660285711E-001 -2.68811285496E-001 -4.54048849642E-002 -2.29030158371E-002 -3.45644963318E-007 -3.89058959627E-006 -7.34476512298E-003 -2.44746692479E-002 
+1.61000000000E+009 +2.91396498680E-001 -3.01102221012E-001 -3.80854643881E-002 +3.50089035928E-002 -9.52012760536E-006 +1.34249057737E-005 -1.37312291190E-002 -2.66990512609E-002 
+1.81000000000E+009 +2.70138859749E-001 -3.31213712692E-001 +1.83016546071E-002 +4.69548217952E-002 +5.09881328981E-006 -7.88912984717E-006 -1.75935905427E-002 -2.77640912682E-002 
+2.01000000000E+009 +2.48677641153E-001 -3.59071314335E-001 +4.97288890183E-002 +1.11527893750E-004 +2.27851160162E-005 -5.76660204388E-006 -2.31586992741E-002 -2.67217066139E-002 
+2.21000000000E+009 +2.26557016373E-001 -3.85441064835E-001 +1.80466566235E-002 -4.73598092794E-002 +2.02162864298E-005 +4.49799017588E-006 -2.87199765444E-002 -2.45393794030E-002 
+2.41000000000E+009 +2.02918842435E-001 -4.09015148878E-001 -3.69196720421E-002 -3.40029150248E-002 +2.43393988058E-005 -5.44570866623E-006 -3.54597792029E-002 -2.22515705973E-002 
+2.61000000000E+009 +1.79580524564E-001 -4.30790603161E-001 -4.56930696964E-002 +2.23487801850E-002 +1.26828299472E-005 -2.20937745326E-005 -4.06774543226E-002 -1.92629434168E-002 
+2.81000000000E+009 +1.56005293131E-001 -4.51073884964E-001 +5.15976222232E-003 +5.21429628134E-002 -3.82983353120E-006 +6.66471851218E-006 -4.46100756526E-002 -1.43987722695E-002 
+3.01000000000E+009 +1.31583690643E-001 -4.69032973051E-001 +5.02373874187E-002 +1.43022229895E-002 -4.58454042018E-006 +1.49347333718E-005 -4.84701022506E-002 -8.67818761617E-003 
+3.21000000000E+009 +1.07778213918E-001 -4.85692113638E-001 +3.22974175215E-002 -4.32488396764E-002 -2.23239512707E-005 -1.55657435243E-005 -5.23555725813E-002 -2.26823217236E-003 
+3.41000000000E+009 +8.43176990747E-002 -5.01042425632E-001 -3.10680046678E-002 -4.70489375293E-002 +2.70395012194E-005 -6.87126384946E-006 -5.53083196282E-002 +4.85498784110E-003 
+3.61000000000E+009 +6.06000758708E-002 -5.14645993710E-001 -5.56173846126E-002 +1.20138898492E-002 +8.00607358542E-006 -6.78247988617E-006 -5.70805631578E-002 +1.17919491604E-002 
+3.81000000000E+009 +3.71480546892E-002 -5.27108013630E-001 -7.90372025222E-003 +5.94080872834E-002 -9.72402358457E-006 +1.80515726242E-005 -5.68984597921E-002 +1.91022530198E-002 
+4.01000000000E+009 +1.43906939775E-002 -5.38738012314E-001 +5.74343353510E-002 +2.79367230833E-002 -4.77103321828E-006 +1.80047773028E-005 -5.59154488146E-002 +2.69972216338E-002 
+4.21000000000E+009 -8.66100192070E-003 -5.48547685146E-001 +4.68753688037E-002 -4.50060106814E-002 +7.78060802986E-006 -5.23310927747E-006 -5.38941770792E-002 +3.57853211462E-002 
+4.41000000000E+009 -3.11298221350E-002 -5.57772874832E-001 -3.06914988905E-002 -6.22487924993E-002 -7.62621721151E-006 +2.79231680906E-005 -5.07274344563E-002 +4.41188476980E-002 
+4.61000000000E+009 -5.34507371485E-002 -5.66276192665E-001 -7.32759609818E-002 +1.39694483951E-002 -9.65544495557E-006 +2.13074581552E-005 -4.65886965394E-002 +5.13622872531E-002 
+4.81000000000E+009 -7.58969262242E-002 -5.72885394096E-001 -9.95159987360E-003 +7.48159661889E-002 +6.02445561526E-006 +2.17618417082E-005 -3.99902425706E-002 +5.85880354047E-002 
+5.01000000000E+009 -9.79329422116E-002 -5.79562604427E-001 +7.38925561309E-002 +2.89195794612E-002 -1.44694322444E-005 -1.91607869056E-005 -3.35020832717E-002 +6.52026534081E-002 
+5.21000000000E+009 -1.19904004037E-001 -5.85319101810E-001 +4.50019538403E-002 -6.95841610432E-002 -1.91974268091E-005 -5.07722779730E-006 -2.59056333452E-002 +7.12346658111E-002 
+5.41000000000E+009 -1.40961661935E-001 -5.88627755642E-001 -5.17998188734E-002 -6.05275556445E-002 +9.48358319874E-006 -1.05533695205E-006 -1.71422697604E-002 +7.64489024878E-002 
+5.61000000000E+009 -1.62429496646E-001 -5.91746270657E-001 -6.87170550227E-002 +3.93091551960E-002 +5.23415621956E-008 +2.24573304877E-005 -7.38587509841E-003 +7.95639529824E-002 
+5.81000000000E+009 -1.82523429394E-001 -5.93102097511E-001 +2.38775648177E-002 +7.07755535841E-002 +1.02200901893E-005 -4.93723382533E-006 +3.11625516042E-003 +8.04376006126E-002 
+6.01000000000E+009 -2.00901061296E-001 -5.93633532524E-001 +6.86413124204E-002 -1.81120052002E-003 -3.35036270371E-006 -3.84870963899E-006 +1.42512209713E-002 +8.25128704309E-002 
+6.21000000000E+009 -2.19217091799E-001 -5.93505144119E-001 +1.13373398781E-002 -6.12369664013E-002 +1.35763548315E-005 +8.04995124781E-006 +2.49330271035E-002 +8.18039625883E-002 
+6.41000000000E+009 -2.35861092806E-001 -5.93163132668E-001 -4.89714741707E-002 -2.47827190906E-002 -2.45364367402E-006 +1.76241373993E-005 +3.64092960954E-002 +7.99982473254E-002 
+6.61000000000E+009 -2.52504974604E-001 -5.92706382275E-001 -3.53431552649E-002 +3.54104377329E-002 -1.67679118022E-005 -2.08179471883E-006 +4.75375689566E-002 +7.48552829027E-002 
+6.81000000000E+009 -2.68376827240E-001 -5.91802358627E-001 +2.07424852997E-002 +3.85389477015E-002 +4.26053020419E-006 -1.01558616734E-005 +5.84038905799E-002 +6.89606815577E-002 
+7.01000000000E+009 -2.83472329378E-001 -5.90940177441E-001 +3.79686243832E-002 -5.75200654566E-003 +1.86218749150E-005 -1.45728654388E-005 +6.83084353805E-002 +6.27274960279E-002 
+7.21000000000E+009 -2.98440575600E-001 -5.89646577835E-001 +6.63532176986E-003 -3.42479050159E-002 +6.55892154100E-006 -6.65689822199E-006 +7.74451345205E-002 +5.40734753013E-002 
+7.41000000000E+009 -3.12582612038E-001 -5.88376641273E-001 -2.64795627445E-002 -1.56425461173E-002 -4.85388045490E-006 +3.29208742187E-005 +8.67065563798E-002 +4.39008027315E-002 
+7.61000000000E+009 -3.26020210981E-001 -5.86668074131E-001 -2.16508395970E-002 +1.70909557492E-002 +6.14466171101E-006 -1.52351537963E-006 +9.29234027863E-002 +3.18100787699E-002 
+7.81000000000E+009 -3.39773416519E-001 -5.84378242493E-001 +7.61816976592E-003 +2.39205881953E-002 -1.33623325382E-005 +2.90763136945E-006 +9.84392985702E-002 +1.96554921567E-002 
+8.01000000000E+009 -3.52535516024E-001 -5.81986606121E-001 +2.25356593728E-002 +1.35736202355E-003 -2.61466243501E-006 +2.01088369067E-005 +1.02011904120E-001 +5.74233662337E-003 
+8.21000000000E+009 -3.65061819553E-001 -5.79343199730E-001 +8.68120696396E-003 -1.85477137566E-002 -1.56909973157E-005 +1.32598404434E-006 +1.04105249047E-001 -8.27466510236E-003 
+8.41000000000E+009 -3.77171248198E-001 -5.76313436031E-001 -1.28421271220E-002 -1.35912010446E-002 +9.60971306085E-007 -9.01233306649E-006 +1.03768818080E-001 -2.34166644514E-002 
+8.61000000000E+009 -3.89093726873E-001 -5.73573052883E-001 -1.59077532589E-002 +6.25152559951E-003 -1.33753455884E-005 +1.71172541741E-005 +1.00502349436E-001 -3.88773046434E-002 
+8.81000000000E+009 -4.00439530611E-001 -5.70642113686E-001 -1.35641428642E-004 +1.57272685319E-002 -8.43915859150E-006 -1.56092155521E-005 +9.50399339199E-002 -5.43915480375E-002 
+9.01000000000E+009 -4.11537885666E-001 -5.67409455776E-001 +1.33211612701E-002 +5.52955642343E-003 +1.00157876659E-005 -1.22802600799E-006 +8.83280560374E-002 -6.80296793580E-002 
+9.21000000000E+009 -4.22211170197E-001 -5.64186811447E-001 +9.48789902031E-003 -9.40345879644E-003 -4.38611232312E-006 -1.72133295564E-005 +7.84343332052E-002 -8.29205363989E-002 
+9.41000000000E+009 -4.32200312614E-001 -5.61014652252E-001 -4.83568944037E-003 -1.14040942863E-002 -7.25083646103E-006 +8.98233793123E-006 +6.58439844847E-002 -9.64047387242E-002 
+9.61000000000E+009 -4.42129015923E-001 -5.57413876057E-001 -1.13480770960E-002 +8.67409544298E-005 -4.30802174378E-006 -3.96132636524E-005 +5.06852790713E-002 -1.08541652560E-001 
+9.81000000000E+009 -4.51303929090E-001 -5.54494202137E-001 -4.07774141058E-003 +9.81089565903E-003 -1.47435284816E-005 -3.18223064824E-005 +3.54761518538E-002 -1.17751374841E-001 
+1.00100000000E+010 -4.60740119219E-001 -5.50951123238E-001 +7.01757846400E-003 +6.95421686396E-003 +5.13883242093E-005 +2.63744605036E-005 +1.86137389392E-002 -1.25642165542E-001 
+1.02100000000E+010 -4.69472378492E-001 -5.47138690948E-001 +8.45846161246E-003 -3.48159112036E-003 +2.99953899230E-005 -2.71945623354E-006 +3.91916226363E-004 -1.32375091314E-001 
+1.04100000000E+010 -4.78158414364E-001 -5.43712377548E-001 +9.29615343921E-005 -8.62999632955E-003 +1.08496651592E-005 +2.31043050007E-005 -2.01652962714E-002 -1.37805029750E-001 
+1.06100000000E+010 -4.86543685198E-001 -5.40102243423E-001 -7.45569402352E-003 -3.13446624205E-003 -7.02372199157E-006 -1.13713376777E-005 -4.17924337089E-002 -1.40302807093E-001 
+1.08100000000E+010 -4.93771314621E-001 -5.37221312523E-001 -5.37368329242E-003 +5.23015530780E-003 -1.70853454620E-005 -4.07999186791E-006 -6.36385604739E-002 -1.39794528484E-001 
+1.10100000000E+010 -5.01420736313E-001 -5.33626437187E-001 +2.57074576803E-003 +6.67069572955E-003 -9.65267463471E-006 -9.03692853171E-006 -8.55516120791E-002 -1.36239990592E-001 
+1.12100000000E+010 -5.08517444134E-001 -5.30970096588E-001 +6.69772364199E-003 +1.17904339277E-004 +1.98023153644E-005 +2.23735423788E-005 -1.09303988516E-001 -1.29798173904E-001 
+1.14100000000E+010 -5.15748202801E-001 -5.27348279953E-001 +2.58799316362E-003 -5.67203434184E-003 +3.37128403771E-006 -9.20739330468E-006 -1.32313936949E-001 -1.19647853076E-001 
+1.16100000000E+010 -5.21576881409E-001 -5.24253606796E-001 -4.02802834287E-003 -4.41762898117E-003 +1.12255947897E-005 +3.10532414005E-005 -1.54007673264E-001 -1.06350615621E-001 
+1.18100000000E+010 -5.27931630611E-001 -5.21096944809E-001 -5.28586981818E-003 +1.90284661949E-003 -1.51051835928E-006 -1.40112524605E-005 -1.73637539148E-001 -8.95750597119E-002 
+1.20100000000E+010 -5.34415900707E-001 -5.17486155033E-001 -3.29411734128E-004 +5.24124363437E-003 -1.51763524627E-005 -2.24057894229E-005 -1.90567940474E-001 -7.01229423285E-002 
+1.22100000000E+010 -5.40913939476E-001 -5.13590693474E-001 +4.51699830592E-003 +2.27923062630E-003 -1.40370693771E-005 -8.15061321191E-006 -2.07975789905E-001 -4.82916459441E-002 
+1.24100000000E+010 -5.46809852123E-001 -5.10195970535E-001 +3.57482163236E-003 -3.14423604868E-003 +8.44917758513E-006 -1.46073546148E-006 -2.22357779741E-001 -2.30585969985E-002 
+1.26100000000E+010 -5.52569627762E-001 -5.06667137146E-001 -1.33298872970E-003 -4.26065782085E-003 -7.79581660026E-006 +2.66271570126E-007 -2.32583925128E-001 +4.55308333039E-003 
+1.28100000000E+010 -5.58082580566E-001 -5.03136932850E-001 -4.31409664452E-003 -4.44772245828E-004 +7.15078203939E-006 -4.53078456530E-007 -2.38772273064E-001 +3.36018763483E-002 
+1.30100000000E+010 -5.63606560230E-001 -4.98948216438E-001 -1.89174513798E-003 +3.60924890265E-003 +3.45813873537E-006 -4.60170340375E-005 -2.42412641644E-001 +6.34354203939E-002 
+1.32100000000E+010 -5.68680107594E-001 -4.95309323072E-001 +2.36170762219E-003 +3.03288619034E-003 -2.62404373643E-005 +9.18795285543E-006 -2.42713794112E-001 +9.48659777641E-002 
+1.34100000000E+010 -5.73841750622E-001 -4.90960955620E-001 +3.58297838829E-003 -9.57939482760E-004 -1.90384380403E-005 -6.78063315718E-006 -2.39025354385E-001 +1.26485079527E-001 
+1.36100000000E+010 -5.76956748962E-001 -4.87141191959E-001 +4.08414081903E-004 -3.45990038477E-003 -9.09527079784E-006 +2.58205477621E-006 -2.31373354793E-001 +1.59201353788E-001 
+1.38100000000E+010 -5.82068383694E-001 -4.83964145184E-001 -2.82536260784E-003 -1.73030793667E-003 -1.08942549559E-006 +2.16349471884E-005 -2.18163147569E-001 +1.91157102585E-001 
+1.40100000000E+010 -5.87014496326E-001 -4.80486273766E-001 -2.62987753376E-003 +1.88556662761E-003 +4.90015736432E-006 +3.03698161588E-005 -2.01450243592E-001 +2.22081407905E-001 
+1.42100000000E+010 -5.91573417187E-001 -4.77301269770E-001 +6.74762239214E-004 +2.98116263002E-003 +9.80557251751E-006 -2.26759166253E-005 -1.80952608585E-001 +2.53312021494E-001 
+1.44100000000E+010 -5.96327245235E-001 -4.73289787769E-001 +2.81205214560E-003 +5.70128322579E-004 -1.50747905536E-006 -4.48130185760E-006 -1.55144408345E-001 +2.81718492508E-001 
+1.46100000000E+010 -6.00145459175E-001 -4.69990879297E-001 +1.56288337894E-003 -2.30674794875E-003 -3.93901942175E-008 -2.46488962148E-005 -1.24531149864E-001 +3.07074874640E-001 
+1.48100000000E+010 -6.03902161121E-001 -4.64152932167E-001 -1.44218653440E-003 -2.19030142762E-003 +3.58468823833E-005 +1.97336953534E-006 -9.15602445602E-002 +3.28936815262E-001 
+1.50100000000E+010 -6.05520784855E-001 -4.62767869234E-001 -2.46263993904E-003 +3.89132241253E-004 -8.70401254360E-006 +2.20797687689E-006 -5.60861639678E-002 +3.48283171654E-001 
+1.52100000000E+010 -6.08514130116E-001 -4.61549252272E-001 -5.87795278989E-004 +2.37198523246E-003 +8.25549523142E-006 -2.65504559138E-006 -1.73568911850E-002 +3.63262712955E-001 
+1.54100000000E+010 -6.12128734589E-001 -4.58990335464E-001 +1.84781511780E-003 +1.35377957486E-003 +1.97503118216E-006 -1.09353286462E-005 +2.47935187072E-002 +3.73297035694E-001 
+1.56100000000E+010 -6.15959107876E-001 -4.55113172531E-001 +1.91716023255E-003 -1.07297359500E-003 -2.29319107348E-006 -3.60325725524E-006 +6.86255022883E-002 +3.77631425858E-001 
+1.58100000000E+010 -6.17205798626E-001 -4.53827351332E-001 -2.31030498981E-004 -2.11454625241E-003 -2.28008757404E-005 -1.19979940791E-005 +1.12429067492E-001 +3.77958506346E-001 
+1.60100000000E+010 -6.19560122490E-001 -4.52115625143E-001 -1.92929035984E-003 -5.57407212909E-004 +3.46042397723E-005 +1.11516128527E-005 +1.57377779484E-001 +3.72894167900E-001 
+1.62100000000E+010 -6.21952414513E-001 -4.50049161911E-001 -1.24386104289E-003 +1.45084317774E-003 +9.17126362765E-006 +2.31974481721E-005 +2.04695045948E-001 +3.62528234720E-001 
+1.64100000000E+010 -6.24066114426E-001 -4.48058843613E-001 +8.73579061590E-004 +1.69368786737E-003 -3.04102395603E-005 -5.95241590418E-006 +2.51281946898E-001 +3.46268981695E-001 
+1.66100000000E+010 -6.27504348755E-001 -4.45827156305E-001 +1.78118003532E-003 -1.07982872578E-004 +5.35024591954E-005 +1.84849286597E-005 +2.94969588518E-001 +3.22670906782E-001 
+1.68100000000E+010 -6.30687355995E-001 -4.42976295948E-001 +5.87731483392E-004 -1.60666345619E-003 +7.06029709363E-007 +1.55838733917E-007 +3.37996631861E-001 +2.95256614685E-001 
+1.70100000000E+010 -6.32363200188E-001 -4.40288543701E-001 -1.22980866581E-003 -1.13847933244E-003 +3.42314997397E-005 -1.07725009002E-006 +3.77867311239E-001 +2.63872414827E-001 
+1.72100000000E+010 -6.34665548801E-001 -4.37900394201E-001 -1.43131078221E-003 +6.49983063340E-004 -5.72493408981E-005 -2.29440629482E-005 +4.15294021368E-001 +2.25432246923E-001 
+1.74100000000E+010 -6.37740731239E-001 -4.35592234135E-001 +1.99913138204E-005 +1.49714504369E-003 -4.20585865868E-006 -2.74516478385E-005 +4.48494881392E-001 +1.82520776987E-001 
+1.76100000000E+010 -6.40352845192E-001 -4.32987332344E-001 +1.36982696131E-003 +5.92639844399E-004 +2.43836584559E-005 +5.12785391038E-006 +4.76193904877E-001 +1.36658310890E-001 
+1.78100000000E+010 -6.43262028694E-001 -4.30482715368E-001 +1.01299060043E-003 -9.66775638517E-004 +2.59593480223E-006 +4.56280577055E-006 +4.99636143446E-001 +8.80537480116E-002 
+1.80100000000E+010 -6.45514845848E-001 -4.27647024393E-001 -4.57925314549E-004 -1.27728714142E-003 +7.95435516920E-006 +1.46173251778E-005 +5.18875479698E-001 +3.69531176984E-002 
+1.82100000000E+010 -6.48127436638E-001 -4.25400227308E-001 -1.31624063943E-003 -9.71299232333E-005 +4.47990241810E-005 +6.34850175629E-006 +5.31535387039E-001 -1.74164082855E-002 
+1.84100000000E+010 -6.50616824627E-001 -4.23346191645E-001 -5.51678240299E-004 +1.11988850404E-003 -1.49531570059E-006 -1.72915606527E-005 +5.37577569485E-001 -7.44699016213E-002 
+1.86100000000E+010 -6.53479158878E-001 -4.20973271132E-001 +7.76941247750E-004 +9.40747384448E-004 -2.47687003139E-005 -1.46066747675E-006 +5.37837028503E-001 -1.30856871605E-001 
+1.88100000000E+010 -6.55709743500E-001 -4.18416440487E-001 +1.12162204459E-003 -3.30232753186E-004 +2.56787043327E-005 +3.50624322891E-005 +5.32019495964E-001 -1.87244608998E-001 
+1.90100000000E+010 -6.57455980778E-001 -4.16293859482E-001 +1.34481524583E-004 -1.10106100328E-003 +3.31493065460E-005 +1.97281988221E-005 +5.20157456398E-001 -2.43384659290E-001 
+1.92100000000E+010 -6.59876525402E-001 -4.14836168289E-001 -9.13151598070E-004 -5.77660975978E-004 -1.26248437482E-006 +2.89686449833E-005 +5.02110302448E-001 -3.00730288029E-001 
+1.94100000000E+010 -6.62544727325E-001 -4.12227690220E-001 -8.47898831125E-004 +6.11124443822E-004 +2.57294741459E-005 -9.03502314031E-006 +4.76643711329E-001 -3.55189561844E-001 
+1.96100000000E+010 -6.63187980652E-001 -4.09577101469E-001 +2.26022180868E-004 +9.83872334473E-004 -1.16425699161E-005 +3.37724595738E-005 +4.45926398039E-001 -4.06978100538E-001 
+1.98100000000E+010 -6.62571966648E-001 -4.06480342150E-001 +9.20501537621E-004 +2.19887209823E-004 +4.45256155217E-005 +2.98015911540E-005 +4.11135971546E-001 -4.54222321510E-001 
+2.00100000000E+010 -6.61717712879E-001 -4.05449330807E-001 +5.51901932340E-004 -7.93780141976E-004 +1.73177340912E-005 +2.53982161666E-005 +3.69421035051E-001 -5.00479519367E-001 
