!;Filter: kein Filter
!auto
!3/21/2019 9:27:07 AM
!3/21/2019 9:27:22 AM
!SP-Measurements Prober G4
!SP-Measurements Prober G4
!01103_448C
!134
!235
!12
!40
!-20
!0.00299959
!1.83
!0.38139174
!0.38139174
# Hz S  RI   R 50
+1.00000000000E+007 +2.91986405849E-001 +1.26215601340E-002 +5.36994226277E-002 -2.23309118301E-002 +6.17916812189E-005 +7.65008371673E-006 +4.96899150312E-003 +1.01669062860E-003 
+2.10000000000E+008 +3.13397556543E-001 -3.19160968065E-002 -2.19866470434E-003 -5.58303333819E-002 +2.45206479121E-006 +7.93753861217E-005 +8.57569184154E-003 -4.69310767949E-003 
+4.10000000000E+008 +3.12209069729E-001 -7.02567845583E-002 -5.26268482208E-002 -1.80569570512E-002 -3.78132535843E-005 -6.33743038634E-005 +1.00243883207E-002 -7.08585279062E-003 
+6.10000000000E+008 +3.07219922543E-001 -1.07401691377E-001 -3.45267988741E-002 +4.25336770713E-002 +2.73799450952E-005 -1.41323062053E-006 +9.95358731598E-003 -1.16691542789E-002 
+8.10000000000E+008 +2.98726290464E-001 -1.43367975950E-001 +2.71319895983E-002 +4.73157763481E-002 -2.02440805879E-005 -3.44570835296E-005 +6.87984004617E-003 -1.52828125283E-002 
+1.01000000000E+009 +2.88066029549E-001 -1.77652701735E-001 +5.42412213981E-002 -8.66771861911E-003 -3.27427515003E-005 +1.81022778634E-006 +2.85113882273E-003 -1.90427880734E-002 
+1.21000000000E+009 +2.75194674730E-001 -2.10613563657E-001 +1.11266830936E-002 -5.32777979970E-002 +2.35071656789E-005 +9.96177368506E-006 -1.67445454281E-003 -2.11907904595E-002 
+1.41000000000E+009 +2.60523647070E-001 -2.42378920317E-001 -4.62001897395E-002 -2.94692777097E-002 -1.43943907460E-005 +8.23572099762E-006 -7.35777011141E-003 -2.44468487799E-002 
+1.61000000000E+009 +2.45000779629E-001 -2.72618681192E-001 -4.38607893884E-002 +3.36123555899E-002 -2.53172083831E-006 -1.38376444738E-005 -1.37375146151E-002 -2.66738831997E-002 
+1.81000000000E+009 +2.27175310254E-001 -3.01057577133E-001 +1.60681437701E-002 +5.19915632904E-002 -1.37869055834E-005 -7.44235649108E-006 -1.76091082394E-002 -2.77721043676E-002 
+2.01000000000E+009 +2.08898276091E-001 -3.28088015318E-001 +5.39526753128E-002 +3.21170734242E-003 -5.15751366947E-007 -4.10920438298E-006 -2.31723859906E-002 -2.67156232148E-002 
+2.21000000000E+009 +1.88999682665E-001 -3.53570312262E-001 +2.16421410441E-002 -4.92165647447E-002 +1.15622233352E-005 -4.87990564579E-006 -2.86969039589E-002 -2.44771633297E-002 
+2.41000000000E+009 +1.67993783951E-001 -3.76644790173E-001 -3.74676138163E-002 -3.69928181171E-002 +1.17178988148E-005 -3.53521063516E-005 -3.54269146919E-002 -2.22269874066E-002 
+2.61000000000E+009 +1.46758407354E-001 -3.97961497307E-001 -4.78731058538E-002 +2.08670347929E-002 +3.63046674465E-005 +1.53741239046E-005 -4.06789556146E-002 -1.92362498492E-002 
+2.81000000000E+009 +1.25127330422E-001 -4.17579650879E-001 +2.53760395572E-003 +5.23951388896E-002 -3.56465388904E-005 +5.81023596169E-006 -4.46148589253E-002 -1.43970306963E-002 
+3.01000000000E+009 +1.03018283844E-001 -4.35400545597E-001 +4.89526912570E-002 +1.66295133531E-002 -2.03656545636E-005 +1.08200101749E-005 -4.84535992146E-002 -8.69771372527E-003 
+3.21000000000E+009 +8.10024291277E-002 -4.51676040888E-001 +3.42726036906E-002 -3.94679084420E-002 -2.68827388936E-005 -8.75915884535E-006 -5.23310415447E-002 -2.27323058061E-003 
+3.41000000000E+009 +5.93785159290E-002 -4.66675907373E-001 -2.54104193300E-002 -4.66985329986E-002 +1.76452558662E-005 -3.72416729988E-006 -5.53158670664E-002 +4.84656542540E-003 
+3.61000000000E+009 +3.76274362206E-002 -4.80344504118E-001 -5.24190440774E-002 +6.43234374002E-003 -2.24435334530E-005 -2.30290334002E-005 -5.70543892682E-002 +1.18018835783E-002 
+3.81000000000E+009 +1.58245097846E-002 -4.92483615875E-001 -1.40423625708E-002 +5.25827296078E-002 +3.03798037748E-006 -1.50827236212E-006 -5.68668283522E-002 +1.91025398672E-002 
+4.01000000000E+009 -5.29004819691E-003 -5.03805577755E-001 +4.57458719611E-002 +3.19339521229E-002 +1.21277480503E-005 -1.17837744256E-005 -5.58907948434E-002 +2.70128510892E-002 
+4.21000000000E+009 -2.64895763248E-002 -5.13805210590E-001 +4.65759821236E-002 -3.13840135932E-002 +1.68079077412E-006 -1.99684973268E-006 -5.38382716477E-002 +3.57650667429E-002 
+4.41000000000E+009 -4.72077205777E-002 -5.22688388824E-001 -1.28219462931E-002 -5.70253096521E-002 +1.15037391879E-005 -2.79679193227E-006 -5.07126487792E-002 +4.40790355206E-002 
+4.61000000000E+009 -6.76393881440E-002 -5.30746102333E-001 -6.01709149778E-002 -6.82617584243E-003 -2.91983778880E-005 +1.92523893929E-005 -4.65893745422E-002 +5.13328574598E-002 
+4.81000000000E+009 -8.81108269095E-002 -5.37763357162E-001 -2.76752170175E-002 +5.46873025596E-002 +6.09232120041E-006 -4.26432461609E-006 -3.99303659797E-002 +5.85518330336E-002 
+5.01000000000E+009 -1.07672780752E-001 -5.44388175011E-001 +4.38902862370E-002 +4.74040955305E-002 +1.16131732284E-005 -1.36448250032E-006 -3.34595516324E-002 +6.51664808393E-002 
+5.21000000000E+009 -1.27027869225E-001 -5.50459027290E-001 +6.08213432133E-002 -2.87315528840E-002 +1.57757040142E-005 +8.62211527419E-006 -2.59339492768E-002 +7.12011307478E-002 
+5.41000000000E+009 -1.46083384752E-001 -5.55176019669E-001 -7.23996898159E-003 -6.75255581737E-002 -1.71594656422E-005 -8.39885728965E-007 -1.71175003052E-002 +7.64000043273E-002 
+5.61000000000E+009 -1.65081724524E-001 -5.59733748436E-001 -7.05443024635E-002 -1.59760825336E-002 +2.51645451499E-005 +3.06524111693E-006 -7.39282928407E-003 +7.95262679458E-002 
+5.81000000000E+009 -1.83579564095E-001 -5.63238918781E-001 -3.49752642214E-002 +6.54732808471E-002 -3.80823530577E-006 -2.75562979368E-005 +3.10280639678E-003 +8.03864002228E-002 
+6.01000000000E+009 -2.01226651669E-001 -5.65646588802E-001 +5.12863062322E-002 +5.39730116725E-002 -7.62051604397E-006 +1.88356398212E-006 +1.42127452418E-002 +8.24424326420E-002 
+6.21000000000E+009 -2.18986496329E-001 -5.67746281624E-001 +7.03044906259E-002 -3.70580032468E-002 -1.77246568001E-006 -7.80130994826E-006 +2.48890984803E-002 +8.17410871387E-002 
+6.41000000000E+009 -2.36021980643E-001 -5.68786203861E-001 -1.92439332604E-002 -7.57204145193E-002 -2.17455635720E-006 +2.23831807489E-006 +3.64291109145E-002 +7.99632221460E-002 
+6.61000000000E+009 -2.52785980701E-001 -5.69287180901E-001 -7.70041197538E-002 -2.23962706514E-003 +1.43684496834E-006 +1.16597066153E-005 +4.75152321160E-002 +7.48083293438E-002 
+6.81000000000E+009 -2.69113808870E-001 -5.69179892540E-001 -1.84621829540E-002 +7.42436498404E-002 +8.88596787263E-006 +8.45258546178E-006 +5.83329983056E-002 +6.89631327987E-002 
+7.01000000000E+009 -2.84307777882E-001 -5.68443596363E-001 +6.06852881610E-002 +3.06135434657E-002 +1.59448882187E-005 +1.69633913174E-005 +6.82322233915E-002 +6.27249255776E-002 
+7.21000000000E+009 -2.98938453197E-001 -5.67429304123E-001 +4.38830256462E-002 -4.37931939960E-002 +6.38473602521E-006 -2.58958334598E-005 +7.73985981941E-002 +5.40584065020E-002 
+7.41000000000E+009 -3.12874674797E-001 -5.66460013390E-001 -2.75684557855E-002 -4.91430796683E-002 -1.40901711347E-005 -2.82417367998E-005 +8.66632387042E-002 +4.39130514860E-002 
+7.61000000000E+009 -3.25909942389E-001 -5.65106809139E-001 -5.12214936316E-002 +7.93031975627E-003 -1.02426508874E-006 -7.49618811824E-006 +9.28483977914E-002 +3.18153463304E-002 
+7.81000000000E+009 -3.39296847582E-001 -5.63195705414E-001 -8.34970641881E-003 +4.63659316301E-002 -1.83521988220E-005 -2.23523857130E-005 +9.83848944306E-002 +1.96579620242E-002 
+8.01000000000E+009 -3.51669222116E-001 -5.61190485954E-001 +3.86225022376E-002 +2.14559808373E-002 -8.16102055978E-006 +2.04852603929E-005 +1.01952284575E-001 +5.75095694512E-003 
+8.21000000000E+009 -3.63753587008E-001 -5.58868885040E-001 +2.91649773717E-002 -2.66895685345E-002 -5.01221620652E-006 -8.20262539492E-006 +1.04062624276E-001 -8.22935812175E-003 
+8.41000000000E+009 -3.75470489264E-001 -5.56332349777E-001 -1.32547458634E-002 -3.40828113258E-002 -1.11113183721E-006 -1.53898563440E-005 +1.03720143437E-001 -2.33647599816E-002 
+8.61000000000E+009 -3.86975228786E-001 -5.53977727890E-001 -3.38650010526E-002 +1.25722319353E-003 -3.60589706361E-006 -5.33665843250E-006 +1.00420646369E-001 -3.88229265809E-002 
+8.81000000000E+009 -3.98000180721E-001 -5.51547527313E-001 -9.43191722035E-003 +2.92527470738E-002 -1.32744298753E-005 +1.02024387161E-005 +9.49735790491E-002 -5.43336942792E-002 
+9.01000000000E+009 -4.08705413342E-001 -5.48795163631E-001 +2.19407230616E-002 +1.75528582186E-002 +1.47687560457E-005 -2.05101355277E-006 +8.82762074471E-002 -6.79840892553E-002 
+9.21000000000E+009 -4.19113129377E-001 -5.46083092690E-001 +2.23820265383E-002 -1.31939947605E-002 +1.29937268412E-006 +6.89529997544E-006 +7.84049779177E-002 -8.28483402729E-002 
+9.41000000000E+009 -4.28833663464E-001 -5.43437957764E-001 -4.14334191009E-003 -2.33670342714E-002 +1.52103302753E-005 +2.97162318930E-006 +6.58107623458E-002 -9.63589847088E-002 
+9.61000000000E+009 -4.38493639231E-001 -5.40284335613E-001 -2.11082715541E-002 -4.47819428518E-003 -1.50431433212E-005 +9.76709179668E-006 +5.07043451071E-002 -1.08506008983E-001 
+9.81000000000E+009 -4.47428464890E-001 -5.37877857685E-001 -1.12374704331E-002 +1.67917758226E-002 -2.05601463676E-005 -3.34390279022E-005 +3.54994982481E-002 -1.17665000260E-001 
+1.00100000000E+010 -4.56622064114E-001 -5.34779906273E-001 +1.07012698427E-002 +1.51860238984E-002 +3.08608032356E-005 -2.55769882642E-005 +1.86276789755E-002 -1.25532597303E-001 
+1.02100000000E+010 -4.65200573206E-001 -5.31461000443E-001 +1.66055280715E-002 -3.68667859584E-003 -8.29923919810E-006 -3.76174085659E-007 +4.23445133492E-004 -1.32362604141E-001 
+1.04100000000E+010 -4.73750352859E-001 -5.28525233269E-001 +2.66131362878E-003 -1.59109421074E-002 -7.95982305135E-006 +5.50353652216E-005 -2.01519988477E-002 -1.37731835246E-001 
+1.06100000000E+010 -4.81996685266E-001 -5.25296628475E-001 -1.28040798008E-002 -7.60216219351E-003 +1.79184189619E-005 -9.34255967877E-006 -4.17259633541E-002 -1.40215620399E-001 
+1.08100000000E+010 -4.89074528217E-001 -5.22827565670E-001 -1.10841169953E-002 +8.11051018536E-003 -1.48694616655E-005 -1.82204330486E-005 -6.35765939951E-002 -1.39735534787E-001 
+1.10100000000E+010 -4.96565252542E-001 -5.19674658775E-001 +3.13403573819E-003 +1.26798190176E-002 -4.07656489188E-006 -1.54229692271E-005 -8.55082646012E-002 -1.36230260134E-001 
+1.12100000000E+010 -5.03540396690E-001 -5.17406046391E-001 +1.20145203546E-002 +1.57398032025E-003 +2.38407210418E-006 -2.26040265261E-005 -1.09208799899E-001 -1.29797622561E-001 
+1.14100000000E+010 -5.10751068592E-001 -5.14208436012E-001 +5.80534478649E-003 -9.60670504719E-003 -1.25603974084E-005 -2.59618591372E-005 -1.32173657417E-001 -1.19629874825E-001 
+1.16100000000E+010 -5.16565442085E-001 -5.11520743370E-001 -6.35909521952E-003 -8.64106789231E-003 +9.18672594707E-006 +3.93486452310E-008 -1.53915643692E-001 -1.06339924037E-001 
+1.18100000000E+010 -5.22850632668E-001 -5.08675217628E-001 -9.62607562542E-003 +2.53038667142E-003 -1.46128986671E-005 +1.87920468306E-005 -1.73493310809E-001 -8.95884484053E-002 
+1.20100000000E+010 -5.29257059097E-001 -5.05421042442E-001 -1.44677713979E-003 +9.16418898851E-003 +6.73821659802E-006 -2.47262523771E-005 -1.90424382687E-001 -7.01590999961E-002 
+1.22100000000E+010 -5.35666704178E-001 -5.01920819283E-001 +7.62476446107E-003 +4.67825541273E-003 -5.73245733904E-006 -8.57857867231E-006 -2.07875236869E-001 -4.83371801674E-002 
+1.24100000000E+010 -5.41505932808E-001 -4.98849660158E-001 +6.71266857535E-003 -4.93015022948E-003 +2.60760134552E-005 +1.69517625181E-005 -2.22252517939E-001 -2.30847503990E-002 
+1.26100000000E+010 -5.47302782536E-001 -4.95711058378E-001 -1.69565679971E-003 -7.61407520622E-003 +1.52654920385E-005 -1.06828783828E-005 -2.32494264841E-001 +4.47683641687E-003 
+1.28100000000E+010 -5.52760303020E-001 -4.92462188005E-001 -7.39359669387E-003 -1.31017551757E-003 +1.29792078951E-006 -6.07196079727E-006 -2.38690629601E-001 +3.34783792496E-002 
+1.30100000000E+010 -5.58319032192E-001 -4.88595455885E-001 -3.75003181398E-003 +5.91379497200E-003 +2.28741032515E-006 +7.23719449525E-006 -2.42303460836E-001 +6.32909983397E-002 
+1.32100000000E+010 -5.63324749470E-001 -4.85240489244E-001 +3.67851834744E-003 +5.46034099534E-003 -4.54827113572E-006 -1.72592372110E-005 -2.42695525289E-001 +9.47624742985E-002 
+1.34100000000E+010 -5.68514347076E-001 -4.81179296970E-001 +6.27361144871E-003 -1.24536349904E-003 -1.49063589561E-005 -8.99979568203E-006 -2.39004284143E-001 +1.26361161470E-001 
+1.36100000000E+010 -5.71626722813E-001 -4.77618128061E-001 +1.12195010297E-003 -5.87176391855E-003 +4.89714830110E-006 +3.59826844942E-005 -2.31368795037E-001 +1.59103348851E-001 
+1.38100000000E+010 -5.76756715775E-001 -4.74741220474E-001 -4.64629847556E-003 -3.18709597923E-003 +1.75054428837E-005 +1.95698521566E-005 -2.18182384968E-001 +1.91071897745E-001 
+1.40100000000E+010 -5.81708908081E-001 -4.71548438072E-001 -4.63232584298E-003 +2.92803999037E-003 +6.43002340439E-006 -1.08130109311E-006 -2.01501160860E-001 +2.21953332424E-001 
+1.42100000000E+010 -5.86271524429E-001 -4.68626976013E-001 +9.07806854229E-004 +5.01493550837E-003 -9.04993339645E-006 -1.87509558600E-005 -1.80981844664E-001 +2.53210783005E-001 
+1.44100000000E+010 -5.91084659100E-001 -4.64879184961E-001 +4.68393135816E-003 +1.19796616491E-003 -2.33582904912E-005 -8.41208293423E-006 -1.55209928751E-001 +2.81562894583E-001 
+1.46100000000E+010 -5.94934761524E-001 -4.61785584688E-001 +2.84030684270E-003 -3.73709318228E-003 +8.08999175206E-006 +2.86156591756E-006 -1.24589994550E-001 +3.06972593069E-001 
+1.48100000000E+010 -5.98717451096E-001 -4.56242710352E-001 -2.25690635853E-003 -3.83241125382E-003 -4.04443380830E-006 +3.30849179591E-005 -9.16193053126E-002 +3.28815877438E-001 
+1.50100000000E+010 -6.00427925587E-001 -4.55100148916E-001 -4.21250285581E-003 +4.34347603004E-004 -9.30936403165E-006 -2.68347321253E-006 -5.61860874295E-002 +3.48171144724E-001 
+1.52100000000E+010 -6.03395998478E-001 -4.54076826572E-001 -1.18656991981E-003 +3.95080028102E-003 -2.15047493839E-005 -4.13551106249E-006 -1.74777321517E-002 +3.63210916519E-001 
+1.54100000000E+010 -6.07066392899E-001 -4.51707720757E-001 +3.02518229000E-003 +2.47514131479E-003 +2.20731599256E-005 -8.21582671051E-006 +2.46432572603E-002 +3.73249918222E-001 
+1.56100000000E+010 -6.10935270786E-001 -4.48010414839E-001 +3.29307676293E-003 -1.66752701625E-003 -6.77368234392E-006 +2.29135275731E-005 +6.84772431850E-002 +3.77605140209E-001 
+1.58100000000E+010 -6.12214267254E-001 -4.46972757578E-001 -2.44175782427E-004 -3.61205404624E-003 -1.31785300255E-005 -7.73705869506E-006 +1.12258739769E-001 +3.77957761288E-001 
+1.60100000000E+010 -6.14608347416E-001 -4.45417374372E-001 -3.19621525705E-003 -1.10993522685E-003 +1.65104702319E-005 -1.76121466211E-005 +1.57175913453E-001 +3.72926890850E-001 
+1.62100000000E+010 -6.17064714432E-001 -4.43545639515E-001 -2.24951258861E-003 +2.36348994076E-003 +1.93686992134E-005 +8.35747141537E-006 +2.04473674297E-001 +3.62620562315E-001 
+1.64100000000E+010 -6.19245231152E-001 -4.41678375006E-001 +1.29504501820E-003 +2.91892327368E-003 -1.34355068440E-005 -1.16372859793E-006 +2.51141935587E-001 +3.46372365952E-001 
+1.66100000000E+010 -6.22688174248E-001 -4.39616143703E-001 +3.00466036424E-003 -1.01855883258E-004 -6.17067189523E-006 -1.08198737507E-005 +2.94816106558E-001 +3.22788506746E-001 
+1.68100000000E+010 -6.25925898552E-001 -4.36898946762E-001 +1.12840544898E-003 -2.64721829444E-003 -1.93748401216E-005 -7.20260231901E-006 +3.37876826525E-001 +2.95417129993E-001 
+1.70100000000E+010 -6.27680122852E-001 -4.34440225363E-001 -1.98417087086E-003 -1.99196278118E-003 +2.15799531134E-007 +3.63631152140E-005 +3.77762794495E-001 +2.64045208693E-001 
+1.72100000000E+010 -6.29997789860E-001 -4.32142853737E-001 -2.46317102574E-003 +9.75993520115E-004 -2.25167605095E-006 -1.02747253550E-005 +4.15197551250E-001 +2.25622221828E-001 
+1.74100000000E+010 -6.33077383041E-001 -4.29970026016E-001 -8.69090945343E-005 +2.54034530371E-003 -3.94121452700E-005 -2.43278136622E-005 +4.48458582163E-001 +1.82754844427E-001 
+1.76100000000E+010 -6.35764718056E-001 -4.27485764027E-001 +2.24887416698E-003 +1.08696753159E-003 +2.63611182163E-005 +4.55613502481E-007 +4.76106524467E-001 +1.36795490980E-001 
+1.78100000000E+010 -6.38696372509E-001 -4.25170361996E-001 +1.75026711076E-003 -1.57753541134E-003 -4.02658515668E-005 -2.65168437181E-005 +4.99580293894E-001 +8.82427468896E-002 
+1.80100000000E+010 -6.40984356403E-001 -4.22531008720E-001 -6.60545600113E-004 -2.19305907376E-003 +5.91958450968E-005 -6.09215749137E-006 +5.18878698349E-001 +3.71906831861E-002 
+1.82100000000E+010 -6.43700301647E-001 -4.20394390821E-001 -2.18890537508E-003 -1.87737256056E-004 +1.86328816199E-005 -1.15329730761E-005 +5.31544744968E-001 -1.71478521079E-002 
+1.84100000000E+010 -6.46313130856E-001 -4.18525367975E-001 -9.67146130279E-004 +1.83665438090E-003 +2.84346424451E-006 +3.99592272515E-006 +5.37584543228E-001 -7.42359757423E-002 
+1.86100000000E+010 -6.49122536182E-001 -4.16252911091E-001 +1.26796681434E-003 +1.58220075537E-003 +1.15498028208E-006 +5.12211727255E-006 +5.37870764732E-001 -1.30626440048E-001 
+1.88100000000E+010 -6.51445925236E-001 -4.13802534342E-001 +1.87873444520E-003 -5.19306573551E-004 -1.07127816591E-005 -5.69601434108E-006 +5.32078862190E-001 -1.87085896730E-001 
+1.90100000000E+010 -6.53178036213E-001 -4.11767184734E-001 +2.75101047009E-004 -1.84815039393E-003 -1.34375368361E-005 -6.44792362436E-006 +5.20258903503E-001 -2.43192851543E-001 
+1.92100000000E+010 -6.55613899231E-001 -4.10401850939E-001 -1.49488775060E-003 -9.94451227598E-004 +1.37577259807E-007 +3.22607024827E-006 +5.02272188663E-001 -3.00588130951E-001 
+1.94100000000E+010 -6.58264577389E-001 -4.07998889685E-001 -1.43977545667E-003 +9.90507425740E-004 -9.78027128440E-006 +8.09582434158E-006 +4.76841628551E-001 -3.55024278164E-001 
+1.96100000000E+010 -6.59112334251E-001 -4.05473917723E-001 +3.06825997541E-004 +1.61793525331E-003 -2.49874337896E-005 +4.58090789834E-006 +4.46156740189E-001 -4.06918883324E-001 
+1.98100000000E+010 -6.58520042896E-001 -4.02522116899E-001 +1.56001059804E-003 +3.94223665353E-004 +2.07180050893E-006 +6.90223760103E-006 +4.11347866058E-001 -4.54109460115E-001 
+2.00100000000E+010 -6.57611310482E-001 -4.01571482420E-001 +9.02604428120E-004 -1.29377224948E-003 -2.77675790130E-005 +4.27079066867E-006 +3.69730502367E-001 -5.00396013260E-001 
