!;Filter: kein Filter
!auto
!3/21/2019 9:27:39 AM
!3/21/2019 9:27:53 AM
!SP-Measurements Prober G4
!SP-Measurements Prober G4
!01103_448C
!134
!235
!12
!40
!-20
!0.00499992
!1.96
!0.64375220
!0.64375220
# Hz S  RI   R 50
+1.00000000000E+007 +1.97823360562E-001 +7.47575890273E-003 +5.35373985767E-002 -2.02800985426E-002 -5.71397715248E-004 -4.24552388722E-004 +5.04500931129E-003 +1.14579708315E-003 
+2.10000000000E+008 +2.19409346581E-001 -2.18008831143E-002 -2.60498025455E-003 -5.66118173301E-002 -1.21642342492E-005 -5.76807542529E-005 +8.51107295603E-003 -4.78403316811E-003 
+4.10000000000E+008 +2.22094029188E-001 -5.43364733458E-002 -5.28728775680E-002 -1.73554010689E-002 -2.08548062801E-005 -4.46732483397E-005 +9.96356923133E-003 -7.01560825109E-003 
+6.10000000000E+008 +2.20588356256E-001 -8.67015942931E-002 -3.40803116560E-002 +4.23507206142E-002 -2.40876834141E-005 +4.99258094351E-005 +9.91326291114E-003 -1.16601251066E-002 
+8.10000000000E+008 +2.15032845736E-001 -1.18587464094E-001 +2.71006375551E-002 +4.69618327916E-002 -3.49053734681E-005 +3.83864471587E-006 +6.82255346328E-003 -1.52707984671E-002 
+1.01000000000E+009 +2.07315921783E-001 -1.49149492383E-001 +5.39787784219E-002 -8.70010256767E-003 +2.67977538897E-005 +2.78940046883E-006 +2.86314007826E-003 -1.89977176487E-002 
+1.21000000000E+009 +1.97622865438E-001 -1.78409054875E-001 +1.08874570578E-002 -5.19481413066E-002 +5.15554438607E-006 +1.52563297888E-005 -1.74184038769E-003 -2.11565773934E-002 
+1.41000000000E+009 +1.85989737511E-001 -2.06864729524E-001 -4.45220470428E-002 -2.93346624821E-002 +7.03665000401E-006 +1.96044020413E-005 -7.35808722675E-003 -2.43922751397E-002 
+1.61000000000E+009 +1.73490330577E-001 -2.34071344137E-001 -4.28068377078E-002 +3.16072180867E-002 +8.44090482133E-006 -2.49061372415E-006 -1.37844355777E-002 -2.66292523593E-002 
+1.81000000000E+009 +1.59083321691E-001 -2.59713619947E-001 +1.34576633573E-002 +5.03205209970E-002 +6.55031271890E-006 -1.22047413242E-005 -1.76008455455E-002 -2.76983026415E-002 
+2.01000000000E+009 +1.44307136536E-001 -2.84027367830E-001 +5.22329770029E-002 +6.06501055881E-003 -3.16371115332E-005 +1.16447818073E-005 -2.31284331530E-002 -2.66502983868E-002 
+2.21000000000E+009 +1.28155454993E-001 -3.07414025068E-001 +2.34321374446E-002 -4.69893626869E-002 +7.43071859688E-006 -1.44947234730E-005 -2.86792851985E-002 -2.44744811207E-002 
+2.41000000000E+009 +1.10890790820E-001 -3.28779906034E-001 -3.43652665615E-002 -3.84364500642E-002 -1.11892795758E-005 -1.63590391367E-006 -3.53981442750E-002 -2.21890043467E-002 
+2.61000000000E+009 +9.34329107404E-002 -3.48904073238E-001 -4.88055311143E-002 +1.83954145759E-002 +1.78452864930E-005 +7.06030823494E-006 -4.06245402992E-002 -1.92064847797E-002 
+2.81000000000E+009 +7.51942098141E-002 -3.67599725723E-001 +3.94847127609E-004 +5.15281967819E-002 -1.54440058395E-005 +5.31535624759E-006 -4.45236228406E-002 -1.43452184275E-002 
+3.01000000000E+009 +5.65430969000E-002 -3.84679466486E-001 +4.74363453686E-002 +1.87086537480E-002 -2.29169254453E-005 -1.59615628945E-005 -4.84011955559E-002 -8.65033455193E-003 
+3.21000000000E+009 +3.77466045320E-002 -4.00615453720E-001 +3.48515138030E-002 -3.80130298436E-002 -1.96273158508E-005 +2.18717650569E-006 -5.22612072527E-002 -2.25337618031E-003 
+3.41000000000E+009 +1.90614648163E-002 -4.15358603001E-001 -2.31233611703E-002 -4.55412417650E-002 -1.31325232360E-005 +2.74679314316E-006 -5.52533343434E-002 +4.85684024170E-003 
+3.61000000000E+009 +2.78479245026E-004 -4.28891241550E-001 -5.07516972721E-002 +4.45976853371E-003 +1.73318403540E-005 -7.09809683030E-007 -5.69970235229E-002 +1.18097960949E-002 
+3.81000000000E+009 -1.88018772751E-002 -4.41130667925E-001 -1.40484618023E-002 +4.98138107359E-002 -1.09638540380E-005 -2.17709894059E-005 -5.67944571376E-002 +1.91029962152E-002 
+4.01000000000E+009 -3.74171994627E-002 -4.52624469995E-001 +4.13447991014E-002 +3.02063021809E-002 -2.20255806198E-005 +1.08684489533E-005 -5.58101944625E-002 +2.69860420376E-002 
+4.21000000000E+009 -5.60756251216E-002 -4.62768554688E-001 +4.34645824134E-002 -2.72723510861E-002 +1.49407105710E-005 -2.98764207400E-005 -5.38101159036E-002 +3.57228852808E-002 
+4.41000000000E+009 -7.44719430804E-002 -4.71985191107E-001 -1.07132317498E-002 -5.10814450681E-002 +1.24472071548E-005 +1.49801971929E-005 -5.06399795413E-002 +4.40245978534E-002 
+4.61000000000E+009 -9.26746353507E-002 -4.80239689350E-001 -5.08911237121E-002 -7.67902657390E-003 -6.37330867903E-006 +6.36646154817E-006 -4.65295128524E-002 +5.12837357819E-002 
+4.81000000000E+009 -1.10875405371E-001 -4.87726479769E-001 -2.59668845683E-002 +4.49353046715E-002 +5.13230952492E-006 +3.20685940096E-005 -3.99142540991E-002 +5.85218966007E-002 
+5.01000000000E+009 -1.28510177135E-001 -4.94802653790E-001 +3.39106842875E-002 +3.95854376256E-002 +4.49369690614E-006 +1.19174694646E-006 -3.34132723510E-002 +6.50796443224E-002 
+5.21000000000E+009 -1.45769774914E-001 -5.01140415668E-001 +4.80598472059E-002 -1.68761704117E-002 -5.53279005544E-006 +2.34632952925E-005 -2.59355399758E-002 +7.11088851094E-002 
+5.41000000000E+009 -1.62715494633E-001 -5.06451308727E-001 +1.90401182044E-003 -5.14671951532E-002 -1.20468512250E-005 -1.68413462234E-005 -1.71347334981E-002 +7.63292461634E-002 
+5.61000000000E+009 -1.79857671261E-001 -5.11415183544E-001 -4.73979935050E-002 -1.97818148881E-002 -1.60973704624E-005 -7.59820409257E-007 -7.40197300911E-003 +7.94153064489E-002 
+5.81000000000E+009 -1.96071356535E-001 -5.15490889549E-001 -3.61164957285E-002 +3.70814800262E-002 -7.36646995847E-007 -8.01312216936E-006 +3.08198574930E-003 +8.02905261517E-002 
+6.01000000000E+009 -2.11844384670E-001 -5.18737196922E-001 +2.25086398423E-002 +4.80944886804E-002 -1.43682682392E-005 +2.07983030123E-005 +1.41991861165E-002 +8.23414027691E-002 
+6.21000000000E+009 -2.27573201060E-001 -5.21541476250E-001 +5.35988882184E-002 -4.85868612304E-003 -1.33058028950E-005 +6.12413123235E-006 +2.48266309500E-002 +8.16641971469E-002 
+6.41000000000E+009 -2.42508813739E-001 -5.23778557777E-001 +1.42254326493E-002 -5.28683811426E-002 +4.32444630860E-006 -9.40545533012E-007 +3.63454110920E-002 +7.98809379339E-002 
+6.61000000000E+009 -2.57597446442E-001 -5.25667905807E-001 -4.61602620780E-002 -3.17027606070E-002 -2.24328668992E-005 +2.40202498389E-005 +4.74200285971E-002 +7.47512504458E-002 
+6.81000000000E+009 -2.72217184305E-001 -5.27015805244E-001 -4.52830418944E-002 +3.36327627301E-002 -3.36193879775E-005 -1.04971627479E-006 +5.82507401705E-002 +6.88735544682E-002 
+7.01000000000E+009 -2.86211550236E-001 -5.28020679951E-001 +1.70154292136E-002 +5.44127710164E-002 -3.18243837683E-005 +3.96782206735E-006 +6.81490153074E-002 +6.26569837332E-002 
+7.21000000000E+009 -3.00039052963E-001 -5.28497695923E-001 +5.77327795327E-002 +1.04086881038E-003 -2.10865200643E-005 -1.55210534558E-006 +7.72849023342E-002 +5.40414229035E-002 
+7.41000000000E+009 -3.13238650560E-001 -5.28921961784E-001 +1.87395978719E-002 -5.43253645301E-002 -1.51475023813E-005 -4.54664541394E-006 +8.65630879998E-002 +4.38767746091E-002 
+7.61000000000E+009 -3.25678497553E-001 -5.28731763363E-001 -4.54629100859E-002 -3.49564626813E-002 +1.78477694135E-005 +3.60492194886E-005 +9.27248224616E-002 +3.18220555782E-002 
+7.81000000000E+009 -3.38547170162E-001 -5.27972757816E-001 -4.66645471752E-002 +3.27699184418E-002 +1.87757595995E-005 +1.06483712443E-005 +9.82771217823E-002 +1.97034422308E-002 
+8.01000000000E+009 -3.50461572409E-001 -5.26971638203E-001 +1.66891440749E-002 +5.27662634850E-002 -3.27302295773E-005 -2.65837188635E-005 +1.01842433214E-001 +5.81798981875E-003 
+8.21000000000E+009 -3.62111955881E-001 -5.25658369064E-001 +5.39177171886E-002 +2.96244048513E-004 +4.07547440773E-006 +3.56321243089E-006 +1.03968650103E-001 -8.15953128040E-003 
+8.41000000000E+009 -3.73443990946E-001 -5.23924291134E-001 +1.57982427627E-002 -4.93758656085E-002 -1.05510735011E-005 +1.02509784483E-005 +1.03600099683E-001 -2.32720617205E-002 
+8.61000000000E+009 -3.84563565254E-001 -5.22498786449E-001 -3.97009998560E-002 -2.86908801645E-002 -1.78692334885E-005 -2.68489002337E-005 +1.00359909236E-001 -3.87385338545E-002 
+8.81000000000E+009 -3.95205497742E-001 -5.20839512348E-001 -3.85069958866E-002 +2.74155382067E-002 +1.58643306349E-005 +1.62775413628E-005 +9.48969274759E-002 -5.42025677860E-002 
+9.01000000000E+009 -4.05508935452E-001 -5.18747389317E-001 +1.45251639187E-002 +4.21703346074E-002 -4.81791403217E-006 +6.99041947883E-006 +8.81956368685E-002 -6.78188130260E-002 
+9.21000000000E+009 -4.15473729372E-001 -5.16807377338E-001 +4.02685925364E-002 +1.24715894344E-004 +1.30907903895E-006 +1.29662921609E-005 +7.83242136240E-002 -8.26737508178E-002 
+9.41000000000E+009 -4.24852728844E-001 -5.14835298061E-001 +1.31513364613E-002 -3.54123488069E-002 -4.26065780630E-005 -1.61386033142E-005 +6.58023729920E-002 -9.61563438177E-002 
+9.61000000000E+009 -4.34163808823E-001 -5.12484490871E-001 -2.67397332937E-002 -2.21982225776E-002 +1.50494206537E-005 -3.09450806526E-005 +5.06218820810E-002 -1.08272030950E-001 
+9.81000000000E+009 -4.42762851715E-001 -5.10807633400E-001 -2.84675266594E-002 +1.54439900070E-002 -3.19417376886E-005 -3.60699982593E-006 +3.55352200568E-002 -1.17502354085E-001 
+1.00100000000E+010 -4.51790988445E-001 -5.08447051048E-001 +4.52606985345E-003 +3.09072081000E-002 +3.53102200279E-006 +2.11037695408E-005 +1.86548866332E-002 -1.25375002623E-001 
+1.02100000000E+010 -4.60043966770E-001 -5.05750596523E-001 +2.81742066145E-002 +5.22052729502E-003 +2.41557972913E-005 +4.40572512161E-005 +4.98996640090E-004 -1.32154509425E-001 
+1.04100000000E+010 -4.68278974295E-001 -5.03398120403E-001 +1.44488485530E-002 -2.28313468397E-002 -1.35783620863E-005 +1.34953015731E-005 -2.00334023684E-002 -1.37534826994E-001 
+1.06100000000E+010 -4.76328760386E-001 -5.00855386257E-001 -1.52190253139E-002 -1.96289476007E-002 +1.18460447993E-005 -2.97044516628E-005 -4.16250638664E-002 -1.40067636967E-001 
+1.08100000000E+010 -4.83158111572E-001 -4.99032974243E-001 -2.18976940960E-002 +6.12496957183E-003 +1.38510440593E-005 -2.25660714932E-005 -6.34234324098E-002 -1.39593288302E-001 
+1.10100000000E+010 -4.90539789200E-001 -4.96543139219E-001 -2.57053528912E-003 +2.15445235372E-002 -7.86937016528E-006 +1.33701523737E-005 -8.53198468685E-002 -1.36070892215E-001 
+1.12100000000E+010 -4.97307151556E-001 -4.94856327772E-001 +1.82585213333E-002 +9.39018744975E-003 -5.73523220737E-006 +2.94812562061E-005 -1.09028868377E-001 -1.29659965634E-001 
+1.14100000000E+010 -5.04344165325E-001 -4.92282748222E-001 +1.43049256876E-002 -1.23643735424E-002 +2.39993664763E-006 +9.11876395548E-006 -1.31956547499E-001 -1.19546100497E-001 
+1.16100000000E+010 -5.09963691235E-001 -4.90144461393E-001 -5.87895559147E-003 -1.71121060848E-002 -1.53433702508E-005 +1.55950510816E-005 -1.53698563576E-001 -1.06312401593E-001 
+1.18100000000E+010 -5.16172468662E-001 -4.87834542990E-001 -1.67755261064E-002 -4.87391807837E-004 -2.41676076485E-007 -3.99303789891E-005 -1.73307418823E-001 -8.95318016410E-002 
+1.20100000000E+010 -5.22465169430E-001 -4.85122412443E-001 -6.53035100549E-003 +1.39663787559E-002 +2.20786134264E-007 -1.64122029673E-005 -1.90199494362E-001 -7.01469928026E-002 
+1.22100000000E+010 -5.28741896152E-001 -4.82118129730E-001 +9.96605865657E-003 +1.10334251076E-002 -2.19489847950E-005 -1.91661201825E-005 -2.07670629025E-001 -4.83616627753E-002 
+1.24100000000E+010 -5.34466743469E-001 -4.79646205902E-001 +1.32423201576E-002 -4.97426232323E-003 -1.18083107736E-005 +3.81288264180E-005 -2.22002461553E-001 -2.31438707560E-002 
+1.26100000000E+010 -5.40160477161E-001 -4.76964443922E-001 +3.96355753765E-004 -1.32752405480E-002 +1.52015954882E-005 +1.36074213515E-005 -2.32278481126E-001 +4.34991996735E-003 
+1.28100000000E+010 -5.45624375343E-001 -4.74250018597E-001 -1.16257891059E-002 -5.22163929418E-003 +6.34942898614E-006 -7.74569616624E-006 -2.38515734673E-001 +3.33489738405E-002 
+1.30100000000E+010 -5.51061868668E-001 -4.70898270607E-001 -8.54455679655E-003 +8.44858866185E-003 +1.15861366794E-005 -3.09874885716E-005 -2.42191448808E-001 +6.31808042526E-002 
+1.32100000000E+010 -5.56041002274E-001 -4.67967122793E-001 +4.12021530792E-003 +1.03671429679E-002 -2.41680882027E-005 -3.30494572154E-006 -2.42502525449E-001 +9.45734828711E-002 
+1.34100000000E+010 -5.61148405075E-001 -4.64353322983E-001 +1.08062131330E-002 +1.16919392894E-004 -5.96279789988E-007 -1.36568651214E-005 -2.38886609674E-001 +1.26128420234E-001 
+1.36100000000E+010 -5.64258396626E-001 -4.61248278618E-001 +3.80663690157E-003 -9.37827117741E-003 +2.67670174026E-007 -1.91906860891E-006 -2.31321886182E-001 +1.58870488405E-001 
+1.38100000000E+010 -5.69420397282E-001 -4.58821505308E-001 -6.65209442377E-003 -6.74362946302E-003 +2.90489278996E-005 +1.64863631653E-005 -2.18114688993E-001 +1.90782532096E-001 
+1.40100000000E+010 -5.74292004108E-001 -4.56022232771E-001 -8.50481819361E-003 +3.39693203568E-003 +2.47745556408E-005 -1.21013590615E-005 -2.01491266489E-001 +2.21676439047E-001 
+1.42100000000E+010 -5.78847527504E-001 -4.53455299139E-001 +6.27115368843E-005 +8.58766306192E-003 -1.45180556501E-005 -3.43454894391E-006 -1.81042596698E-001 +2.52935349941E-001 
+1.44100000000E+010 -5.83612978458E-001 -4.50099647045E-001 +7.39132799208E-003 +3.27187427320E-003 -9.85207589110E-006 +2.15940281123E-006 -1.55303314328E-001 +2.81316161156E-001 
+1.46100000000E+010 -5.87486028671E-001 -4.47404503822E-001 +5.67559897900E-003 -5.39647322148E-003 -1.74343185790E-005 +2.97068322652E-006 -1.24737858772E-001 +3.06698471308E-001 
+1.48100000000E+010 -5.91221213341E-001 -4.42287176847E-001 -2.74774618447E-003 -6.80588511750E-003 -2.61182094619E-007 -9.49564855546E-006 -9.18298140168E-002 +3.28639060259E-001 
+1.50100000000E+010 -5.93012154102E-001 -4.41446334124E-001 -6.96143740788E-003 -2.74262682069E-004 +1.87661426025E-005 +9.33649880608E-006 -5.63939064741E-002 +3.47967743874E-001 
+1.52100000000E+010 -5.96064627171E-001 -4.40803468227E-001 -2.85231135786E-003 +6.11809175462E-003 +2.82737764792E-005 -3.94704011342E-006 -1.77371110767E-002 +3.63031774759E-001 
+1.54100000000E+010 -5.99776744843E-001 -4.38779205084E-001 +4.33266721666E-003 +4.64858859777E-003 -1.00985980680E-005 -4.49400249636E-005 +2.43353974074E-002 +3.73081684113E-001 
+1.56100000000E+010 -6.03628516197E-001 -4.35446262360E-001 +5.68875716999E-003 -1.92471104674E-003 +8.89065267984E-006 -1.45088770296E-005 +6.81663304567E-002 +3.77481818199E-001 
+1.58100000000E+010 -6.05089962482E-001 -4.34746444225E-001 +3.97766882088E-004 -5.83773246035E-003 +8.56329461385E-006 +4.21840638865E-007 +1.11955650151E-001 +3.77869844437E-001 
+1.60100000000E+010 -6.07537746429E-001 -4.33400005102E-001 -4.94247814640E-003 -2.42088595405E-003 -3.16823570756E-005 -7.56393865231E-006 +1.56831592321E-001 +3.72894018888E-001 
+1.62100000000E+010 -6.09967052937E-001 -4.31809157133E-001 -4.08400082961E-003 +3.38013097644E-003 -2.08199726330E-005 +7.92502669356E-006 +2.04109400511E-001 +3.62620085478E-001 
+1.64100000000E+010 -6.12155616283E-001 -4.30298805237E-001 +1.51570618618E-003 +4.94067789987E-003 +3.62042119377E-005 -3.26100030179E-006 +2.50760674477E-001 +3.46506476402E-001 
+1.66100000000E+010 -6.15666031837E-001 -4.28497940302E-001 +4.82594268396E-003 +4.69446065836E-004 +7.63844036555E-006 -1.17054241855E-005 +2.94490009546E-001 +3.22945356369E-001 
+1.68100000000E+010 -6.18941485882E-001 -4.26008939743E-001 +2.28052958846E-003 -4.01639332995E-003 -1.78689406312E-005 +7.36976744520E-006 +3.37556719780E-001 +2.95608669519E-001 
+1.70100000000E+010 -6.20784044266E-001 -4.23811376095E-001 -2.76107597165E-003 -3.56188789010E-003 +1.13819241960E-005 +2.06710119528E-005 +3.77453297377E-001 +2.64259964228E-001 
+1.72100000000E+010 -6.23169600964E-001 -4.21779900789E-001 -4.10764757544E-003 +1.02214142680E-003 +2.63787733275E-005 -3.19648052027E-006 +4.14922535419E-001 +2.25875586271E-001 
+1.74100000000E+010 -6.26259565353E-001 -4.19839888811E-001 -7.01427867170E-004 +4.06644074246E-003 +4.42099508291E-006 +6.45162754154E-006 +4.48204457760E-001 +1.83066040277E-001 
+1.76100000000E+010 -6.28982186317E-001 -4.17666465044E-001 +3.41068953276E-003 +2.12303479202E-003 -1.69445138454E-005 +2.88426908810E-005 +4.75951910019E-001 +1.37212678790E-001 
+1.78100000000E+010 -6.31990492344E-001 -4.15487647057E-001 +3.13157378696E-003 -2.18964437954E-003 +6.64118670102E-006 -3.26893496094E-005 +4.99460369349E-001 +8.85943248868E-002 
+1.80100000000E+010 -6.34322345257E-001 -4.13065642118E-001 -6.91912428010E-004 -3.57834249735E-003 -9.53362268774E-006 -1.66929003171E-005 +5.18814086914E-001 +3.75742949545E-002 
+1.82100000000E+010 -6.37055635452E-001 -4.11139160395E-001 -3.54064069688E-003 -7.48614373151E-004 -2.86295153273E-006 -4.34031062468E-005 +5.31523466110E-001 -1.66563931853E-002 
+1.84100000000E+010 -6.39731585979E-001 -4.09499436617E-001 -1.94877339527E-003 +2.84831132740E-003 +3.54552030331E-005 -1.07692903839E-005 +5.37686109543E-001 -7.38409683108E-002 
+1.86100000000E+010 -6.42645239830E-001 -4.07436728477E-001 +1.73817866016E-003 +2.95522063971E-003 -4.86333021854E-007 -4.21684162575E-005 +5.37999927998E-001 -1.30191281438E-001 
+1.88100000000E+010 -6.45046412945E-001 -4.05178219080E-001 +3.25104454532E-003 -5.44051115867E-004 -6.06320099905E-006 +5.47205763723E-006 +5.32257556915E-001 -1.86701953411E-001 
+1.90100000000E+010 -6.46812677383E-001 -4.03357505798E-001 +6.92973204423E-004 -3.05145769380E-003 +5.59221825824E-006 +2.35938186961E-005 +5.20500957966E-001 -2.42798805237E-001 
+1.92100000000E+010 -6.49352610111E-001 -4.02334064245E-001 -2.50116619281E-003 -1.73211295623E-003 -6.13731117483E-006 +2.82261917164E-005 +5.02575993538E-001 -3.00184518099E-001 
+1.94100000000E+010 -6.51998937130E-001 -3.99990558624E-001 -2.41372222081E-003 +1.53500260785E-003 -1.01299156086E-005 +6.49368257655E-006 +4.77232426405E-001 -3.54648351669E-001 
+1.96100000000E+010 -6.52907550335E-001 -3.97603005171E-001 +4.12358611356E-004 +2.60317604989E-003 -3.50178634108E-005 +3.27854868374E-005 +4.46524262428E-001 -4.06571865082E-001 
+1.98100000000E+010 -6.52401745319E-001 -3.94849032164E-001 +2.44446005672E-003 +7.17155926395E-004 +6.93186620992E-006 -3.52199858753E-005 +4.11826372147E-001 -4.53882157803E-001 
+2.00100000000E+010 -6.51660025120E-001 -3.94106686115E-001 +1.51529873256E-003 -1.92644668277E-003 +2.71614262601E-005 +8.63921650307E-006 +3.70173633099E-001 -5.00247180462E-001 
