!;Filter: kein Filter
!auto
!3/21/2019 9:25:24 AM
!3/21/2019 9:25:40 AM
!SP-Measurements Prober G4
!SP-Measurements Prober G4
!01103_448C
!134
!237
!12
!40
!-20
!0.00399976
!1.88
!0.54220246
!0.54220246
# Hz S  RI   R 50
+1.00000000000E+007 +1.76156401634E-001 +1.28119122237E-002 +6.65017738938E-002 -2.76883766055E-002 -5.13457925990E-004 +3.56689066393E-004 +5.45111158863E-003 +1.60263909493E-003 
+2.10000000000E+008 +1.98161363602E-001 -2.52478271723E-002 -2.50536529347E-003 -6.88513293862E-002 -3.66429194401E-005 +4.44365214207E-005 +8.54666344821E-003 -4.80151642114E-003 
+4.10000000000E+008 +1.98069915175E-001 -5.77000640333E-002 -6.46066218615E-002 -2.20636185259E-002 -3.88380067307E-005 +2.51202127401E-005 +9.95194166899E-003 -6.94877514616E-003 
+6.10000000000E+008 +1.94446846843E-001 -8.91007259488E-002 -4.27500717342E-002 +5.20204827189E-002 -2.04819862120E-005 +3.98299343942E-005 +9.92315821350E-003 -1.16205429658E-002 
+8.10000000000E+008 +1.87915876508E-001 -1.19583867490E-001 +3.32175083458E-002 +5.81938140094E-002 -4.18994932261E-005 -8.83298434928E-006 +6.86360662803E-003 -1.52695402503E-002 
+1.01000000000E+009 +1.79820835590E-001 -1.48595035076E-001 +6.73769190907E-002 -1.08114043251E-002 +9.62206740951E-006 +2.16840471694E-005 +2.85195489414E-003 -1.89951136708E-002 
+1.21000000000E+009 +1.69730886817E-001 -1.76706373692E-001 +1.32932560518E-002 -6.46558180451E-002 -8.48536183184E-006 -9.01242037799E-006 -1.69718533289E-003 -2.11244858801E-002 
+1.41000000000E+009 +1.58212587237E-001 -2.03907847404E-001 -5.54677583277E-002 -3.59937325120E-002 +1.60567833518E-005 +8.52280481922E-006 -7.31457863003E-003 -2.43837852031E-002 
+1.61000000000E+009 +1.45860001445E-001 -2.30218157172E-001 -5.31939640641E-002 +3.95805537701E-002 +8.28433621791E-006 -9.46899945120E-006 -1.37598197907E-002 -2.66321338713E-002 
+1.81000000000E+009 +1.31572321057E-001 -2.54691332579E-001 +1.71418450773E-002 +6.25617355108E-002 +8.90890532901E-006 -4.13728303101E-005 -1.75455920398E-002 -2.76967324317E-002 
+2.01000000000E+009 +1.17111474276E-001 -2.78228223324E-001 +6.46317750216E-002 +7.37027777359E-003 -6.64504341330E-006 +3.46578344761E-005 -2.31142137200E-002 -2.66598369926E-002 
+2.21000000000E+009 +1.01273685694E-001 -3.00419539213E-001 +2.98656057566E-002 -5.87671324611E-002 -9.50378580455E-006 +3.53037248715E-005 -2.86911390722E-002 -2.44304686785E-002 
+2.41000000000E+009 +8.44405665994E-002 -3.20878118277E-001 -4.27251569927E-002 -4.86314781010E-002 +1.38955147122E-006 -1.50190107888E-005 -3.53707186878E-002 -2.21546143293E-002 
+2.61000000000E+009 +6.75390437245E-002 -3.39982509613E-001 -6.26524612308E-002 +2.17082649469E-002 -1.52095174144E-006 -2.76059272437E-005 -4.06197831035E-002 -1.91973373294E-002 
+2.81000000000E+009 +5.01741170883E-002 -3.58045339584E-001 -3.58418095857E-004 +6.70241266489E-002 +3.83598562621E-005 +1.99595178856E-005 -4.44971434772E-002 -1.43314348534E-002 
+3.01000000000E+009 +3.20739448071E-002 -3.74357074499E-001 +6.12632296979E-002 +2.54824645817E-002 -6.05301420364E-006 -2.12669783650E-005 -4.83928099275E-002 -8.68228822947E-003 
+3.21000000000E+009 +1.42443636432E-002 -3.89658331871E-001 +4.81832884252E-002 -4.97703626752E-002 +9.57138126978E-006 -1.42321050589E-005 -5.22656403482E-002 -2.28078593500E-003 
+3.41000000000E+009 -3.72993457131E-003 -4.04135614634E-001 -3.15559394658E-002 -6.19753636420E-002 -1.59632600116E-005 +8.86492671270E-006 -5.52584901452E-002 +4.82286047190E-003 
+3.61000000000E+009 -2.18437537551E-002 -4.17144209146E-001 -6.93482458591E-002 +5.73163945228E-003 +7.16037357051E-006 +2.99370731227E-005 -5.69679364562E-002 +1.17851151153E-002 
+3.81000000000E+009 -3.98645959795E-002 -4.29208219051E-001 -1.97525247931E-002 +7.05590024590E-002 +7.69781763665E-006 +1.84304212780E-007 -5.67480511963E-002 +1.90308727324E-002 
+4.01000000000E+009 -5.79717792571E-002 -4.40498411655E-001 +5.95055520535E-002 +4.12107743323E-002 -2.37983658735E-005 -1.28561287056E-005 -5.57975023985E-002 +2.69329231232E-002 
+4.21000000000E+009 -7.58729726076E-002 -4.50304329395E-001 +6.16694279015E-002 -3.96818704903E-002 -1.52890734171E-005 -8.75077421369E-006 -5.37836663425E-002 +3.56832481921E-002 
+4.41000000000E+009 -9.34256985784E-002 -4.59555715322E-001 -1.76560301334E-002 -7.57111534476E-002 +2.08365713661E-006 +4.96829488839E-005 -5.05931861699E-002 +4.40462157130E-002 
+4.61000000000E+009 -1.11213132739E-001 -4.67867612839E-001 -7.67106935382E-002 -8.36963485926E-003 -1.36582430059E-005 -9.79283140623E-006 -4.65095378458E-002 +5.12555465102E-002 
+4.81000000000E+009 -1.28521785140E-001 -4.75212186575E-001 -3.83845232427E-002 +7.06013962626E-002 -1.47846285472E-005 -1.23039735627E-005 -3.98839414120E-002 +5.84678016603E-002 
+5.01000000000E+009 -1.45483344793E-001 -4.82697844505E-001 +6.02457262576E-002 +6.25175386667E-002 -1.20929234981E-005 -2.17778551814E-006 -3.33834774792E-002 +6.50594234467E-002 
+5.21000000000E+009 -1.62477329373E-001 -4.89159315825E-001 +7.73770958185E-002 -3.69448959827E-002 -2.32448473980E-005 -1.72636882780E-005 -2.58549600840E-002 +7.10702091455E-002 
+5.41000000000E+009 -1.78826242685E-001 -4.94702309370E-001 -7.76602234691E-003 -9.10155847669E-002 -1.25387705339E-005 +1.07289242806E-005 -1.71188358217E-002 +7.63034000993E-002 
+5.61000000000E+009 -1.95923328400E-001 -5.00357151031E-001 -9.61461067200E-002 -1.58231724054E-002 +2.70797372650E-005 +1.20795320981E-005 -7.43053434417E-003 +7.94109925628E-002 
+5.81000000000E+009 -2.12123140693E-001 -5.04206955433E-001 -4.37968336046E-002 +8.37692245841E-002 +2.13802395592E-005 -8.11066820461E-006 +3.12262866646E-003 +8.02505463362E-002 
+6.01000000000E+009 -2.27648794651E-001 -5.07863640785E-001 +7.17230364680E-002 +7.24983662367E-002 -8.30693625176E-006 +2.83020472125E-005 +1.42289670184E-002 +8.23466479778E-002 
+6.21000000000E+009 -2.44038850069E-001 -5.10663032532E-001 +8.50470662117E-002 -5.69029562175E-002 +1.74721590156E-005 +3.37838764608E-006 +2.48271878809E-002 +8.16421806812E-002 
+6.41000000000E+009 -2.58752375841E-001 -5.12457430363E-001 -2.55594253540E-002 -9.36123803258E-002 +1.21416451293E-005 +2.33425998886E-005 +3.63311059773E-002 +7.98580348492E-002 
+6.61000000000E+009 -2.74008899927E-001 -5.14184236526E-001 -1.00950196385E-001 +2.29994649999E-003 -7.64515698393E-006 +5.64178435525E-006 +4.73744459450E-002 +7.47278183699E-002 
+6.81000000000E+009 -2.88568019867E-001 -5.14613628387E-001 -1.65655799210E-002 +8.91542658210E-002 -3.69535810023E-005 +8.65315178089E-006 +5.82000873983E-002 +6.88156634569E-002 
+7.01000000000E+009 -3.01930934191E-001 -5.15303552151E-001 +7.34562724829E-002 +4.32607196271E-002 -6.35110154690E-006 -1.30167636598E-005 +6.80964067578E-002 +6.26533478498E-002 
+7.21000000000E+009 -3.15515458584E-001 -5.15332400799E-001 +5.73131218553E-002 -5.98562136292E-002 +3.31275238352E-008 +2.23537881539E-005 +7.72379934788E-002 +5.39655648172E-002 
+7.41000000000E+009 -3.27876776457E-001 -5.15222966671E-001 -3.54377664626E-002 -6.16328194737E-002 +2.76115279121E-005 +6.57434839013E-007 +8.65023583174E-002 +4.38098274171E-002 
+7.61000000000E+009 -3.39625805616E-001 -5.14935553074E-001 -6.61443918943E-002 +1.09329521656E-002 -1.70540552062E-005 +3.23678650602E-005 +9.26823094487E-002 +3.17794233561E-002 
+7.81000000000E+009 -3.51793587208E-001 -5.13905107975E-001 -5.49637014046E-003 +6.16238042712E-002 -5.08077619088E-006 +5.37358528163E-006 +9.82199385762E-002 +1.96727998555E-002 
+8.01000000000E+009 -3.62852454185E-001 -5.12950718403E-001 +4.83171865344E-002 +2.24836431444E-002 -1.89219408639E-005 -1.26288459796E-005 +1.01777300239E-001 +5.75692998245E-003 
+8.21000000000E+009 -3.73877525330E-001 -5.11846661568E-001 +3.51146310568E-002 -3.51388119161E-002 +1.73745183929E-006 -8.21470894152E-006 +1.03828214109E-001 -8.17942060530E-003 
+8.41000000000E+009 -3.84574949741E-001 -5.10287880898E-001 -2.02520992607E-002 -3.84440906346E-002 -1.04799755718E-005 +4.29475903729E-006 +1.03509098291E-001 -2.33062282205E-002 
+8.61000000000E+009 -3.95056843758E-001 -5.09213626385E-001 -3.84122282267E-002 +2.48436722904E-003 -1.52861375682E-005 -7.43128509839E-007 +1.00301168859E-001 -3.87719273567E-002 
+8.81000000000E+009 -4.05243188143E-001 -5.07799327374E-001 -1.11159048975E-002 +3.55130098760E-002 -1.01635087049E-005 +1.95019110834E-005 +9.48359444737E-002 -5.42152039707E-002 
+9.01000000000E+009 -4.15122866631E-001 -5.06052732468E-001 +2.68145706505E-002 +1.94041039795E-002 -1.01783043647E-005 -1.17952174605E-006 +8.81552845240E-002 -6.78164809942E-002 
+9.21000000000E+009 -4.24734920263E-001 -5.04432380199E-001 +2.58633587509E-002 -1.49431964383E-002 -1.37352899401E-005 -6.92208004693E-006 +7.82863497734E-002 -8.27051773667E-002 
+9.41000000000E+009 -4.33726042509E-001 -5.02849042416E-001 -4.59062587470E-003 -2.83684208989E-002 -2.33967693930E-005 -4.87094757773E-006 +6.57409131527E-002 -9.60890576243E-002 
+9.61000000000E+009 -4.42769885063E-001 -5.00746369362E-001 -2.50065028667E-002 -4.83052665368E-003 +1.25300093714E-005 +3.17376507155E-005 +5.06520681083E-002 -1.08271382749E-001 
+9.81000000000E+009 -4.51100945473E-001 -4.99331206083E-001 -1.36639876291E-002 +1.90393887460E-002 +1.01293189800E-005 -7.09562937118E-006 +3.54328639805E-002 -1.17455683649E-001 
+1.00100000000E+010 -4.59835052490E-001 -4.97294574976E-001 +1.24447848648E-002 +1.89199745655E-002 -1.13176229206E-005 -1.37923107104E-005 +1.86321865767E-002 -1.25258937478E-001 
+1.02100000000E+010 -4.67921227217E-001 -4.94879543781E-001 +1.98452081531E-002 -4.20280871913E-003 +1.91568233276E-005 +8.13575479697E-006 +4.92782273795E-004 -1.32048800588E-001 
+1.04100000000E+010 -4.76056218147E-001 -4.92855340242E-001 +4.16090572253E-003 -1.86821650714E-002 +4.64889637897E-007 +7.48664479033E-006 -2.00457032770E-002 -1.37484267354E-001 
+1.06100000000E+010 -4.83897835016E-001 -4.90483671427E-001 -1.52392629534E-002 -1.01923905313E-002 +2.65480721282E-005 +1.30491253003E-005 -4.16185557842E-002 -1.39918953180E-001 
+1.08100000000E+010 -4.90617424250E-001 -4.88886147738E-001 -1.38512477279E-002 +9.44914482534E-003 -2.60364822680E-006 -9.23771222006E-006 -6.34404346347E-002 -1.39484673738E-001 
+1.10100000000E+010 -4.97798472643E-001 -4.86645728350E-001 +2.80334334821E-003 +1.57064683735E-002 -2.36789492192E-005 +4.88255454911E-006 -8.53102728724E-002 -1.35916486382E-001 
+1.12100000000E+010 -5.04452168941E-001 -4.85174059868E-001 +1.50993252173E-002 +2.76798708364E-003 +5.40581822861E-006 +1.30267444547E-005 -1.09011389315E-001 -1.29538998008E-001 
+1.14100000000E+010 -5.11371791363E-001 -4.82829302549E-001 +7.49584753066E-003 -1.16562442854E-002 -4.60562205262E-007 +7.90692593000E-006 -1.31915479898E-001 -1.19451813400E-001 
+1.16100000000E+010 -5.16912162304E-001 -4.80898618698E-001 -7.28310970590E-003 -1.12440679222E-002 -6.58109229335E-006 -8.45160775498E-006 -1.53629228473E-001 -1.06148160994E-001 
+1.18100000000E+010 -5.22964596748E-001 -4.78793561459E-001 -1.24812563881E-002 +2.78151291423E-003 +2.10800044442E-005 +1.48320577864E-005 -1.73214912415E-001 -8.94571095705E-002 
+1.20100000000E+010 -5.29238045216E-001 -4.76284921169E-001 -2.10578273982E-003 +1.14510748535E-002 -2.51167712122E-005 -5.98569249632E-006 -1.90121188760E-001 -7.00991153717E-002 
+1.22100000000E+010 -5.35380840302E-001 -4.73467946053E-001 +9.31728631258E-003 +6.32946752012E-003 -3.39551570505E-006 -2.23347233259E-005 -2.07569792867E-001 -4.82756979764E-002 
+1.24100000000E+010 -5.40997743607E-001 -4.71123427153E-001 +8.80213268101E-003 -6.11567823216E-003 -1.27334815261E-005 +3.45172634297E-006 -2.21874997020E-001 -2.31052245945E-002 
+1.26100000000E+010 -5.46676278114E-001 -4.68767851591E-001 -1.89879827667E-003 -9.59152169526E-003 +5.40734527021E-006 +7.23583252693E-006 -2.32129737735E-001 +4.38080215827E-003 
+1.28100000000E+010 -5.52074611187E-001 -4.66214448214E-001 -9.27828066051E-003 -2.07497691736E-003 -8.59385636431E-006 +7.80450409366E-006 -2.38325402141E-001 +3.33527773619E-002 
+1.30100000000E+010 -5.57502329350E-001 -4.63000595570E-001 -4.97838994488E-003 +7.56194302812E-003 +4.49825279247E-007 -1.89494476217E-005 -2.41951644421E-001 +6.31623491645E-002 
+1.32100000000E+010 -5.62479078770E-001 -4.60288256407E-001 +4.47986973450E-003 +7.01924785972E-003 +1.74969045474E-005 -9.12140058063E-006 -2.42338716984E-001 +9.45227444172E-002 
+1.34100000000E+010 -5.67611515522E-001 -4.56820428371E-001 +8.07057507336E-003 -1.27550656907E-003 +2.05265841942E-005 +7.91828551883E-006 -2.38651812077E-001 +1.26125141978E-001 
+1.36100000000E+010 -5.70673823357E-001 -4.53873068094E-001 +1.58256036229E-003 -7.50915566459E-003 +2.03445724765E-005 -1.43678635141E-005 -2.31128349900E-001 +1.58815398812E-001 
+1.38100000000E+010 -5.75741887093E-001 -4.51635390520E-001 -5.75199117884E-003 -4.23414306715E-003 +1.98260568141E-006 +8.79884191818E-006 -2.17938363552E-001 +1.90660923719E-001 
+1.40100000000E+010 -5.80624997616E-001 -4.49038833380E-001 -6.04581460357E-003 +3.50434705615E-003 -1.78766231329E-006 -1.60185081768E-005 -2.01242431998E-001 +2.21530243754E-001 
+1.42100000000E+010 -5.85252046585E-001 -4.46634918451E-001 +1.05593132321E-003 +6.51327101514E-003 +5.82776965530E-006 -1.51017256940E-005 -1.80848956108E-001 +2.52713620663E-001 
+1.44100000000E+010 -5.90108036995E-001 -4.43481534719E-001 +5.95076894388E-003 +1.62470503710E-003 +4.57275700683E-006 +2.84074903902E-005 -1.55115753412E-001 +2.81068086624E-001 
+1.46100000000E+010 -5.93972444534E-001 -4.40957158804E-001 +3.78492474556E-003 -4.74050082266E-003 -1.54273329827E-005 +6.11820314589E-006 -1.24482914805E-001 +3.06452125311E-001 
+1.48100000000E+010 -5.97845256329E-001 -4.35971021652E-001 -2.86281970330E-003 -4.92765288800E-003 +2.34562003243E-006 +3.09035494865E-005 -9.15912985802E-002 +3.28299909830E-001 
+1.50100000000E+010 -5.99554061890E-001 -4.35199737549E-001 -5.33590745181E-003 +4.73180174595E-004 -2.02388455364E-005 +1.15093871500E-005 -5.62016330659E-002 +3.47641170025E-001 
+1.52100000000E+010 -6.02730929852E-001 -4.34711873531E-001 -1.59132992849E-003 +5.07100531831E-003 +1.42848625728E-006 -2.53068974416E-005 -1.75979156047E-002 +3.62671762705E-001 
+1.54100000000E+010 -6.06498420238E-001 -4.32787746191E-001 +3.84589866735E-003 +3.10697569512E-003 +1.21377786400E-006 +2.19215853576E-005 +2.44621578604E-002 +3.72762054205E-001 
+1.56100000000E+010 -6.10470950603E-001 -4.29538011551E-001 +4.22571506351E-003 -2.01806123368E-003 -4.46748672402E-005 -2.77924737020E-005 +6.82462528348E-002 +3.77141535282E-001 
+1.58100000000E+010 -6.11880004406E-001 -4.28780406713E-001 -2.46929033892E-004 -4.62166173384E-003 +5.48495245312E-006 +1.46621614476E-005 +1.12003259361E-001 +3.77511680126E-001 
+1.60100000000E+010 -6.14442467690E-001 -4.27605509758E-001 -4.11852914840E-003 -1.42699561547E-003 -1.06560137283E-005 +7.45646730138E-006 +1.56846806407E-001 +3.72511178255E-001 
+1.62100000000E+010 -6.16906821728E-001 -4.26050841808E-001 -2.89831194095E-003 +2.99368868582E-003 +1.53689052240E-005 -1.80368806468E-006 +2.04050987959E-001 +3.62228184938E-001 
+1.64100000000E+010 -6.19236171246E-001 -4.24548149109E-001 +1.62878888659E-003 +3.72201087885E-003 +6.00447174293E-006 -3.36765697284E-005 +2.50636398792E-001 +3.46064209938E-001 
+1.66100000000E+010 -6.22707605362E-001 -4.22766983509E-001 +3.80408554338E-003 -3.89146152884E-005 +7.05553111402E-006 -5.50344384465E-006 +2.94271945953E-001 +3.22540163994E-001 
+1.68100000000E+010 -6.26003563404E-001 -4.20355737209E-001 +1.44119490869E-003 -3.34197375923E-003 -1.18973230201E-005 -2.35744373640E-005 +3.37235331535E-001 +2.95212745667E-001 
+1.70100000000E+010 -6.27880156040E-001 -4.18202370405E-001 -2.46011326090E-003 -2.56508472376E-003 -1.63997392519E-005 -1.16057126434E-005 +3.77117991447E-001 +2.63880938292E-001 
+1.72100000000E+010 -6.30351305008E-001 -4.16179001331E-001 -3.08225606568E-003 +1.19244121015E-003 -1.59994942805E-005 -8.91880154086E-006 +4.14567440748E-001 +2.25524932146E-001 
+1.74100000000E+010 -6.33453488350E-001 -4.14273738861E-001 -2.27447060752E-004 +3.22135305032E-003 +5.40676683158E-006 +4.12626332036E-006 +4.47772830725E-001 +1.82751595974E-001 
+1.76100000000E+010 -6.36240303516E-001 -4.11984533072E-001 +2.82941851765E-003 +1.39214145020E-003 +2.88523624477E-005 -1.29696985596E-007 +4.75518941879E-001 +1.36883854866E-001 
+1.78100000000E+010 -6.39202356339E-001 -4.09832417965E-001 +2.20525939949E-003 -1.94887013640E-003 -4.03434642067E-005 -1.00655388451E-005 +4.98926520348E-001 +8.83581787348E-002 
+1.80100000000E+010 -6.41583323479E-001 -4.07359540462E-001 -8.13756603748E-004 -2.79107666574E-003 +2.12339145946E-005 -1.77436904778E-005 +5.18282294273E-001 +3.73335629702E-002 
+1.82100000000E+010 -6.44311428070E-001 -4.05524581671E-001 -2.80087650754E-003 -3.39582678862E-004 +2.15141717490E-005 -2.36090272665E-005 +5.31047284603E-001 -1.69046539813E-002 
+1.84100000000E+010 -6.46970152855E-001 -4.03852254152E-001 -1.32643850520E-003 +2.23991507664E-003 -1.87904261111E-005 +4.46317108072E-006 +5.37119805813E-001 -7.39412829280E-002 
+1.86100000000E+010 -6.50034010410E-001 -4.01821732521E-001 +1.48421176709E-003 +2.07394151948E-003 -1.98592479137E-005 +2.61134464381E-005 +5.37455439568E-001 -1.30221083760E-001 
+1.88100000000E+010 -6.52402162552E-001 -3.99498134851E-001 +2.43687583134E-003 -5.53854391910E-004 -2.96301568596E-005 -3.67136465229E-007 +5.31692445278E-001 -1.86658188701E-001 
+1.90100000000E+010 -6.54265701771E-001 -3.97636711597E-001 +3.96967021516E-004 -2.31445254758E-003 +7.25380289168E-007 +1.56060705194E-005 +5.19922137260E-001 -2.42720872164E-001 
+1.92100000000E+010 -6.56661808491E-001 -3.96483182907E-001 -1.89788511489E-003 -1.34134956170E-003 +2.08016590477E-005 +9.14862141599E-007 +5.01921832561E-001 -3.00026327372E-001 
+1.94100000000E+010 -6.59390985966E-001 -3.94058644772E-001 -1.95794668980E-003 +1.28833984490E-003 -2.22117341764E-006 +2.50130815402E-005 +4.76538807154E-001 -3.54406177998E-001 
+1.96100000000E+010 -6.60289943218E-001 -3.91593426466E-001 +3.83322301786E-004 +2.08215299062E-003 -2.60946690105E-005 +1.93244031834E-005 +4.45951461792E-001 -4.06227350235E-001 
+1.98100000000E+010 -6.59559249878E-001 -3.88494312763E-001 +2.05718213692E-003 +5.66907576285E-004 -1.66381469171E-005 -3.41759150615E-005 +4.11194592714E-001 -4.53427940607E-001 
+2.00100000000E+010 -6.58306002617E-001 -3.88021945953E-001 +1.25467439648E-003 -1.64251949172E-003 +2.61429649981E-005 -2.13105649891E-005 +3.69572252035E-001 -4.99721527100E-001 
