!;Filter: kein Filter
!auto
!3/21/2019 9:25:24 AM
!3/21/2019 9:25:40 AM
!SP-Measurements Prober G4
!SP-Measurements Prober G4
!01103_448C
!134
!233
!12
!40
!-20
!0.00399976
!1.88
!0.54220246
!0.54220246
# Hz S  RI   R 50
+1.00000000000E+007 +3.02754610777E-001 +6.25782506540E-003 +4.60429303348E-002 -1.84054877609E-002 +6.13525742665E-004 +6.19913276751E-004 +5.15632610768E-003 +6.75447925460E-004 
+2.10000000000E+008 +3.19179981947E-001 -2.89262589067E-002 -1.44267629366E-003 -4.78676967323E-002 -1.21019093058E-006 +1.88865124073E-005 +8.54837335646E-003 -4.69503318891E-003 
+4.10000000000E+008 +3.20069015026E-001 -6.57064169645E-002 -4.46338802576E-002 -1.57078802586E-002 -4.18875097239E-005 +1.49097904796E-005 +9.91627480835E-003 -7.01555376872E-003 
+6.10000000000E+008 +3.16677480936E-001 -1.02137945592E-001 -2.98997256905E-002 +3.52578982711E-002 -2.92862091555E-006 +1.01292989712E-005 +9.96794551611E-003 -1.17067396641E-002 
+8.10000000000E+008 +3.09854567051E-001 -1.37869730592E-001 +2.27732881904E-002 +4.08708639443E-002 +1.29835734697E-005 +3.14280478051E-005 +6.87088584527E-003 -1.52677269652E-002 
+1.01000000000E+009 +3.00221592188E-001 -1.72608867288E-001 +4.68704886734E-002 -7.30088679120E-003 +2.41654015554E-005 +1.77170604729E-005 +2.84972693771E-003 -1.90331079066E-002 
+1.21000000000E+009 +2.88247972727E-001 -2.05598890781E-001 +9.74784512073E-003 -4.46821860969E-002 +1.17899753604E-005 -9.19556532608E-006 -1.71387428418E-003 -2.12139431387E-002 
+1.41000000000E+009 +2.74154931307E-001 -2.37586587667E-001 -3.79550606012E-002 -2.57272515446E-002 +8.41947075969E-006 +2.53645866906E-005 -7.36266514286E-003 -2.44390275329E-002 
+1.61000000000E+009 +2.59078383446E-001 -2.67846524715E-001 -3.77777852118E-002 +2.70208325237E-002 -1.10573128040E-005 +5.45775537830E-006 -1.37678012252E-002 -2.66534145921E-002 
+1.81000000000E+009 +2.42022246122E-001 -2.96434640884E-001 +1.13730989397E-002 +4.39046025276E-002 -6.01815054324E-006 -2.67749073828E-005 -1.76010597497E-002 -2.77154948562E-002 
+2.01000000000E+009 +2.24456980824E-001 -3.23530852795E-001 +4.55453656614E-002 +5.54645620286E-003 -9.30448186409E-006 -1.67436664924E-005 -2.31628920883E-002 -2.66641881317E-002 
+2.21000000000E+009 +2.05491259694E-001 -3.49320560694E-001 +2.05768365413E-002 -4.13177870214E-002 +6.91828427080E-006 +2.00144841074E-005 -2.87038981915E-002 -2.45072897524E-002 
+2.41000000000E+009 +1.85214355588E-001 -3.73027324677E-001 -3.03036831319E-002 -3.33260856569E-002 +3.07896661980E-005 +1.50966334331E-005 -3.54196503758E-002 -2.22387108952E-002 
+2.61000000000E+009 +1.64687052369E-001 -3.95118117332E-001 -4.24453020096E-002 +1.64615679532E-002 +9.64437822404E-006 +1.52620468725E-005 -4.06755767763E-002 -1.92667804658E-002 
+2.81000000000E+009 +1.43356099725E-001 -4.15632605553E-001 +1.35531346314E-003 +4.49880696833E-002 -2.04040588869E-006 -2.27815617109E-005 -4.45794537663E-002 -1.43807008862E-002 
+3.01000000000E+009 +1.21476076543E-001 -4.34219270945E-001 +4.12695184350E-002 +1.50613021106E-002 -1.11142035166E-005 +2.60325086856E-005 -4.84514534473E-002 -8.68272595108E-003 
+3.21000000000E+009 +9.95305180550E-002 -4.51394528151E-001 +2.92021967471E-002 -3.33596915007E-002 +2.55652071246E-006 -1.47179923715E-006 -5.23226968944E-002 -2.24775890820E-003 
+3.41000000000E+009 +7.76273235679E-002 -4.67026978731E-001 -2.10054516792E-002 -3.79866100848E-002 -2.14834926737E-005 +1.35193067763E-005 -5.52829802036E-002 +4.82585094869E-003 
+3.61000000000E+009 +5.56877776980E-002 -4.81282770634E-001 -4.23815026879E-002 +4.84052579850E-003 -3.50855043507E-005 -1.25623193981E-006 -5.70359006524E-002 +1.17806755006E-002 
+3.81000000000E+009 +3.36389653385E-002 -4.94036406279E-001 -1.08852414414E-002 +4.19253557920E-002 +7.25601557861E-006 -2.45253631874E-005 -5.68613819778E-002 +1.91431213170E-002 
+4.01000000000E+009 +1.20577039197E-002 -5.05733549595E-001 +3.47381643951E-002 +2.41836067289E-002 -1.36185803967E-006 -9.76829778665E-006 -5.58655224741E-002 +2.69766394049E-002 
+4.21000000000E+009 -9.39763896167E-003 -5.15958726406E-001 +3.55121642351E-002 -2.24918816239E-002 +4.03594094678E-006 -1.73333482962E-005 -5.39124198258E-002 +3.57632115483E-002 
+4.41000000000E+009 -3.05075682700E-002 -5.25118649006E-001 -8.63617938012E-003 -4.21395264566E-002 -1.26312388602E-005 -7.40509040043E-006 -5.07413521409E-002 +4.41150516272E-002 
+4.61000000000E+009 -5.12628294528E-002 -5.33190071583E-001 -4.15575131774E-002 -6.43722340465E-003 +4.22085349783E-006 +4.18751878897E-005 -4.66019548476E-002 +5.13342097402E-002 
+4.81000000000E+009 -7.18640089035E-002 -5.40283560753E-001 -2.21664309502E-002 +3.60040478408E-002 -3.16474597639E-006 +3.60165586244E-006 -3.99829633534E-002 +5.85532523692E-002 
+5.01000000000E+009 -9.18076559901E-002 -5.46952009201E-001 +2.70196646452E-002 +3.41385938227E-002 -3.66480162484E-006 -4.43795079264E-006 -3.34614105523E-002 +6.51725158095E-002 
+5.21000000000E+009 -1.11302420497E-001 -5.52833020687E-001 +4.02896068990E-002 -1.29852825776E-002 -3.53456971425E-006 -1.15733519124E-005 -2.59667672217E-002 +7.11948201060E-002 
+5.41000000000E+009 -1.30301341414E-001 -5.57491719723E-001 +3.74043127522E-003 -4.30576428771E-002 -1.77891233761E-005 -6.47133219900E-006 -1.71578805894E-002 +7.63651654124E-002 
+5.61000000000E+009 -1.49379909039E-001 -5.61913728714E-001 -4.07319292426E-002 -1.80676989257E-002 -1.86832335203E-006 -2.52591453318E-005 -7.42596248165E-003 +7.94740170240E-002 
+5.81000000000E+009 -1.67558655143E-001 -5.65191328526E-001 -3.03021892905E-002 +3.06355394423E-002 +1.50313053382E-005 +1.08501617433E-005 +3.10908001848E-003 +8.03850516677E-002 
+6.01000000000E+009 -1.85029387474E-001 -5.67710280418E-001 +1.74156036228E-002 +4.12244610488E-002 +3.67128427570E-006 -4.51883011010E-007 +1.42186451703E-002 +8.24521034956E-002 
+6.21000000000E+009 -2.02487453818E-001 -5.69737195969E-001 +4.56725880504E-002 -4.20330092311E-003 -1.39597068483E-005 -1.52225011334E-005 +2.48869974166E-002 +8.17797556520E-002 
+6.41000000000E+009 -2.19064474106E-001 -5.71056604385E-001 +1.21248317882E-002 -4.24450002611E-002 -7.06168111719E-006 -1.17674262583E-005 +3.63921001554E-002 +7.99549371004E-002 
+6.61000000000E+009 -2.35495090485E-001 -5.72037041187E-001 -3.71507294476E-002 -2.83885058016E-002 +3.06050133076E-005 -6.95392031957E-007 +4.75021786988E-002 +7.48219937086E-002 
+6.81000000000E+009 -2.51521408558E-001 -5.72520196438E-001 -3.77578549087E-002 +2.78773903847E-002 -7.63191746955E-006 -2.26451556955E-005 +5.83163052797E-002 +6.89608454704E-002 
+7.01000000000E+009 -2.66841202974E-001 -5.72602510452E-001 +1.12550808117E-002 +4.36988063157E-002 +4.59699949715E-005 +2.03986273846E-005 +6.82586804032E-002 +6.27332925797E-002 
+7.21000000000E+009 -2.81865388155E-001 -5.72231709957E-001 +4.82670143247E-002 +4.71849460155E-003 +1.59802093549E-005 -5.63388675801E-006 +7.73827284575E-002 +5.41139580309E-002 
+7.41000000000E+009 -2.96249896288E-001 -5.71776807308E-001 +1.65006984025E-002 -4.43367473781E-002 -2.85746664304E-005 -9.65951767284E-006 +8.66688117385E-002 +4.39220704138E-002 
+7.61000000000E+009 -3.09635072947E-001 -5.70591151714E-001 -3.34017984569E-002 -3.12074143440E-002 -2.15619402297E-005 +1.39081239467E-005 +9.28569212556E-002 +3.18775661290E-002 
+7.81000000000E+009 -3.23593407869E-001 -5.68931341171E-001 -4.25750575960E-002 +2.42571737617E-002 +1.43185652632E-005 +2.20561105380E-005 +9.83957871795E-002 +1.97010468692E-002 
+8.01000000000E+009 -3.36486071348E-001 -5.66926181316E-001 +1.12656755373E-002 +4.38197031617E-002 +2.15679738176E-005 -1.41810442074E-005 +1.01957783103E-001 +5.84593648091E-003 
+8.21000000000E+009 -3.48937571049E-001 -5.64738690853E-001 +4.42177206278E-002 +6.50306232274E-003 -5.89679757468E-006 +1.88191079360E-005 +1.04039244354E-001 -8.18431470543E-003 
+8.41000000000E+009 -3.61099988222E-001 -5.62099456787E-001 +1.79823115468E-002 -4.25508208573E-002 +1.24864000099E-005 -1.35213731483E-005 +1.03731095791E-001 -2.32888087630E-002 
+8.61000000000E+009 -3.72956991196E-001 -5.59705317020E-001 -3.10693979263E-002 -2.63913162053E-002 +3.45242733601E-006 -5.20752610100E-006 +1.00460797548E-001 -3.87585647404E-002 
+8.81000000000E+009 -3.84203553200E-001 -5.57133972645E-001 -3.62192653120E-002 +1.81962605566E-002 +4.47376987722E-006 +4.96304392072E-006 +9.49845835567E-002 -5.42632117867E-002 
+9.01000000000E+009 -3.95215123892E-001 -5.54225027561E-001 +8.77411570400E-003 +3.93190607429E-002 -4.96475240652E-006 +3.07895720653E-006 +8.82947370410E-002 -6.79294914007E-002 
+9.21000000000E+009 -4.05764847994E-001 -5.51286101341E-001 +3.48906181753E-002 +4.20371768996E-003 +1.47639648276E-005 -2.70835298579E-005 +7.84222558141E-002 -8.27971920371E-002 
+9.41000000000E+009 -4.15657550097E-001 -5.48498451710E-001 +1.69030297548E-002 -3.07591669261E-002 -2.03333547688E-005 -1.46036575188E-006 +6.58484622836E-002 -9.62889194489E-002 
+9.61000000000E+009 -4.25493836403E-001 -5.45191764832E-001 -2.37389001995E-002 -2.29175854474E-002 +2.21306976300E-007 -1.84632710898E-006 +5.07204085588E-002 -1.08450338244E-001 
+9.81000000000E+009 -4.34489667416E-001 -5.42567551136E-001 -2.66396384686E-002 +1.18488576263E-002 -4.35041838500E-005 -3.62357714039E-005 +3.55310253799E-002 -1.17694616318E-001 
+1.00100000000E+010 -4.43748593330E-001 -5.39311766624E-001 +1.23544188682E-003 +2.93176323175E-002 +1.83543434105E-005 +3.10260002152E-005 +1.86641924083E-002 -1.25513821840E-001 
+1.02100000000E+010 -4.52235758305E-001 -5.35817444324E-001 +2.63029094785E-002 +6.38784840703E-003 -1.43517481774E-005 -8.40054417495E-006 +4.97059547342E-004 -1.32330343127E-001 
+1.04100000000E+010 -4.60792124271E-001 -5.32802164555E-001 +1.45716052502E-002 -1.93281676620E-002 +4.51072673968E-006 -3.65179403161E-006 -2.00846698135E-002 -1.37767165899E-001 
+1.06100000000E+010 -4.69086915255E-001 -5.29477417469E-001 -1.29271149635E-002 -2.05090250820E-002 +6.65661036692E-006 -5.18195656696E-006 -4.16759289801E-002 -1.40269070864E-001 
+1.08100000000E+010 -4.76208806038E-001 -5.26928484440E-001 -2.12257746607E-002 +5.55137218907E-003 -8.45243539516E-006 +1.16299997899E-005 -6.34950697422E-002 -1.39803618193E-001 
+1.10100000000E+010 -4.83728528023E-001 -5.23714959621E-001 -3.35781183094E-003 +1.97605770081E-002 +3.52808751813E-006 +1.91731051018E-005 -8.54483842850E-002 -1.36268734932E-001 
+1.12100000000E+010 -4.90703910589E-001 -5.21313190460E-001 +1.72268245369E-002 +1.00148972124E-002 -1.74905289896E-005 +2.21568207053E-005 -1.09199889004E-001 -1.29809334874E-001 
+1.14100000000E+010 -4.97854501009E-001 -5.18013596535E-001 +1.35388346389E-002 -1.16922613233E-002 -6.18448029854E-006 +3.70624002244E-005 -1.32146283984E-001 -1.19677990675E-001 
+1.16100000000E+010 -5.03572106361E-001 -5.15179038048E-001 -4.62715839967E-003 -1.61089636385E-002 +5.28925011167E-006 -3.85946441384E-005 -1.53895348310E-001 -1.06420896947E-001 
+1.18100000000E+010 -5.09819746017E-001 -5.12258827686E-001 -1.65407191962E-002 -8.78268852830E-004 -1.27230796352E-005 +8.09602352092E-006 -1.73515200615E-001 -8.96360129118E-002 
+1.20100000000E+010 -5.16192257404E-001 -5.08903682232E-001 -5.76673168689E-003 +1.34988427162E-002 -7.75585067458E-006 -2.11642745853E-005 -1.90464913845E-001 -7.01954439282E-002 
+1.22100000000E+010 -5.22535502911E-001 -5.05276739597E-001 +9.14304517210E-003 +1.02803586051E-002 -1.71498286363E-005 +1.07838718577E-006 -2.07940608263E-001 -4.84338365495E-002 
+1.24100000000E+010 -5.28267860413E-001 -5.02070307732E-001 +1.25186070800E-002 -4.95295552537E-003 -2.90744646918E-005 +3.92341144106E-006 -2.22260370851E-001 -2.31734160334E-002 
+1.26100000000E+010 -5.33835649490E-001 -4.98732149601E-001 -4.22524390160E-005 -1.20503725484E-002 -1.99230635189E-006 +2.71102981060E-005 -2.32523053885E-001 +4.38248086721E-003 
+1.28100000000E+010 -5.39200603962E-001 -4.95351791382E-001 -1.05545455590E-002 -4.80290967971E-003 +1.52335551320E-005 +2.71420208264E-006 -2.38772422075E-001 +3.34584340453E-002 
+1.30100000000E+010 -5.44435560703E-001 -4.91411536932E-001 -7.81089067459E-003 +8.02183989435E-003 +1.02557178252E-005 -1.48501321746E-005 -2.42372334003E-001 +6.32865205407E-002 
+1.32100000000E+010 -5.49188792706E-001 -4.87929731607E-001 +3.95337864757E-003 +9.28568001837E-003 +5.99943177804E-006 -3.87551881431E-005 -2.42715537548E-001 +9.46697294712E-002 
+1.34100000000E+010 -5.54049372673E-001 -4.83844518661E-001 +9.80752054602E-003 +2.23007926252E-004 -1.49812003656E-005 +1.82343846973E-005 -2.39050522447E-001 +1.26384615898E-001 
+1.36100000000E+010 -5.57015657425E-001 -4.80375528336E-001 +3.40746343136E-003 -8.74400231987E-003 -7.07022672941E-006 +8.48991294333E-006 -2.31502383947E-001 +1.59052237868E-001 
+1.38100000000E+010 -5.61875164509E-001 -4.77452337742E-001 -6.08175620437E-003 -5.96772646531E-003 +5.46668388779E-006 -1.97939280042E-005 -2.18279764056E-001 +1.91074475646E-001 
+1.40100000000E+010 -5.66495776176E-001 -4.74194437265E-001 -7.78279919177E-003 +3.04261059500E-003 -2.02915398404E-005 -1.45670464917E-005 -2.01562061906E-001 +2.21973866224E-001 
+1.42100000000E+010 -5.70724427700E-001 -4.71307873726E-001 +1.93338782992E-004 +7.90345761925E-003 -1.27039938889E-005 -4.11614473705E-006 -1.81143760681E-001 +2.53228127956E-001 
+1.44100000000E+010 -5.75090050697E-001 -4.67594772577E-001 +6.72691687942E-003 +2.77228862979E-003 -6.75195815347E-006 +2.55493148416E-007 -1.55402645469E-001 +2.81630337238E-001 
+1.46100000000E+010 -5.78529000282E-001 -4.64604556561E-001 +5.12819178402E-003 -4.93452092633E-003 +3.26108101945E-006 +5.16326645084E-006 -1.24748490751E-001 +3.07100713253E-001 
+1.48100000000E+010 -5.81800878048E-001 -4.59383428097E-001 -2.69604776986E-003 -6.18240935728E-003 +2.75054344456E-006 +2.91726573778E-005 -9.18071269989E-002 +3.28941702843E-001 
+1.50100000000E+010 -5.83232343197E-001 -4.58449780941E-001 -6.23523769900E-003 -1.04867744085E-004 -2.87381317321E-006 +2.11328915611E-005 -5.62943257391E-002 +3.48331272602E-001 
+1.52100000000E+010 -5.85867762566E-001 -4.57734853029E-001 -2.49288766645E-003 +5.60060329735E-003 +2.20271213038E-005 -1.64817247423E-005 -1.76139567047E-002 +3.63324761391E-001 
+1.54100000000E+010 -5.89191555977E-001 -4.55670952797E-001 +4.02131397277E-003 +4.06796531752E-003 -1.34067968247E-005 +1.12802626973E-006 +2.45341174304E-002 +3.73387217522E-001 
+1.56100000000E+010 -5.92549741268E-001 -4.52421307564E-001 +5.05788018927E-003 -1.85401132330E-003 -1.07098721855E-005 -1.11894884469E-007 +6.83757737279E-002 +3.77749592066E-001 
+1.58100000000E+010 -5.93683302402E-001 -4.51853930950E-001 +2.09953257581E-004 -5.31412148848E-003 -3.74810188077E-005 -1.36829585244E-005 +1.12167194486E-001 +3.78112614155E-001 
+1.60100000000E+010 -5.95948219299E-001 -4.50808763504E-001 -4.51865699142E-003 -2.01595178805E-003 +9.34743002290E-006 +2.64046429947E-005 +1.57161608338E-001 +3.73114287853E-001 
+1.62100000000E+010 -5.98155200481E-001 -4.49410706758E-001 -3.53937759064E-003 +3.08877346106E-003 -7.08508287062E-006 +1.12288007585E-005 +2.04465895891E-001 +3.62848997116E-001 
+1.64100000000E+010 -6.00151062012E-001 -4.48205709457E-001 +1.44027953502E-003 +4.39067464322E-003 -3.41812597071E-006 +3.72916520064E-006 +2.51124948263E-001 +3.46635460854E-001 
+1.66100000000E+010 -6.03588461876E-001 -4.46808874607E-001 +4.30101016536E-003 +2.80178821413E-004 +2.02404498850E-006 -1.11465797090E-005 +2.94909030199E-001 +3.23019951582E-001 
+1.68100000000E+010 -6.06803297997E-001 -4.44582611322E-001 +1.94186577573E-003 -3.60627961345E-003 +5.39199754712E-006 -6.81941173752E-006 +3.38008373976E-001 +2.95668452978E-001 
+1.70100000000E+010 -6.08603656292E-001 -4.42667037249E-001 -2.56759254262E-003 -3.10759712011E-003 -1.87144014490E-005 +1.83014326467E-005 +3.77941012383E-001 +2.64318883419E-001 
+1.72100000000E+010 -6.10981702805E-001 -4.40917521715E-001 -3.57550545596E-003 +1.08993018512E-003 -7.63769730838E-006 -1.35286854857E-005 +4.15347456932E-001 +2.25853249431E-001 
+1.74100000000E+010 -6.14256799221E-001 -4.39359396696E-001 -5.13857870828E-004 +3.59131791629E-003 -9.64451555774E-006 +7.30331748855E-007 +4.48647677898E-001 +1.83065220714E-001 
+1.76100000000E+010 -6.17266058922E-001 -4.37483757734E-001 +3.09715443291E-003 +1.73903338145E-003 +1.05390417957E-005 +1.13944934128E-005 +4.76453006268E-001 +1.37104973197E-001 
+1.78100000000E+010 -6.20492994785E-001 -4.35550540686E-001 +2.61636287905E-003 -2.00416310690E-003 +4.04816964874E-005 -2.42127443926E-005 +4.99937802553E-001 +8.84794369340E-002 
+1.80100000000E+010 -6.23088717461E-001 -4.33372110128E-001 -7.24503013771E-004 -3.10983485542E-003 -3.44824620697E-005 -2.81740776700E-005 +5.19181013107E-001 +3.73109206557E-002 
+1.82100000000E+010 -6.26179873943E-001 -4.31658565998E-001 -3.05326213129E-003 -5.02022448927E-004 -1.09727297968E-005 +2.45030628321E-006 +5.31794667244E-001 -1.70046258718E-002 
+1.84100000000E+010 -6.29185259342E-001 -4.30110454559E-001 -1.53996911831E-003 +2.47357925400E-003 -5.06533115185E-006 +5.94940465817E-005 +5.37964046001E-001 -7.40995407104E-002 
+1.86100000000E+010 -6.32349252701E-001 -4.28101032972E-001 +1.53537187725E-003 +2.41353479214E-003 -1.03509228211E-005 +6.77072478084E-007 +5.38236737251E-001 -1.30541846156E-001 
+1.88100000000E+010 -6.35105788708E-001 -4.25852358341E-001 +2.69645242952E-003 -5.11155289132E-004 +2.60117358266E-005 -2.91121286864E-005 +5.32451808453E-001 -1.87071815133E-001 
+1.90100000000E+010 -6.37209296227E-001 -4.24113422632E-001 +5.98732964136E-004 -2.48309993185E-003 -5.22314585396E-005 -1.02755857370E-005 +5.20634055138E-001 -2.43197590113E-001 
+1.92100000000E+010 -6.40054166317E-001 -4.23061370850E-001 -1.98929081671E-003 -1.55395164620E-003 -1.69532813743E-005 -2.06503545996E-006 +5.02639830112E-001 -3.00604045391E-001 
+1.94100000000E+010 -6.43050014973E-001 -4.20774996281E-001 -2.13027815334E-003 +1.24480784871E-003 -1.30702610477E-005 +3.84943450626E-005 +4.77300286293E-001 -3.55131715536E-001 
+1.96100000000E+010 -6.44154071808E-001 -4.18655961752E-001 +2.80972744804E-004 +2.24727718160E-003 +6.63895480102E-006 -2.57248702837E-005 +4.46555942297E-001 -4.07065302134E-001 
+1.98100000000E+010 -6.44212067127E-001 -4.15968507528E-001 +2.15990631841E-003 +7.14137917385E-004 -4.33922505181E-005 +1.28024439618E-005 +4.11798298359E-001 -4.54381078482E-001 
+2.00100000000E+010 -6.44076228142E-001 -4.14667844772E-001 +1.39379524626E-003 -1.67386222165E-003 -4.48047376267E-006 -3.95625902456E-005 +3.70130747557E-001 -5.00674068928E-001 
