!;Filter: kein Filter
!auto
!3/21/2019 9:27:39 AM
!3/21/2019 9:27:53 AM
!SP-Measurements Prober G4
!SP-Measurements Prober G4
!01103_448C
!134
!233
!12
!40
!-20
!0.00499992
!1.96
!0.64375220
!0.64375220
# Hz S  RI   R 50
+1.00000000000E+007 +2.58829146624E-001 +4.45137079805E-003 +4.46967184544E-002 -1.74809880555E-002 -1.54268054757E-004 +2.07627905183E-004 +5.27145853266E-003 +1.39978399966E-003 
+2.10000000000E+008 +2.72800534964E-001 -2.53953710198E-002 -1.70983804855E-003 -4.60252910852E-002 +3.21292791341E-005 -1.84750697372E-005 +8.63112695515E-003 -4.72069904208E-003 
+4.10000000000E+008 +2.74776786566E-001 -5.82532361150E-002 -4.29775305092E-002 -1.45510155708E-002 -2.38511365751E-005 -4.55294502899E-005 +9.95806604624E-003 -7.07312114537E-003 
+6.10000000000E+008 +2.73301899433E-001 -9.15603116155E-002 -2.80366297811E-002 +3.43289524317E-002 +3.47876411979E-005 -7.80556274549E-006 +9.89962369204E-003 -1.17038497701E-002 
+8.10000000000E+008 +2.68030405045E-001 -1.24944686890E-001 +2.20955107361E-002 +3.83382476866E-002 +1.38666555358E-005 +1.79234320967E-005 +6.82979216799E-003 -1.52546791360E-002 
+1.01000000000E+009 +2.59872585535E-001 -1.57008424401E-001 +4.43319641054E-002 -6.80271303281E-003 -6.06529874858E-006 +3.26033296005E-005 +2.84154876135E-003 -1.90087575465E-002 
+1.21000000000E+009 +2.50171452761E-001 -1.88070416451E-001 +8.75829346478E-003 -4.22895364463E-002 +1.36710787046E-005 +3.48822959495E-006 -1.72667729203E-003 -2.11799256504E-002 
+1.41000000000E+009 +2.38093718886E-001 -2.18425422907E-001 -3.61499562860E-002 -2.39423792809E-002 -3.10015202558E-005 -1.14691874842E-005 -7.38902203739E-003 -2.43944562972E-002 
+1.61000000000E+009 +2.25081294775E-001 -2.47128590941E-001 -3.50545309484E-002 +2.60198265314E-002 -3.30379953084E-005 -1.33372359414E-005 -1.37757472694E-002 -2.66295205802E-002 
+1.81000000000E+009 +2.10005864501E-001 -2.74671882391E-001 +1.15333693102E-002 +4.05147820711E-002 -2.54484093603E-005 -5.56516533834E-006 -1.76160875708E-002 -2.77000535280E-002 
+2.01000000000E+009 +1.94362774491E-001 -3.00803989172E-001 +4.22227457166E-002 +4.23461990431E-003 +7.24747042113E-006 +7.62868830861E-006 -2.31820773333E-002 -2.66624353826E-002 
+2.21000000000E+009 +1.77333697677E-001 -3.25712621212E-001 +1.82358212769E-002 -3.81692610681E-002 -2.77119670500E-006 +2.68879539362E-005 -2.87200734019E-002 -2.44828294963E-002 
+2.41000000000E+009 +1.58941984177E-001 -3.48794072866E-001 -2.80822440982E-002 -2.98552643508E-002 +2.77142207779E-005 +7.88666682183E-007 -3.54301072657E-002 -2.22104992718E-002 
+2.61000000000E+009 +1.40222668648E-001 -3.70378643274E-001 -3.85223068297E-002 +1.53815532103E-002 -3.57242697646E-006 -2.91617707262E-005 -4.06636334956E-002 -1.92426349968E-002 
+2.81000000000E+009 +1.20722703636E-001 -3.90524119139E-001 +1.35922827758E-003 +4.08565439284E-002 -4.90342681587E-005 +2.86709146167E-005 -4.45733442903E-002 -1.43564483151E-002 
+3.01000000000E+009 +1.00508406758E-001 -4.08945411444E-001 +3.75124998391E-002 +1.34771214798E-002 +1.24197340483E-005 -1.73756689037E-005 -4.84312511981E-002 -8.65051522851E-003 
+3.21000000000E+009 +8.02473798394E-002 -4.26008194685E-001 +2.65336614102E-002 -3.06004174054E-002 +1.09729526230E-005 -1.45641315612E-005 -5.23267500103E-002 -2.24714051001E-003 
+3.41000000000E+009 +5.99536038935E-002 -4.41765159369E-001 -1.91373080015E-002 -3.48193421960E-002 -2.32969923672E-005 -6.12705889580E-006 -5.52984401584E-002 +4.82705142349E-003 
+3.61000000000E+009 +3.95187437534E-002 -4.56121742725E-001 -3.88489887118E-002 +4.76182205603E-003 +5.59002955924E-006 +4.18832041760E-006 -5.70236444473E-002 +1.18276197463E-002 
+3.81000000000E+009 +1.88094601035E-002 -4.69050407410E-001 -9.57069639117E-003 +3.82497347891E-002 +1.09470684038E-005 -3.28738242388E-005 -5.68646937609E-002 +1.91326756030E-002 
+4.01000000000E+009 -1.43651210237E-003 -4.80984598398E-001 +3.20639126003E-002 +2.19590514898E-002 +1.58069051395E-005 +2.00653721549E-005 -5.58506250381E-002 +2.69997455180E-002 
+4.21000000000E+009 -2.17481162399E-002 -4.91559982300E-001 +3.17244194448E-002 -2.12088115513E-002 -2.52182380791E-005 +9.25108508909E-007 -5.38659542799E-002 +3.57337854803E-002 
+4.41000000000E+009 -4.17134575546E-002 -5.01028954983E-001 -8.38943291456E-003 -3.74016948044E-002 -3.02393232232E-006 -1.29918716993E-005 -5.07027171552E-002 +4.40912432969E-002 
+4.61000000000E+009 -6.14096820354E-002 -5.09442090988E-001 -3.74368838966E-002 -5.21124666557E-003 +1.03344355011E-005 -1.92939769477E-005 -4.65820878744E-002 +5.13561964035E-002 
+4.81000000000E+009 -8.10556709766E-002 -5.17011284828E-001 -1.86186432838E-002 +3.24232019484E-002 +9.93775029201E-006 -5.86617659337E-007 -3.99694703519E-002 +5.85296303034E-002 
+5.01000000000E+009 -1.00044749677E-001 -5.23987531662E-001 +2.38694436848E-002 +2.92464010417E-002 +2.20484253077E-005 -3.03998294839E-005 -3.34874354303E-002 +6.51607811451E-002 
+5.21000000000E+009 -1.18601627648E-001 -5.30304074287E-001 +3.52132283151E-002 -1.16235753521E-002 -3.24481362668E-007 +1.15345328595E-005 -2.59331930429E-002 +7.11591094732E-002 
+5.41000000000E+009 -1.36855617166E-001 -5.35385966301E-001 +2.47896229848E-003 -3.67972329259E-002 -3.82057332899E-005 -4.24944659017E-007 -1.71729829162E-002 +7.63289704919E-002 
+5.61000000000E+009 -1.55131578445E-001 -5.40220141411E-001 -3.41595672071E-002 -1.56904943287E-002 -1.79608978215E-005 +1.71122464963E-005 -7.42703163996E-003 +7.94554501772E-002 
+5.81000000000E+009 -1.72603398561E-001 -5.44037044048E-001 -2.64006778598E-002 +2.59698219597E-002 -1.13362066259E-005 -1.69420709426E-005 +3.07415751740E-003 +8.03413614631E-002 
+6.01000000000E+009 -1.89445048571E-001 -5.46949267387E-001 +1.42953805625E-002 +3.45066562295E-002 -3.97552867071E-006 -7.91612092144E-006 +1.42110912129E-002 +8.23782160878E-002 
+6.21000000000E+009 -2.06201687455E-001 -5.49348473549E-001 +3.79144586623E-002 -1.51822075713E-003 +3.60405056199E-006 +1.74812266778E-005 +2.48693823814E-002 +8.17461386323E-002 
+6.41000000000E+009 -2.22160622478E-001 -5.51202356815E-001 +1.18567738682E-002 -3.57464626431E-002 -1.54579101945E-005 -4.61002036900E-006 +3.63778732717E-002 +7.99447596073E-002 
+6.61000000000E+009 -2.38121941686E-001 -5.52645564079E-001 -2.94074136764E-002 -2.45285537094E-002 +4.09302083426E-006 +2.06056811294E-005 +4.75104749203E-002 +7.48223662376E-002 
+6.81000000000E+009 -2.53586202860E-001 -5.53584158421E-001 -3.32586988807E-002 +1.96681823581E-002 -1.39831472552E-005 +1.55066572916E-005 +5.83381876349E-002 +6.89474865794E-002 
+7.01000000000E+009 -2.68356144428E-001 -5.54157376289E-001 +6.84599531814E-003 +3.80118601024E-002 +1.73262851604E-005 -3.14831449941E-005 +6.82503283024E-002 +6.27298653126E-002 
+7.21000000000E+009 -2.82934188843E-001 -5.54146111012E-001 +3.87143380940E-002 +7.43284681812E-003 -1.04519231172E-005 -5.73274292037E-006 +7.73311033845E-002 +5.41128143668E-002 
+7.41000000000E+009 -2.96788752079E-001 -5.54133176804E-001 +1.92541945726E-002 -3.46232838929E-002 +1.86556717381E-005 -3.63901585843E-006 +8.65852460265E-002 +4.39583100379E-002 
+7.61000000000E+009 -3.09899508953E-001 -5.53466916084E-001 -2.54481788725E-002 -3.00465878099E-002 -2.09316681321E-006 -3.16257091981E-006 +9.28603634238E-002 +3.18962298334E-002 
+7.81000000000E+009 -3.23346704245E-001 -5.52213430405E-001 -3.76465059817E-002 +1.44771123305E-002 -5.53916788704E-006 -1.72818963620E-005 +9.83923226595E-002 +1.97111368179E-002 
+8.01000000000E+009 -3.35849851370E-001 -5.50864517689E-001 +2.36833328381E-003 +3.95388193429E-002 +9.47719763644E-006 -9.55856739893E-006 +1.01941242814E-001 +5.83912245929E-003 
+8.21000000000E+009 -3.48071515560E-001 -5.49052774906E-001 +3.76651473343E-002 +1.16088083014E-002 -8.82285064563E-007 +1.05344588519E-005 +1.04037806392E-001 -8.16249661148E-003 
+8.41000000000E+009 -3.59957993031E-001 -5.46910107136E-001 +2.26337462664E-002 -3.25113162398E-002 +3.04935269924E-006 -4.49442131867E-006 +1.03684134781E-001 -2.32883039862E-002 
+8.61000000000E+009 -3.71580272913E-001 -5.44985055923E-001 -2.29299440980E-002 -3.05333714932E-002 +4.43150156570E-006 -1.08535869003E-005 +1.00402258337E-001 -3.87658365071E-002 
+8.81000000000E+009 -3.82668405771E-001 -5.42902708054E-001 -3.61513085663E-002 +1.12914834172E-002 -9.23263814911E-006 +1.29400641526E-005 +9.49456915259E-002 -5.42447566986E-002 
+9.01000000000E+009 -3.93390953541E-001 -5.40366411209E-001 +2.49406730291E-004 +3.71790528297E-002 -2.34222698055E-005 +1.65501824085E-005 +8.82371291518E-002 -6.78928121924E-002 
+9.21000000000E+009 -4.03856337070E-001 -5.37893712521E-001 +3.33373472095E-002 +1.08615225181E-002 +9.27228393266E-006 -2.41875568463E-005 +7.83936083317E-002 -8.27292576432E-002 
+9.41000000000E+009 -4.13616746664E-001 -5.35472631454E-001 +2.04101353884E-002 -2.72993054241E-002 +2.29424654208E-006 -1.63770819199E-005 +6.58955946565E-002 -9.62493568659E-002 
+9.61000000000E+009 -4.23263430595E-001 -5.32530546188E-001 -1.88299696892E-002 -2.60693281889E-002 -2.65391736320E-005 -3.81900936191E-005 +5.07110990584E-002 -1.08430117369E-001 
+9.81000000000E+009 -4.32205229998E-001 -5.30317902565E-001 -2.84666791558E-002 +8.19120649248E-003 +1.41244936458E-005 +7.73580026703E-008 +3.55238988996E-002 -1.17663927376E-001 
+1.00100000000E+010 -4.41373556852E-001 -5.27380406857E-001 -1.95732992142E-003 +2.82783526927E-002 +6.45199861538E-006 -7.45264514990E-006 +1.86613705009E-002 -1.25498965383E-001 
+1.02100000000E+010 -4.49732214212E-001 -5.24203479290E-001 +2.41889189929E-002 +1.01581867784E-002 -6.05118384556E-006 -1.96196524485E-005 +4.65689023258E-004 -1.32276237011E-001 
+1.04100000000E+010 -4.58248853683E-001 -5.21535456181E-001 +1.69938709587E-002 -1.76556501538E-002 -3.58809370482E-006 -2.58146810665E-005 -2.00810823590E-002 -1.37656494975E-001 
+1.06100000000E+010 -4.66445684433E-001 -5.18513023853E-001 -1.00894784555E-002 -2.10379250348E-002 +1.44470004670E-005 +1.12694151539E-005 -4.17086258531E-002 -1.40181124210E-001 
+1.08100000000E+010 -4.73502963781E-001 -5.16258239746E-001 -2.13580131531E-002 +2.05761799589E-003 -3.51176822733E-005 -1.12908674055E-005 -6.34858906269E-002 -1.39710560441E-001 
+1.10100000000E+010 -4.81005191803E-001 -5.13307571411E-001 -5.91122265905E-003 +1.93462073803E-002 -2.23112988351E-006 -6.27334657111E-006 -8.53945165873E-002 -1.36198893189E-001 
+1.12100000000E+010 -4.87949460745E-001 -5.11156916618E-001 +1.55827580020E-002 +1.18420552462E-002 +1.25508313431E-005 -3.07835625790E-006 -1.09118029475E-001 -1.29816040397E-001 
+1.14100000000E+010 -4.95029211044E-001 -5.08172333241E-001 +1.52647346258E-002 -9.65471938252E-003 +1.16046157927E-006 -1.95215918097E-007 -1.32065087557E-001 -1.19637355208E-001 
+1.16100000000E+010 -5.00716924667E-001 -5.05611956120E-001 -3.03642475046E-003 -1.68565232307E-002 -2.36449141084E-005 -1.43916633988E-006 -1.53830140829E-001 -1.06387495995E-001 
+1.18100000000E+010 -5.06923079491E-001 -5.02853155136E-001 -1.61464326084E-002 -2.78581050225E-003 +5.34353202966E-005 -2.12029299291E-005 -1.73481643200E-001 -8.96087065339E-002 
+1.20100000000E+010 -5.13226687908E-001 -4.99718636274E-001 -7.63151887804E-003 +1.28173595294E-002 -1.24562293422E-005 +2.86882805085E-005 -1.90403267741E-001 -7.02061504126E-002 
+1.22100000000E+010 -5.19531786442E-001 -4.96319741011E-001 +8.37357994169E-003 +1.14004975185E-002 -2.84391862806E-005 +2.38870507019E-006 -2.07784384489E-001 -4.83953393996E-002 
+1.24100000000E+010 -5.25208294392E-001 -4.93389368057E-001 +1.29725905135E-002 -3.62081243657E-003 +9.66670631897E-006 -7.16107433618E-006 -2.22180336714E-001 -2.31412407011E-002 
+1.26100000000E+010 -5.30818700790E-001 -4.90287423134E-001 +1.33633078076E-003 -1.22287804261E-002 -1.07133973870E-005 +1.34550919029E-005 -2.32480272651E-001 +4.39404183999E-003 
+1.28100000000E+010 -5.36084353924E-001 -4.87119734287E-001 -1.03632882237E-002 -5.88944787160E-003 +1.70523417182E-005 -1.91642902792E-005 -2.38698974252E-001 +3.33736948669E-002 
+1.30100000000E+010 -5.41298449039E-001 -4.83321070671E-001 -8.43427795917E-003 +7.09397392347E-003 -1.90228893189E-005 -3.12307179229E-006 -2.42326110601E-001 +6.32288008928E-002 
+1.32100000000E+010 -5.46120285988E-001 -4.80087161064E-001 +3.04218777455E-003 +1.00286323577E-002 -2.84969664790E-005 -1.44460182128E-005 -2.42701858282E-001 +9.46719124913E-002 
+1.34100000000E+010 -5.50967931747E-001 -4.76192444563E-001 +9.98451467603E-003 +1.01288442966E-003 -3.72320973838E-005 +6.36872573523E-006 -2.39057958126E-001 +1.26325801015E-001 
+1.36100000000E+010 -5.53933441639E-001 -4.72939580679E-001 +4.28843451664E-003 -8.41673463583E-003 +1.84396012628E-005 -2.69840547844E-005 -2.31439426541E-001 +1.59006625414E-001 
+1.38100000000E+010 -5.58820962906E-001 -4.70212221146E-001 -5.73852146044E-003 -6.79203448817E-003 -1.82294343176E-006 -1.99618662009E-005 -2.18268081546E-001 +1.90957397223E-001 
+1.40100000000E+010 -5.63377976418E-001 -4.67107802629E-001 -8.14300123602E-003 +2.63538444415E-003 -1.83294723684E-005 +2.86853082798E-005 -2.01599776745E-001 +2.21924230456E-001 
+1.42100000000E+010 -5.67593216896E-001 -4.64357435703E-001 -4.33601584518E-004 +8.06815456599E-003 -7.49560967961E-006 -2.48564538197E-005 -1.81135639548E-001 +2.53150582314E-001 
+1.44100000000E+010 -5.72014629841E-001 -4.60880368948E-001 +6.71552866697E-003 +3.24606173672E-003 -7.54665961722E-006 -2.43521384391E-007 -1.55386462808E-001 +2.81545311213E-001 
+1.46100000000E+010 -5.75421988964E-001 -4.58039402962E-001 +5.28815994039E-003 -4.70878323540E-003 +3.90039986087E-006 +4.59896637039E-006 -1.24825455248E-001 +3.06994408369E-001 
+1.48100000000E+010 -5.78706383705E-001 -4.53001588583E-001 -2.26659583859E-003 -6.27865688875E-003 +4.20426222263E-005 -2.97561314255E-007 -9.18891131878E-002 +3.28879147768E-001 
+1.50100000000E+010 -5.80237090588E-001 -4.52200740576E-001 -6.00846251473E-003 -4.35594178271E-004 +5.92953483647E-006 -8.81648884388E-006 -5.63790798187E-002 +3.48256289959E-001 
+1.52100000000E+010 -5.82849502563E-001 -4.51631277800E-001 -2.77343788184E-003 +5.27927139774E-003 +1.68986916833E-005 +6.47342585580E-006 -1.76710262895E-002 +3.63283544779E-001 
+1.54100000000E+010 -5.86169540882E-001 -4.49674248695E-001 +3.45506356098E-003 +4.12137899548E-003 -3.11401731778E-006 -1.73555345100E-005 +2.44410783052E-002 +3.73334050179E-001 
+1.56100000000E+010 -5.89612483978E-001 -4.46606129408E-001 +4.90779569373E-003 -1.20177306235E-003 -8.68382267072E-006 +1.51968906721E-005 +6.82787150145E-002 +3.77700179815E-001 
+1.58100000000E+010 -5.90788900852E-001 -4.46148455143E-001 +8.61209467985E-004 -4.83250059187E-003 +9.47249918681E-006 -3.84957202186E-005 +1.12057290971E-001 +3.78109216690E-001 
+1.60100000000E+010 -5.93050837517E-001 -4.45189386606E-001 -3.87548212893E-003 -2.78778048232E-003 +3.82661983167E-006 +9.45607371250E-006 +1.57039895654E-001 +3.73138874769E-001 
+1.62100000000E+010 -5.95268547535E-001 -4.43942874670E-001 -4.07359516248E-003 +2.43622600101E-003 +1.87634068425E-005 +8.59667579789E-006 +2.04324796796E-001 +3.62831920385E-001 
+1.64100000000E+010 -5.97282171249E-001 -4.42792117596E-001 +6.55803480186E-004 +4.76222578436E-003 +3.04411787511E-005 -1.75729910552E-005 +2.50982761383E-001 +3.46669763327E-001 
+1.66100000000E+010 -6.00776255131E-001 -4.41474258900E-001 +4.53369366005E-003 +1.00938579999E-003 +1.65774474681E-006 -2.23617225856E-005 +2.94774204493E-001 +3.23075830936E-001 
+1.68100000000E+010 -6.04028046131E-001 -4.39414232969E-001 +2.56596226245E-003 -3.61843593419E-003 +3.92388164983E-006 -8.19860542833E-006 +3.37910085917E-001 +2.95758306980E-001 
+1.70100000000E+010 -6.05796694756E-001 -4.37606990337E-001 -2.33441800810E-003 -3.65069042891E-003 +1.81223676918E-005 +1.53986070472E-006 +3.77800405025E-001 +2.64370292425E-001 
+1.72100000000E+010 -6.08257591724E-001 -4.36027288437E-001 -3.99820506573E-003 +8.06343043223E-004 +3.49971232936E-005 +2.72530214716E-005 +4.15255695581E-001 +2.25916445255E-001 
+1.74100000000E+010 -6.11554801464E-001 -4.34534400702E-001 -8.49514617585E-004 +3.75322415493E-003 -1.28856327137E-005 +2.06862405321E-005 +4.48601067066E-001 +1.83136850595E-001 
+1.76100000000E+010 -6.14550054073E-001 -4.32729840279E-001 +3.08900373057E-003 +2.15645460412E-003 -5.74367595618E-006 -1.17900763144E-005 +4.76353168488E-001 +1.37218877673E-001 
+1.78100000000E+010 -6.17766499519E-001 -4.30965214968E-001 +2.98054562882E-003 -1.90601125360E-003 -1.83307438419E-005 +1.47070431922E-005 +4.99801874161E-001 +8.85503739119E-002 
+1.80100000000E+010 -6.20397388935E-001 -4.28871363401E-001 -5.05881092977E-004 -3.39128286578E-003 -6.36726463199E-006 +4.67606605525E-006 +5.19185602665E-001 +3.75072099268E-002 
+1.82100000000E+010 -6.23527884483E-001 -4.27282631397E-001 -3.18027171306E-003 -8.02991038654E-004 +1.15306684165E-005 +2.28988374147E-005 +5.31846106052E-001 -1.68504249305E-002 
+1.84100000000E+010 -6.26576960087E-001 -4.25743132830E-001 -1.87153986190E-003 +2.46575265191E-003 -8.30326189316E-006 -1.48273311424E-005 +5.37991285324E-001 -7.40170404315E-002 
+1.86100000000E+010 -6.29777133465E-001 -4.23855423927E-001 +1.42417440657E-003 +2.65073147602E-003 -3.02037569782E-005 -3.73905677407E-005 +5.38262307644E-001 -1.30403667688E-001 
+1.88100000000E+010 -6.32501125336E-001 -4.21724617481E-001 +2.94490880333E-003 -2.45344534051E-004 -2.04390216823E-005 -8.91572017281E-006 +5.32520174980E-001 -1.86893820763E-001 
+1.90100000000E+010 -6.34590208530E-001 -4.20052587986E-001 +8.57600476593E-004 -2.69793951884E-003 -6.46609260002E-006 -3.79278458240E-006 +5.20754933357E-001 -2.43010073900E-001 
+1.92100000000E+010 -6.37430250645E-001 -4.19023185968E-001 -2.11838749237E-003 -1.82797689922E-003 +2.33251785176E-006 +3.56340569851E-005 +5.02788782120E-001 -3.00436288118E-001 
+1.94100000000E+010 -6.40504300594E-001 -4.16817605495E-001 -2.30679917149E-003 +1.23815808911E-003 +1.50655068865E-005 +2.07767461688E-005 +4.77431416512E-001 -3.55038791895E-001 
+1.96100000000E+010 -6.41598880291E-001 -4.14665549994E-001 +1.96966313524E-004 +2.46899086051E-003 -7.30999772713E-006 -4.10286738770E-005 +4.46683943272E-001 -4.06985610723E-001 
+1.98100000000E+010 -6.41704797745E-001 -4.12146508694E-001 +2.26575182751E-003 +7.85573443864E-004 -3.08883791149E-005 -7.30298925191E-005 +4.11976903677E-001 -4.54352885485E-001 
+2.00100000000E+010 -6.41655266285E-001 -4.10912573338E-001 +1.55657401774E-003 -1.69223663397E-003 +5.07406439283E-005 +1.79631081210E-006 +3.70303899050E-001 -5.00671386719E-001 
