!;Filter: kein Filter
!auto
!3/21/2019 9:26:52 AM
!3/21/2019 9:27:07 AM
!SP-Measurements Prober G4
!SP-Measurements Prober G4
!01103_448C
!134
!233
!12
!40
!-20
!0.00199954
!1.75
!0.22129449
!0.22129449
# Hz S  RI   R 50
+1.00000000000E+007 +4.14630711079E-001 +9.50892455876E-003 +4.92222346365E-002 -1.98241770267E-002 -4.16334776673E-004 +3.73932824004E-004 +5.58598246425E-003 +1.29985995591E-003 
+2.10000000000E+008 +4.32322770357E-001 -3.92679311335E-002 -3.06980218738E-003 -4.99262996018E-002 +4.06731778639E-005 -7.10450403858E-005 +8.64982604980E-003 -4.74425451830E-003 
+4.10000000000E+008 +4.29815351963E-001 -8.46429839730E-002 -4.72872219980E-002 -1.38066066429E-002 +1.12744182843E-005 -7.03622026776E-006 +9.95619408786E-003 -7.02364742756E-003 
+6.10000000000E+008 +4.22572463751E-001 -1.28724589944E-001 -2.81418953091E-002 +3.86848598719E-002 -3.84940176446E-005 -2.80931853922E-005 +9.97934397310E-003 -1.16789946333E-002 
+8.10000000000E+008 +4.10955011845E-001 -1.70839846134E-001 +2.59700044990E-002 +3.93998920918E-002 +1.45326212078E-005 -1.99168207473E-005 +6.86412723735E-003 -1.52998110279E-002 
+1.01000000000E+009 +3.97194176912E-001 -2.11049526930E-001 +4.56673093140E-002 -1.10537651926E-002 -2.39833643718E-005 +2.29133875109E-005 +2.87841819227E-003 -1.90874114633E-002 
+1.21000000000E+009 +3.79952758551E-001 -2.49160140753E-001 +5.78570738435E-003 -4.47422266006E-002 +3.28288915625E-005 +3.59349032806E-005 -1.69692095369E-003 -2.11926829070E-002 
+1.41000000000E+009 +3.60889583826E-001 -2.84944474697E-001 -3.92593182623E-002 -2.16839462519E-002 +5.85718771617E-006 -2.92214826914E-005 -7.36004905775E-003 -2.44570653886E-002 
+1.61000000000E+009 +3.41180264950E-001 -3.18944275379E-001 -3.35860066116E-002 +2.95131988823E-002 -5.32560625288E-006 -7.78044523031E-006 -1.37413321063E-002 -2.66888253391E-002 
+1.81000000000E+009 +3.18600863218E-001 -3.50492775440E-001 +1.46232936531E-002 +4.06329408288E-002 +3.94349881390E-005 +1.63083313964E-005 -1.75944790244E-002 -2.77741886675E-002 
+2.01000000000E+009 +2.96189457178E-001 -3.79580169916E-001 +4.33333367109E-002 +1.65390037000E-003 -6.35604010313E-006 +1.26377710785E-006 -2.31768824160E-002 -2.67410054803E-002 
+2.21000000000E+009 +2.72580981255E-001 -4.07448470592E-001 +1.63099858910E-002 -4.03410308063E-002 +1.36238877531E-005 +2.51017499977E-005 -2.87399888039E-002 -2.45546381921E-002 
+2.41000000000E+009 +2.47277185321E-001 -4.32434976101E-001 -3.05245015770E-002 -2.91279293597E-002 -9.30232818064E-006 -2.17900378630E-005 -3.54379191995E-002 -2.22684536129E-002 
+2.61000000000E+009 +2.22306907177E-001 -4.55208241940E-001 -3.89470383525E-002 +1.73924621195E-002 +6.36387312625E-006 +1.68224778463E-005 -4.06583026052E-002 -1.92936100066E-002 
+2.81000000000E+009 +1.97041511536E-001 -4.76555377245E-001 +3.20589356124E-003 +4.30745221674E-002 +2.41962534346E-005 +8.83412394614E-006 -4.46321815252E-002 -1.44295925274E-002 
+3.01000000000E+009 +1.70806527138E-001 -4.95527029037E-001 +4.01344262064E-002 +1.24498838559E-002 -2.89892304863E-005 +1.59696628543E-005 -4.84829507768E-002 -8.68079625070E-003 
+3.21000000000E+009 +1.45173802972E-001 -5.12572646141E-001 +2.74592638016E-002 -3.29108349979E-002 +5.02659395352E-006 +1.09846832856E-005 -5.23821599782E-002 -2.32490431517E-003 
+3.41000000000E+009 +1.19884788990E-001 -5.28472900391E-001 -2.25289016962E-002 -3.77276204526E-002 -8.29884902487E-006 +2.26976517297E-005 -5.53622059524E-002 +4.82910405844E-003 
+3.61000000000E+009 +9.42958444357E-002 -5.42548537254E-001 -4.21872138977E-002 +7.17126531526E-003 +1.51932681547E-005 -1.34993415486E-005 -5.71128241718E-002 +1.17829060182E-002 
+3.81000000000E+009 +6.91219717264E-002 -5.54657816887E-001 -1.01081794128E-002 +4.29125539958E-002 -2.52939462371E-005 +9.50392313825E-006 -5.69368228316E-002 +1.91162433475E-002 
+4.01000000000E+009 +4.46758531034E-002 -5.66248834133E-001 +3.88242341578E-002 +2.42477543652E-002 -2.32832306324E-007 +2.74136345979E-005 -5.59318922460E-002 +2.70485505462E-002 
+4.21000000000E+009 +1.99559032917E-002 -5.75882792473E-001 +3.53550612926E-002 -2.68289167434E-002 +8.28479096526E-006 +1.38905679705E-005 -5.39521537721E-002 +3.57833467424E-002 
+4.41000000000E+009 -3.61523730680E-003 -5.84157407284E-001 -1.13130323589E-002 -4.49875593185E-002 -7.78522826295E-006 -2.33507144003E-005 -5.08176982403E-002 +4.41615954041E-002 
+4.61000000000E+009 -2.69199479371E-002 -5.91990828514E-001 -4.88070547581E-002 -3.00893420354E-003 -9.22570052353E-006 +2.14500341826E-005 -4.66422475874E-002 +5.14032654464E-002 
+4.81000000000E+009 -5.04488721490E-002 -5.98212420940E-001 -1.88959334046E-002 +4.31630909443E-002 +1.11413173727E-005 -1.95633037947E-005 -4.00135070086E-002 +5.86374662817E-002 
+5.01000000000E+009 -7.23650604486E-002 -6.03932857513E-001 +3.46742235124E-002 +3.65463681519E-002 -7.67950950831E-007 +1.95281900233E-005 -3.34769859910E-002 +6.52387067676E-002 
+5.21000000000E+009 -9.41854342818E-002 -6.09460830688E-001 +4.73556667566E-002 -2.52117551863E-002 +3.20808157994E-006 +8.04875435279E-006 -2.59587410837E-002 +7.12522268295E-002 
+5.41000000000E+009 -1.15744553506E-001 -6.12911045551E-001 -7.50097306445E-003 -5.02285473049E-002 +1.50986409153E-006 +2.98569157167E-005 -1.71637888998E-002 +7.64462724328E-002 
+5.61000000000E+009 -1.36550173163E-001 -6.16490244865E-001 -5.41964620352E-002 -1.28645906225E-002 +1.11451990961E-005 +4.53056236438E-006 -7.41028180346E-003 +7.95972570777E-002 
+5.81000000000E+009 -1.57235294580E-001 -6.19193553925E-001 -2.56038680673E-002 +5.26201166213E-002 +8.70316034707E-006 -1.29614618345E-005 +3.08275921270E-003 +8.04647654295E-002 
+6.01000000000E+009 -1.76856175065E-001 -6.20076775551E-001 +3.79532277584E-002 +3.84238474071E-002 +1.92405259440E-005 -1.03346183096E-005 +1.42353549600E-002 +8.25154855847E-002 
+6.21000000000E+009 -1.95915564895E-001 -6.21277034283E-001 +5.47840744257E-002 -2.52419114113E-002 -9.19068043004E-006 +8.84249129740E-006 +2.49235890806E-002 +8.18141326308E-002 
+6.41000000000E+009 -2.15047925711E-001 -6.21407747269E-001 -1.63955502212E-002 -5.83118759096E-002 +1.85229873750E-005 -1.33387220558E-005 +3.64524349570E-002 +8.00421535969E-002 
+6.61000000000E+009 -2.32913374901E-001 -6.20441615582E-001 -5.37723526359E-002 -4.37452411279E-003 +2.81098546111E-005 +5.36238303539E-006 +4.75923903286E-002 +7.49130323529E-002 
+6.81000000000E+009 -2.50482678413E-001 -6.19823515415E-001 -2.19601131976E-002 +5.52365593612E-002 -8.79079470906E-006 -4.22966832048E-006 +5.83889372647E-002 +6.90229088068E-002 
+7.01000000000E+009 -2.67588078976E-001 -6.17846071720E-001 +4.69323806465E-002 +2.71959044039E-002 +1.77185520442E-005 -1.22441897474E-005 +6.83466121554E-002 +6.27615600824E-002 
+7.21000000000E+009 -2.83195346594E-001 -6.15755558014E-001 +3.80472615361E-002 -2.85792741925E-002 +3.14023532155E-006 +3.58170859727E-006 +7.74512290955E-002 +5.41342273355E-002 
+7.41000000000E+009 -2.98727720976E-001 -6.13983631134E-001 -1.83408409357E-002 -4.72148880363E-002 -9.35102616495E-006 -8.82368476596E-006 +8.67481976748E-002 +4.39341291785E-002 
+7.61000000000E+009 -3.12963694334E-001 -6.10901713371E-001 -4.23625260592E-002 +7.62854702771E-003 +7.38875314710E-007 -1.75621426024E-005 +9.29813832045E-002 +3.18627879024E-002 
+7.81000000000E+009 -3.27183604240E-001 -6.07943415642E-001 -9.64503176510E-003 +3.69013473392E-002 +3.89771812479E-005 +1.33142366394E-005 +9.85040962696E-002 +1.97176411748E-002 
+8.01000000000E+009 -3.40761929750E-001 -6.04775190353E-001 +3.37884426117E-002 +1.97611264884E-002 +2.29741126532E-005 +1.47107730299E-005 +1.02071277797E-001 +5.80747146159E-003 
+8.21000000000E+009 -3.53542238474E-001 -6.01111233234E-001 +2.28440836072E-002 -2.26544123143E-002 +3.80423580282E-006 -3.65326832252E-006 +1.04167662561E-001 -8.23025591671E-003 
+8.41000000000E+009 -3.65987569094E-001 -5.97535192966E-001 -9.38888080418E-003 -2.75740288198E-002 +4.21406766691E-005 +8.70961321198E-006 +1.03808000684E-001 -2.34205592424E-002 
+8.61000000000E+009 -3.78356367350E-001 -5.94064950943E-001 -2.91805248708E-002 +1.04181421921E-003 -5.76159573029E-006 +1.29674317577E-005 +1.00533246994E-001 -3.88560965657E-002 
+8.81000000000E+009 -3.89901220798E-001 -5.90449333191E-001 -6.51285378262E-003 +2.33986061066E-002 +4.52128733741E-006 -1.88770627574E-005 +9.50666144490E-002 -5.43742887676E-002 
+9.01000000000E+009 -4.01151478291E-001 -5.86673796177E-001 +1.67354289442E-002 +1.48993302137E-002 +2.48768333222E-006 +4.87726765641E-006 +8.83814468980E-002 -6.80561065674E-002 
+9.21000000000E+009 -4.12114381790E-001 -5.82815468311E-001 +1.90369021147E-002 -1.13271707669E-002 +4.24867403126E-006 -6.49040748613E-006 +7.84926563501E-002 -8.29560309649E-002 
+9.41000000000E+009 -4.22199636698E-001 -5.79093754292E-001 -3.73486569151E-003 -1.82726327330E-002 +1.45129001794E-006 +5.10422341904E-006 +6.59039542079E-002 -9.64414849877E-002 
+9.61000000000E+009 -4.32301402092E-001 -5.74998557568E-001 -1.67633593082E-002 -4.40886197612E-003 +1.15322172860E-005 -5.61258411835E-006 +5.07415905595E-002 -1.08607664704E-001 
+9.81000000000E+009 -4.41607564688E-001 -5.71504712105E-001 -9.33351647109E-003 +1.42990089953E-002 -2.62520188699E-005 +1.91619310499E-005 +3.55439893901E-002 -1.17845460773E-001 
+1.00100000000E+010 -4.51098769903E-001 -5.67544460297E-001 +8.63534770906E-003 +1.17773003876E-002 -1.40456313602E-005 +2.44159964495E-005 +1.86204649508E-002 -1.25656604767E-001 
+1.02100000000E+010 -4.59789454937E-001 -5.63217163086E-001 +1.35671328753E-002 -2.37081595697E-003 +6.03840380791E-005 +2.53794423770E-005 +3.93336813431E-004 -1.32482126355E-001 
+1.04100000000E+010 -4.68599200249E-001 -5.59392988682E-001 +2.07601278089E-003 -1.33193163201E-002 -4.99132511322E-006 -2.14384344872E-005 -2.01731622219E-002 -1.37892976403E-001 
+1.06100000000E+010 -4.76940006018E-001 -5.55396318436E-001 -1.01471450180E-002 -5.89650217444E-003 +1.25986725834E-005 -1.14732972634E-006 -4.17705625296E-002 -1.40391141176E-001 
+1.08100000000E+010 -4.84289318323E-001 -5.52177965641E-001 -9.20686591417E-003 +6.23761536554E-003 +4.81588540424E-006 -1.38719351526E-005 -6.36132657528E-002 -1.39923602343E-001 
+1.10100000000E+010 -4.91953790188E-001 -5.48217415810E-001 +2.69543286413E-003 +1.05294268578E-002 -7.99171539256E-006 -1.53252062773E-006 -8.55646729469E-002 -1.36358708143E-001 
+1.12100000000E+010 -4.99005854130E-001 -5.45139074326E-001 +9.43951588124E-003 +1.19032838847E-003 -9.63562888501E-006 +1.22636974993E-005 -1.09336636961E-001 -1.29919692874E-001 
+1.14100000000E+010 -5.06324529648E-001 -5.41146755219E-001 +4.99421032146E-003 -7.57908634841E-003 -8.98420603335E-006 -1.73995140358E-005 -1.32305294275E-001 -1.19734108448E-001 
+1.16100000000E+010 -5.12107193470E-001 -5.37654638290E-001 -5.32484287396E-003 -7.13176000863E-003 -2.06287149922E-005 +1.34553674798E-005 -1.54076531529E-001 -1.06451444328E-001 
+1.18100000000E+010 -5.18411636353E-001 -5.34145951271E-001 -7.64445401728E-003 +2.05217022449E-003 -1.27653511299E-005 -2.91156975436E-005 -1.73686519265E-001 -8.96600261331E-002 
+1.20100000000E+010 -5.24836122990E-001 -5.30207931995E-001 -1.34985276964E-003 +7.41496449336E-003 -1.06800216599E-005 -1.81400737347E-005 -1.90636664629E-001 -7.02113807201E-002 
+1.22100000000E+010 -5.31246721745E-001 -5.25946140289E-001 +6.32084114477E-003 +3.81402578205E-003 +1.66477366292E-005 -5.07623326484E-006 -2.08040356636E-001 -4.83383499086E-002 
+1.24100000000E+010 -5.37034094334E-001 -5.22271633148E-001 +5.28757646680E-003 -4.00413619354E-003 +3.92332549382E-005 +1.83975270573E-008 -2.22406968474E-001 -2.30657514185E-002 
+1.26100000000E+010 -5.42678356171E-001 -5.18405258656E-001 -1.25698803458E-003 -6.19026785716E-003 +2.35559691646E-005 -8.11008703749E-006 -2.32712745667E-001 +4.49329381809E-003 
+1.28100000000E+010 -5.48045158386E-001 -5.14462947845E-001 -6.07745582238E-003 -9.89835010841E-004 +2.03823146876E-005 +1.16784249258E-005 -2.38924413919E-001 +3.35615165532E-002 
+1.30100000000E+010 -5.53305447102E-001 -5.09968221188E-001 -2.93407472782E-003 +4.72912285477E-003 -1.77158399310E-005 -1.84175005415E-005 -2.42560997605E-001 +6.34410753846E-002 
+1.32100000000E+010 -5.58065474033E-001 -5.05999445915E-001 +2.88858893327E-003 +4.48890589178E-003 +1.74216584128E-005 +1.99262976821E-005 -2.42901906371E-001 +9.48729738593E-002 
+1.34100000000E+010 -5.62889575958E-001 -5.01397609711E-001 +5.10880351067E-003 -1.06631242670E-003 +7.25358222553E-006 -3.29243630404E-006 -2.39202186465E-001 +1.26564562321E-001 
+1.36100000000E+010 -5.65860867500E-001 -4.97468560934E-001 +8.34563164972E-004 -4.64214477688E-003 -7.31131467546E-006 +6.12606709183E-006 -2.31548115611E-001 +1.59295782447E-001 
+1.38100000000E+010 -5.70697486401E-001 -4.94094192982E-001 -3.68876312859E-003 -2.68898694776E-003 +3.42251150869E-005 -5.34551327291E-006 -2.18325495720E-001 +1.91270470619E-001 
+1.40100000000E+010 -5.75262188911E-001 -4.90410000086E-001 -3.76475346275E-003 +2.38240603358E-003 -5.16217733093E-006 +1.83021948033E-005 -2.01586976647E-001 +2.22221001983E-001 
+1.42100000000E+010 -5.79470992088E-001 -4.87050741911E-001 +7.13932444341E-004 +4.03794180602E-003 -2.61452278210E-005 +1.05319913928E-005 -1.81097522378E-001 +2.53449797630E-001 
+1.44100000000E+010 -5.83782017231E-001 -4.82906609774E-001 +3.74195841141E-003 +1.00942060817E-003 +7.34732930141E-006 -4.71431521873E-005 -1.55333906412E-001 +2.81840980053E-001 
+1.46100000000E+010 -5.87167441845E-001 -4.79485541582E-001 +2.29704543017E-003 -3.07348696515E-003 -1.29223517433E-005 -1.97352306941E-007 -1.24726288021E-001 +3.07246208191E-001 
+1.48100000000E+010 -5.90361773968E-001 -4.73801672459E-001 -1.80929130875E-003 -3.01384972408E-003 -1.85595963558E-005 -7.31776663088E-006 -9.17147472501E-002 +3.29157590866E-001 
+1.50100000000E+010 -5.91708123684E-001 -4.72492963076E-001 -3.36723471992E-003 +3.53442388587E-004 +1.00684610516E-005 -7.86900443472E-007 -5.61352409422E-002 +3.48512470722E-001 
+1.52100000000E+010 -5.94255566597E-001 -4.71454262733E-001 -9.07255103812E-004 +3.17289214581E-003 -8.01725673227E-006 -1.15602642836E-006 -1.73880625516E-002 +3.63487303257E-001 
+1.54100000000E+010 -5.97489237785E-001 -4.69113707542E-001 +2.38681235351E-003 +1.88665441237E-003 -7.81498056313E-006 -1.05779372461E-006 +2.47393865138E-002 +3.73511284590E-001 
+1.56100000000E+010 -6.00857734680E-001 -4.65503185987E-001 +2.64325854369E-003 -1.27542659175E-003 -1.47136825035E-005 -2.96555867862E-006 +6.85804337263E-002 +3.77855658531E-001 
+1.58100000000E+010 -6.01935148239E-001 -4.64698284864E-001 -2.17024979065E-004 -2.90856370702E-003 +2.77577801171E-005 -8.41476321511E-007 +1.12424433231E-001 +3.78171294928E-001 
+1.60100000000E+010 -6.04030191898E-001 -4.63190406561E-001 -2.53114011139E-003 -8.18642613012E-004 -1.98200123123E-005 -9.77125728241E-006 +1.57434076071E-001 +3.73168915510E-001 
+1.62100000000E+010 -6.06135427952E-001 -4.61577653885E-001 -1.77441234700E-003 +1.86689128168E-003 +2.54487713391E-005 +1.38989253173E-005 +2.04765141010E-001 +3.62822026014E-001 
+1.64100000000E+010 -6.07969880104E-001 -4.60071682930E-001 +1.03370985016E-003 +2.32724030502E-003 +6.37264565739E-006 -1.67576054082E-005 +2.51409530640E-001 +3.46619576216E-001 
+1.66100000000E+010 -6.11389160156E-001 -4.58478361368E-001 +2.35813320614E-003 -9.22927865759E-005 -3.22609193972E-005 -1.07935311462E-005 +2.95189797878E-001 +3.22939604521E-001 
+1.68100000000E+010 -6.14622533321E-001 -4.56011235714E-001 +8.75320925843E-004 -2.08554719575E-003 +1.83492811630E-005 -2.19816320168E-005 +3.38255405426E-001 +2.95567154884E-001 
+1.70100000000E+010 -6.16320788860E-001 -4.53805208206E-001 -1.57634913921E-003 -1.60526507534E-003 -1.67904618138E-005 +4.84236479679E-005 +3.78150463104E-001 +2.64085531235E-001 
+1.72100000000E+010 -6.18708848953E-001 -4.51804935932E-001 -1.91943044774E-003 +7.72611296270E-004 -8.77373895491E-006 -8.68391362019E-006 +4.15558755398E-001 +2.25610047579E-001 
+1.74100000000E+010 -6.21844410896E-001 -4.50011342764E-001 -7.86409873399E-005 +2.00860621408E-003 +2.07453977055E-005 +1.57062477228E-005 +4.48816180229E-001 +1.82801350951E-001 
+1.76100000000E+010 -6.24752700329E-001 -4.47889596224E-001 +1.72455073334E-003 +8.65875976160E-004 -4.60791352452E-006 -4.77675166621E-005 +4.76574003696E-001 +1.36828109622E-001 
+1.78100000000E+010 -6.27885639668E-001 -4.45743829012E-001 +1.36032118462E-003 -1.22809957247E-003 -1.71763222170E-005 +2.02860906029E-006 +4.99976933002E-001 +8.81535187364E-002 
+1.80100000000E+010 -6.30433559418E-001 -4.43371564150E-001 -5.24234841578E-004 -1.67849403806E-003 -4.19564785261E-005 +1.46186066559E-005 +5.19200921059E-001 +3.70397605002E-002 
+1.82100000000E+010 -6.33472025394E-001 -4.41458433867E-001 -1.71110825613E-003 -1.81184441317E-004 -1.70698494912E-005 +1.16483670354E-005 +5.31866252422E-001 -1.73043049872E-002 
+1.84100000000E+010 -6.36333405972E-001 -4.39770430326E-001 -7.51490006223E-004 +1.46358273923E-003 +7.41369649404E-006 +5.18234060110E-007 +5.37903249264E-001 -7.44881629944E-002 
+1.86100000000E+010 -6.39521420002E-001 -4.37531888485E-001 +9.26205364522E-004 +1.23199890368E-003 +1.00155932614E-006 +2.21742011490E-005 +5.38132846355E-001 -1.30867481232E-001 
+1.88100000000E+010 -6.42196297646E-001 -4.35028702021E-001 +1.49942236021E-003 -3.30098962877E-004 -3.52902276290E-007 -2.45084847847E-005 +5.32260954380E-001 -1.87410548329E-001 
+1.90100000000E+010 -6.44077837467E-001 -4.33045655489E-001 +1.87738667591E-004 -1.42412411515E-003 +1.91339822777E-005 +8.64812773216E-006 +5.20453810692E-001 -2.43529602885E-001 
+1.92100000000E+010 -6.46827638149E-001 -4.31887984276E-001 -1.17017654702E-003 -7.36995774787E-004 +1.99103233172E-005 +5.53500740352E-006 +5.02401888371E-001 -3.00942003727E-001 
+1.94100000000E+010 -6.49811327457E-001 -4.29459214211E-001 -1.17728568148E-003 +7.24491372239E-004 -2.40313711402E-005 -2.76024347841E-005 +4.76947367191E-001 -3.55430126190E-001 
+1.96100000000E+010 -6.50902092457E-001 -4.27109092474E-001 +2.34230959904E-004 +1.30615010858E-003 +2.39743440034E-005 -2.75490456261E-005 +4.46174502373E-001 -4.07324433327E-001 
+1.98100000000E+010 -6.50889933109E-001 -4.24141198397E-001 +1.20997405611E-003 +3.03743523546E-004 -2.39163055085E-005 +1.03154127373E-006 +4.11394029856E-001 -4.54543620348E-001 
+2.00100000000E+010 -6.50646984577E-001 -4.22710359097E-001 +7.45608587749E-004 -9.79876960628E-004 +1.44378500408E-005 +8.07192645880E-006 +3.69734138250E-001 -5.00899791718E-001 
