!;Filter: kein Filter
!auto
!3/21/2019 9:26:52 AM
!3/21/2019 9:27:07 AM
!SP-Measurements Prober G4
!SP-Measurements Prober G4
!01103_448C
!134
!237
!12
!40
!-20
!0.00199954
!1.75
!0.22129449
!0.22129449
# Hz S  RI   R 50
+1.00000000000E+007 +2.91011989117E-001 +8.22323095053E-003 +6.30531832576E-002 -2.58004013449E-002 -5.64787769690E-004 -5.46150607988E-004 +5.27031579986E-003 +1.37781491503E-003 
+2.10000000000E+008 +3.01113665104E-001 -3.45938280225E-002 -3.62282944843E-003 -6.54633790255E-002 +8.34798629512E-006 -3.45618973370E-005 +8.56421515346E-003 -4.80234902352E-003 
+4.10000000000E+008 +2.98692584038E-001 -7.14959353209E-002 -6.25951290131E-002 -1.87500715256E-002 -2.18078025682E-006 +1.37536799230E-005 +9.96586307883E-003 -6.98941759765E-003 
+6.10000000000E+008 +2.95604169369E-001 -1.08159609139E-001 -3.63833457232E-002 +5.34142702818E-002 -1.40874944918E-005 -3.49378533429E-005 +9.96117852628E-003 -1.16687584668E-002 
+8.10000000000E+008 +2.87078887224E-001 -1.45685181022E-001 +3.70541065931E-002 +5.07137589157E-002 -3.26344434143E-006 -1.93389678316E-005 +6.91377464682E-003 -1.52970673516E-002 
+1.01000000000E+009 +2.75832265615E-001 -1.80591642857E-001 +6.01385384798E-002 -1.77432764322E-002 +3.83879378205E-005 +2.50963203143E-005 +2.86477012560E-003 -1.90418157727E-002 
+1.21000000000E+009 +2.61845827103E-001 -2.15524837375E-001 +3.09453974478E-003 -5.91566897929E-002 +1.00913621282E-005 -5.04212323449E-007 -1.64008350112E-003 -2.11766529828E-002 
+1.41000000000E+009 +2.44119524956E-001 -2.46762767434E-001 -5.18148802221E-002 -2.56760679185E-002 -1.30345633806E-005 +1.23878380691E-005 -7.29504367337E-003 -2.44312174618E-002 
+1.61000000000E+009 +2.28022679687E-001 -2.75708705187E-001 -4.36451435089E-002 +4.05495427549E-002 +1.52421634994E-005 +1.11296212708E-005 -1.37349329889E-002 -2.66790594906E-002 
+1.81000000000E+009 +2.09178462625E-001 -3.03656935692E-001 +2.15171463788E-002 +5.38652278483E-002 -3.01786622003E-005 -1.13662617878E-005 -1.75140686333E-002 -2.77203693986E-002 
+2.01000000000E+009 +1.90149605274E-001 -3.28387469053E-001 +5.98675608635E-002 +1.96124147624E-003 -6.36497406958E-006 +5.02494508225E-008 -2.31593754143E-002 -2.66861263663E-002 
+2.21000000000E+009 +1.71405434608E-001 -3.52864652872E-001 +2.27315258235E-002 -5.92150464654E-002 -7.62163335821E-006 +3.44209365721E-005 -2.86731217057E-002 -2.44658365846E-002 
+2.41000000000E+009 +1.50013953447E-001 -3.75503242016E-001 -4.59352061152E-002 -4.12138253450E-002 +5.72219551032E-006 +2.81820139207E-005 -3.54454405606E-002 -2.21946220845E-002 
+2.61000000000E+009 +1.29565626383E-001 -3.95288884640E-001 -5.96211738884E-002 +2.77883484960E-002 +3.41649820257E-006 -2.40298832068E-005 -4.06652092934E-002 -1.92017853260E-002 
+2.81000000000E+009 +1.09330810606E-001 -4.14836108685E-001 +8.50343331695E-003 +7.01998323202E-002 +1.85071439773E-005 +3.71719829673E-006 -4.45759296417E-002 -1.43324630335E-002 
+3.01000000000E+009 +8.71776193380E-002 -4.32239025831E-001 +6.76824226975E-002 +1.77997592837E-002 +9.04632543097E-006 -9.86041504802E-006 -4.84342686832E-002 -8.69964528829E-003 
+3.21000000000E+009 +6.67720958591E-002 -4.48190331459E-001 +4.58865910769E-002 -6.37756139040E-002 -1.32412487801E-005 +1.10223090815E-005 -5.23224323988E-002 -2.27633398026E-003 
+3.41000000000E+009 +4.63512614369E-002 -4.64657902718E-001 -5.52343949676E-002 -6.65702149272E-002 -1.35034370032E-005 -1.39691235290E-006 -5.53031601012E-002 +4.82484884560E-003 
+3.61000000000E+009 +2.45927814394E-002 -4.78386819363E-001 -8.30317661166E-002 +2.88060884923E-002 -3.46374122273E-006 +9.08733454708E-007 -5.70231191814E-002 +1.17756389081E-002 
+3.81000000000E+009 +3.69575899094E-003 -4.92714375257E-001 +9.58240590990E-003 +1.00917078555E-001 -7.39614597478E-006 -3.04858840536E-005 -5.68159669638E-002 +1.90832614899E-002 
+4.01000000000E+009 -1.84129029512E-002 -5.06697773933E-001 +1.09114587307E-001 +9.62586235255E-003 -1.79873059096E-005 -2.00926860998E-005 -5.58250769973E-002 +2.69808266312E-002 
+4.21000000000E+009 -4.05714213848E-002 -5.17488002777E-001 +4.19706255198E-002 -1.07143118978E-001 +7.33625302018E-006 -4.45527984994E-006 -5.38340061903E-002 +3.57190556824E-002 
+4.41000000000E+009 -6.57455027103E-002 -5.28139591217E-001 -1.06100268662E-001 -5.07248453796E-002 -9.38562880037E-006 -7.44559883969E-006 -5.06014786661E-002 +4.40835356712E-002 
+4.61000000000E+009 -8.98196622729E-002 -5.34991681576E-001 -6.22196570039E-002 +9.41894277930E-002 +6.77349180478E-006 +6.48311151963E-006 -4.65160422027E-002 +5.12797310948E-002 
+4.81000000000E+009 -1.11945129931E-001 -5.40256440639E-001 +7.46895819902E-002 +8.10570791364E-002 +1.59907324360E-006 +2.05508331419E-005 -3.98739427328E-002 +5.85209652781E-002 
+5.01000000000E+009 -1.33976995945E-001 -5.42994797230E-001 +7.72214010358E-002 -5.85451312363E-002 -5.69636495129E-006 -1.25688247863E-005 -3.33649069071E-002 +6.51514902711E-002 
+5.21000000000E+009 -1.52477636933E-001 -5.45480370522E-001 -3.08816116303E-002 -7.31518268585E-002 +1.18397156257E-005 +1.89916408999E-005 -2.58381273597E-002 +7.11662694812E-002 
+5.41000000000E+009 -1.70546576381E-001 -5.48410475254E-001 -7.27979838848E-002 +5.65172173083E-003 -6.37652101432E-006 +2.68102994596E-005 -1.70653890818E-002 +7.64033943415E-002 
+5.61000000000E+009 -1.88446149230E-001 -5.50364613533E-001 -8.11808463186E-003 +6.10302425921E-002 -5.59386899113E-006 +1.02556259662E-005 -7.39402929321E-003 +7.94974267483E-002 
+5.81000000000E+009 -2.04695433378E-001 -5.52506744862E-001 +4.42541502416E-002 +2.38454397768E-002 +2.77181716228E-005 -5.61300612389E-006 +3.18506080657E-003 +8.03402662277E-002 
+6.01000000000E+009 -2.20951154828E-001 -5.54304122925E-001 +3.49108353257E-002 -3.01301013678E-002 +4.61107265437E-006 -1.00266897789E-005 +1.42923174426E-002 +8.24257507920E-002 
+6.21000000000E+009 -2.36995950341E-001 -5.55372893810E-001 -1.61543563008E-002 -3.62306460738E-002 +4.52927196193E-007 -2.60512133536E-005 +2.49007027596E-002 +8.17344337702E-002 
+6.41000000000E+009 -2.52068728209E-001 -5.56416392326E-001 -3.34792621434E-002 +1.03827565908E-003 -2.36318937823E-005 -6.94233079912E-008 +3.63970622420E-002 +7.99280181527E-002 
+6.61000000000E+009 -2.67491787672E-001 -5.57116806507E-001 -1.06964381412E-002 +2.89446394891E-002 -1.87379682757E-005 +4.82589712192E-006 +4.74705919623E-002 +7.47862979770E-002 
+6.81000000000E+009 -2.82306015491E-001 -5.57394325733E-001 +2.10592001677E-002 +1.74511931837E-002 -1.12248471851E-005 +1.30921980599E-005 +5.83143420517E-002 +6.88418820500E-002 
+7.01000000000E+009 -2.96537548304E-001 -5.57505130768E-001 +2.11117211729E-002 -1.09249735251E-002 +9.68965923676E-006 -6.98373833075E-006 +6.81982710958E-002 +6.26658052206E-002 
+7.21000000000E+009 -3.10735851526E-001 -5.57153820992E-001 -1.96637492627E-003 -2.20275111496E-002 -1.19835704027E-005 -5.60764283364E-006 +7.73861706257E-002 +5.39198368788E-002 
+7.41000000000E+009 -3.24131429195E-001 -5.56672334671E-001 -1.90999135375E-002 -5.37458248436E-003 -9.34801482799E-006 -1.54977387865E-005 +8.66354256868E-002 +4.37553972006E-002 
+7.61000000000E+009 -3.36858063936E-001 -5.55702328682E-001 -1.10752684996E-002 +1.38989724219E-002 -9.71132158156E-006 +4.21494678449E-006 +9.28137227893E-002 +3.17071080208E-002 
+7.81000000000E+009 -3.49928408861E-001 -5.54166972637E-001 +7.96594936401E-003 +1.43786324188E-002 +7.26906682758E-006 -5.80481264478E-006 +9.83780398965E-002 +1.95732191205E-002 
+8.01000000000E+009 -3.62064450979E-001 -5.52556276321E-001 +1.49083342403E-002 -1.87434931286E-003 -7.63189655117E-006 -2.46399722528E-005 +1.01901166141E-001 +5.63105614856E-003 
+8.21000000000E+009 -3.73963445425E-001 -5.50623238087E-001 +3.63778811879E-003 -1.31654925644E-002 +5.64819174542E-006 -1.56776277436E-005 +1.03964209557E-001 -8.28559417278E-003 
+8.41000000000E+009 -3.85524064302E-001 -5.48287868500E-001 -9.86572913826E-003 -7.93079193681E-003 +5.09623930611E-007 -7.99501503934E-006 +1.03658705950E-001 -2.34116017818E-002 
+8.61000000000E+009 -3.96888405085E-001 -5.46244263649E-001 -1.03467516601E-002 +5.72942523286E-003 -3.09280330839E-005 -2.81825996353E-005 +1.00396133959E-001 -3.89376692474E-002 
+8.81000000000E+009 -4.07799035311E-001 -5.44004797935E-001 +1.22506183106E-003 +1.08002834022E-002 +9.88036390481E-006 -1.02495096144E-005 +9.49360504746E-002 -5.44020980597E-002 
+9.01000000000E+009 -4.18381184340E-001 -5.41369259357E-001 +9.63586941361E-003 +2.87738139741E-003 +7.72034400143E-006 -3.10899213218E-006 +8.82134735584E-002 -6.79971724749E-002 
+9.21000000000E+009 -4.28648978472E-001 -5.38833379745E-001 +6.02972507477E-003 -7.35484948382E-003 -2.69106840278E-005 +5.85867519476E-006 +7.83213973045E-002 -8.28725472093E-002 
+9.41000000000E+009 -4.38192307949E-001 -5.36355853081E-001 -4.17235726491E-003 -7.71475862712E-003 +3.18210891237E-006 +2.08917099371E-005 +6.57245516777E-002 -9.62748676538E-002 
+9.61000000000E+009 -4.47756558657E-001 -5.33420681953E-001 -8.10729991645E-003 +6.77460513543E-004 -1.95908760361E-005 -1.55871512106E-005 +5.06023876369E-002 -1.08469277620E-001 
+9.81000000000E+009 -4.56593781710E-001 -5.31135201454E-001 -2.40996154025E-003 +7.37229920924E-003 -2.41969082708E-005 +1.83386564458E-005 +3.53791639209E-002 -1.17598883808E-001 
+1.00100000000E+010 -4.65735107660E-001 -5.28227627277E-001 +5.48900989816E-003 +4.65376116335E-003 -2.07660577871E-005 +2.04910684261E-005 +1.85689255595E-002 -1.25452071428E-001 
+1.02100000000E+010 -4.74218547344E-001 -5.24987339973E-001 +6.01542601362E-003 -2.91573232971E-003 +8.61687840370E-006 +1.62169471878E-005 +4.01748926379E-004 -1.32206201553E-001 
+1.04100000000E+010 -4.82728451490E-001 -5.22149384022E-001 -3.40920698363E-004 -6.43548090011E-003 +2.38702014030E-005 -1.72070176632E-005 -2.02126093209E-002 -1.37634798884E-001 
+1.06100000000E+010 -4.90893512964E-001 -5.18983244896E-001 -5.66747784615E-003 -1.93847250193E-003 +2.59639800788E-005 -1.15445000120E-005 -4.17536869645E-002 -1.40046268702E-001 
+1.08100000000E+010 -4.97840970755E-001 -5.16587138176E-001 -3.82229033858E-003 +4.09366842359E-003 -7.55284963816E-006 -5.93014601691E-006 -6.36171549559E-002 -1.39554068446E-001 
+1.10100000000E+010 -5.05297005177E-001 -5.13601005077E-001 +2.21318495460E-003 +4.95584961027E-003 -1.79832513822E-005 +6.78696778778E-006 -8.55623930693E-002 -1.36021569371E-001 
+1.12100000000E+010 -5.12238860130E-001 -5.11391460896E-001 +5.03915967420E-003 -1.84421427548E-004 -2.96536109090E-006 -1.21641342048E-005 -1.09221391380E-001 -1.29559084773E-001 
+1.14100000000E+010 -5.19352734089E-001 -5.08301019669E-001 +1.78497785237E-003 -4.37094504014E-003 -1.21893242522E-006 +7.53325412006E-006 -1.32127180696E-001 -1.19466967881E-001 
+1.16100000000E+010 -5.25022268295E-001 -5.05653619766E-001 -3.23147093877E-003 -3.24483891018E-003 +2.47960597335E-005 +1.15862417260E-006 -1.53858795762E-001 -1.06178492308E-001 
+1.18100000000E+010 -5.31277120113E-001 -5.02957463264E-001 -3.95520590246E-003 +1.68607314117E-003 +3.11384246743E-005 +2.23476818064E-005 -1.73479080200E-001 -8.94655436277E-002 
+1.20100000000E+010 -5.37710368633E-001 -4.99745219946E-001 -1.09042681288E-004 +3.98795120418E-003 +6.64978369969E-006 -2.11855931411E-005 -1.90327256918E-001 -7.00255557895E-002 
+1.22100000000E+010 -5.44000089169E-001 -4.96264964342E-001 +3.58439655975E-003 +1.60707137547E-003 -6.53241522741E-006 +1.87044206541E-005 -2.07748219371E-001 -4.81681264937E-002 
+1.24100000000E+010 -5.49765646458E-001 -4.93319630623E-001 +2.62539065443E-003 -2.54596211016E-003 +7.78367848397E-006 +2.23944571189E-005 -2.22115680575E-001 -2.29316260666E-002 
+1.26100000000E+010 -5.55524647236E-001 -4.90367263556E-001 -1.11613469198E-003 -3.23190027848E-003 -3.12302727252E-005 +1.95756820176E-006 -2.32290580869E-001 +4.62404312566E-003 
+1.28100000000E+010 -5.61001539230E-001 -4.87214028835E-001 -3.35000455379E-003 -1.86912700883E-004 -2.29897468671E-005 -2.82976452581E-006 -2.38445758820E-001 +3.35698574781E-002 
+1.30100000000E+010 -5.66540479660E-001 -4.83416527510E-001 -1.35609495919E-003 +2.82286410220E-003 +5.87735348745E-006 +7.07600520400E-006 -2.42039367557E-001 +6.33947849274E-002 
+1.32100000000E+010 -5.71618795395E-001 -4.80194509029E-001 +1.89119705465E-003 +2.28565675206E-003 -2.81058528344E-005 -6.14089549344E-006 -2.42402881384E-001 +9.47916135192E-002 
+1.34100000000E+010 -5.76820909977E-001 -4.76165592670E-001 +2.82791093923E-003 -8.23685666546E-004 -2.62754529103E-005 -1.05579629235E-005 -2.38675028086E-001 +1.26355186105E-001 
+1.36100000000E+010 -5.79882681370E-001 -4.72737967968E-001 +2.42043592152E-004 -2.67685414292E-003 -2.30703171837E-005 +1.72059226315E-005 -2.31124445796E-001 +1.59037575126E-001 
+1.38100000000E+010 -5.84982693195E-001 -4.69916999340E-001 -2.20873905346E-003 -1.30781240296E-003 -2.55385057244E-005 -7.33692331778E-006 -2.17884585261E-001 +1.90937519073E-001 
+1.40100000000E+010 -5.89899361134E-001 -4.66863662004E-001 -2.01606145129E-003 +1.52647553477E-003 -1.89547754417E-005 -1.07211653813E-005 -2.01156079769E-001 +2.21809267998E-001 
+1.42100000000E+010 -5.94520807266E-001 -4.63942974806E-001 +6.05275563430E-004 +2.27289833128E-003 +1.51491340148E-005 -4.78709407616E-005 -1.80654913187E-001 +2.52962917089E-001 
+1.44100000000E+010 -5.99352419376E-001 -4.60320413113E-001 +2.21837614663E-003 +3.95793002099E-004 -1.07600353658E-005 +2.33002410823E-005 -1.54858857393E-001 +2.81303822994E-001 
+1.46100000000E+010 -6.03233814240E-001 -4.57272797823E-001 +1.20452698320E-003 -1.85570504982E-003 -2.62975809164E-005 +7.52222922529E-006 -1.24252505600E-001 +3.06665599346E-001 
+1.48100000000E+010 -6.07084333897E-001 -4.51779156923E-001 -1.18584290612E-003 -1.69682421256E-003 +1.05467470348E-005 +2.00317717827E-005 -9.12472754717E-002 +3.28452110291E-001 
+1.50100000000E+010 -6.08741998672E-001 -4.50670689344E-001 -1.92638498265E-003 +3.33266856615E-004 -2.49498989433E-005 -3.88911867049E-005 -5.58302477002E-002 +3.47761183977E-001 
+1.52100000000E+010 -6.11839711666E-001 -4.49746727943E-001 -4.25855978392E-004 +1.89227459487E-003 +2.84223756353E-006 -3.58675570169E-005 -1.71926207840E-002 +3.62742900848E-001 
+1.54100000000E+010 -6.15578591824E-001 -4.47457045317E-001 +1.50846515317E-003 +1.01244123653E-003 -1.76182657015E-005 +9.79160358838E-006 +2.48999781907E-002 +3.72798055410E-001 
+1.56100000000E+010 -6.19530797005E-001 -4.43791210651E-001 +1.50400109123E-003 -8.59492865857E-004 +3.38371023645E-007 -4.65966968477E-006 +6.87369927764E-002 +3.77128869295E-001 
+1.58100000000E+010 -6.20755612850E-001 -4.42726999521E-001 -2.21367648919E-004 -1.71585695352E-003 +2.49299660027E-006 -6.77362663737E-007 +1.12423345447E-001 +3.77421379089E-001 
+1.60100000000E+010 -6.23284637928E-001 -4.41153913736E-001 -1.56291248277E-003 -4.27794962889E-004 +5.76829825150E-006 -1.27696093841E-005 +1.57210379839E-001 +3.72380495071E-001 
+1.62100000000E+010 -6.25724852085E-001 -4.39315736294E-001 -9.75612550974E-004 +1.13697873894E-003 -5.95158235228E-006 -2.31164631259E-006 +2.04487875104E-001 +3.62067341805E-001 
+1.64100000000E+010 -6.27891123295E-001 -4.37412112951E-001 +7.28311191779E-004 +1.35630974546E-003 -6.60605473968E-006 -3.27527814079E-005 +2.51002579927E-001 +3.45794498920E-001 
+1.66100000000E+010 -6.31374418736E-001 -4.35363888741E-001 +1.43255537841E-003 -1.19446696772E-004 +1.45377734952E-005 +6.01806414124E-006 +2.94628024101E-001 +3.22220474482E-001 
+1.68100000000E+010 -6.34608387947E-001 -4.32625442743E-001 +4.90602920763E-004 -1.26778648701E-003 -9.89817635855E-006 +1.59710525622E-005 +3.37537378073E-001 +2.94816523790E-001 
+1.70100000000E+010 -6.36439263821E-001 -4.30164754391E-001 -9.54305112828E-004 -9.29521222133E-004 -2.61781569861E-005 +6.97469749866E-006 +3.77352505922E-001 +2.63428002596E-001 
+1.72100000000E+010 -6.38873517513E-001 -4.27831083536E-001 -1.15510541946E-003 +4.78600588394E-004 +2.91553915304E-005 -6.99083830114E-006 +4.14757162333E-001 +2.25002840161E-001 
+1.74100000000E+010 -6.41906440258E-001 -4.25644576550E-001 -1.09750271804E-005 +1.21495418716E-003 +2.64608079306E-005 +9.58952568908E-006 +4.47888910770E-001 +1.82135805488E-001 
+1.76100000000E+010 -6.44639849663E-001 -4.23110634089E-001 +1.09889311716E-003 +4.39711759100E-004 -1.72685231519E-005 +9.26356392483E-007 +4.75516319275E-001 +1.36253416538E-001 
+1.78100000000E+010 -6.47596240044E-001 -4.20705556870E-001 +8.09153716546E-004 -7.99608009402E-004 +1.81740651897E-005 -1.42543576658E-005 +4.98895317316E-001 +8.77131894231E-002 
+1.80100000000E+010 -6.49953782558E-001 -4.17921423912E-001 -3.95154638682E-004 -1.07367150486E-003 -1.58422346885E-006 +1.59969363267E-006 +5.18192648888E-001 +3.66421453655E-002 
+1.82100000000E+010 -6.52551710606E-001 -4.15721267462E-001 -1.08584377449E-003 -7.26755897631E-005 -3.25323344441E-005 -2.14140873140E-005 +5.30823111534E-001 -1.75049491227E-002 
+1.84100000000E+010 -6.55091285706E-001 -4.13902610540E-001 -4.47067664936E-004 +8.74156539794E-004 +7.83063569543E-006 +2.35594070546E-005 +5.36820292473E-001 -7.45223164558E-002 
+1.86100000000E+010 -6.58124983311E-001 -4.11636054516E-001 +6.38614932541E-004 +7.65834294725E-004 -1.33855810418E-005 -2.13658404391E-005 +5.37109017372E-001 -1.30774661899E-001 
+1.88100000000E+010 -6.60501301289E-001 -4.09145385027E-001 +8.92052135896E-004 -2.69930023933E-004 -1.32446511998E-005 +3.15082615998E-005 +5.31297683716E-001 -1.87152385712E-001 
+1.90100000000E+010 -6.62207961082E-001 -4.06899034977E-001 +9.63129059528E-005 -9.13289841264E-004 -1.05427343442E-005 -1.30492444441E-005 +5.19429564476E-001 -2.43198379874E-001 
+1.92100000000E+010 -6.64533138275E-001 -4.05554622412E-001 -7.41822004784E-004 -4.63639764348E-004 -4.45111254521E-005 +5.48303944470E-007 +5.01343727112E-001 -3.00359278917E-001 
+1.94100000000E+010 -6.67191743851E-001 -4.03032183647E-001 -6.73562928569E-004 +4.56331064925E-004 -4.23104984293E-006 +3.18182283081E-005 +4.75846499205E-001 -3.54658007622E-001 
+1.96100000000E+010 -6.67937994003E-001 -4.00203734636E-001 +1.66986501426E-004 +7.59132788517E-004 +1.72938553078E-006 -2.05496908166E-005 +4.45209056139E-001 -4.06387180090E-001 
+1.98100000000E+010 -6.67160093784E-001 -3.96901667118E-001 +7.28064100258E-004 +1.58466704306E-004 +9.82660094451E-006 +2.36372616200E-005 +4.10449326038E-001 -4.53453093767E-001 
+2.00100000000E+010 -6.65731728077E-001 -3.96220833063E-001 +4.45637997473E-004 -5.96426485572E-004 +4.21022014052E-005 -2.17306728700E-006 +3.68785709143E-001 -4.99695986509E-001 
