!;Filter: kein Filter
!auto
!3/21/2019 9:27:07 AM
!3/21/2019 9:27:22 AM
!SP-Measurements Prober G4
!SP-Measurements Prober G4
!01103_448C
!134
!237
!12
!40
!-20
!0.00299959
!1.83
!0.38139174
!0.38139174
# Hz S  RI   R 50
+1.00000000000E+007 +2.29225352407E-001 +1.18858981878E-002 +6.55787810683E-002 -2.78428923339E-002 +4.15358634200E-004 -4.18429612182E-004 +5.29241841286E-003 +1.65717687923E-003 
+2.10000000000E+008 +2.44739919901E-001 -3.00895534456E-002 -2.62013380416E-003 -6.79920017719E-002 -8.49619027576E-005 -3.55284646503E-005 +8.56649968773E-003 -4.84163314104E-003 
+4.10000000000E+008 +2.43219807744E-001 -6.46214112639E-002 -6.38517960906E-002 -2.18094363809E-002 -4.27569466410E-005 -2.79727350971E-006 +9.93514899164E-003 -6.99817342684E-003 
+6.10000000000E+008 +2.38643482327E-001 -9.82347950339E-002 -4.20275591314E-002 +5.20798973739E-002 -4.14276109950E-006 +3.93324662582E-005 +1.00150089711E-002 -1.16280894727E-002 
+8.10000000000E+008 +2.30857491493E-001 -1.30805209279E-001 +3.34970690310E-002 +5.75065538287E-002 +8.62819706526E-006 +1.30270000227E-005 +6.86507625505E-003 -1.52740590274E-002 
+1.01000000000E+009 +2.21883222461E-001 -1.61212652922E-001 +6.67650327086E-002 -1.11114280298E-002 +2.97325414067E-006 +1.27432485897E-005 +2.85599660128E-003 -1.90632697195E-002 
+1.21000000000E+009 +2.10790917277E-001 -1.91793009639E-001 +1.25018572435E-002 -6.52598962188E-002 -7.35757737402E-007 -5.45657530893E-006 -1.65573111735E-003 -2.11676955223E-002 
+1.41000000000E+009 +1.97785034776E-001 -2.20957502723E-001 -5.66550493240E-002 -3.46403680742E-002 +6.82542349750E-006 +1.69309078046E-005 -7.30768078938E-003 -2.44200713933E-002 
+1.61000000000E+009 +1.84552401304E-001 -2.49168589711E-001 -5.24159409106E-002 +4.17163223028E-002 +2.09901318158E-005 -4.49555591331E-005 -1.37693434954E-002 -2.66659762710E-002 
+1.81000000000E+009 +1.68213725090E-001 -2.75398910046E-001 +1.96218583733E-002 +6.24085031450E-002 -4.79516238556E-005 +1.66690533661E-005 -1.75263341516E-002 -2.77229212224E-002 
+2.01000000000E+009 +1.51748403907E-001 -3.00254464149E-001 +6.47845715284E-002 +4.98429127038E-003 -1.18347034004E-005 +2.07400807994E-005 -2.31411810964E-002 -2.66308672726E-002 
+2.21000000000E+009 +1.34295418859E-001 -3.23712199926E-001 +2.84722074866E-002 -6.01066052914E-002 -2.96729376714E-005 -1.87439982255E-005 -2.86807455122E-002 -2.45024338365E-002 
+2.41000000000E+009 +1.15472324193E-001 -3.45133513212E-001 -4.46831211448E-002 -4.76494766772E-002 +1.77494293894E-005 -1.62810410984E-005 -3.54452989995E-002 -2.22280006856E-002 
+2.61000000000E+009 +9.68698933721E-002 -3.64732325077E-001 -6.31862729788E-002 +2.35911551863E-002 +1.67570997291E-005 +7.26080406821E-006 -4.06687259674E-002 -1.92182231694E-002 
+2.81000000000E+009 +7.79566988349E-002 -3.83514165878E-001 +1.24028488062E-003 +6.96597099304E-002 -3.59176228812E-005 -1.01259674921E-005 -4.45077233016E-002 -1.43592702225E-002 
+3.01000000000E+009 +5.79974427819E-002 -4.00367766619E-001 +6.42146989703E-002 +2.42103803903E-002 -8.91283889359E-006 +1.63849324508E-006 -4.84057217836E-002 -8.67870729417E-003 
+3.21000000000E+009 +3.86959947646E-002 -4.15819525719E-001 +4.94467727840E-002 -5.30677326024E-002 +3.51610360667E-005 +1.68573096744E-005 -5.22694699466E-002 -2.29858676903E-003 
+3.41000000000E+009 +1.95791069418E-002 -4.30806577206E-001 -3.61191704869E-002 -6.66827410460E-002 +1.77470355993E-005 -4.76198647448E-006 -5.52583672106E-002 +4.81456331909E-003 
+3.61000000000E+009 -1.82616655366E-004 -4.44053441286E-001 -7.52607584000E-002 +8.89003835618E-003 +1.84975087905E-005 +5.82713346375E-006 -5.69748319685E-002 +1.17620490491E-002 
+3.81000000000E+009 -1.92898251116E-002 -4.56117868423E-001 -2.05068532377E-002 +7.99607262015E-002 -5.49108426640E-006 -2.35252409766E-005 -5.68077489734E-002 +1.90851334482E-002 
+4.01000000000E+009 -3.84679771960E-002 -4.68199461699E-001 +7.42508471012E-002 +4.48608361185E-002 -4.34337067645E-007 +1.75771092472E-005 -5.58032281697E-002 +2.69104689360E-002 
+4.21000000000E+009 -5.79331442714E-002 -4.78099912405E-001 +6.93604275584E-002 -5.35693019629E-002 +4.33560398960E-006 -1.60008694365E-005 -5.38161806762E-002 +3.57009172440E-002 
+4.41000000000E+009 -7.63750001788E-002 -4.87781614065E-001 -3.12377754599E-002 -9.28909629583E-002 -3.99161217501E-006 -4.71313614980E-006 -5.06087765098E-002 +4.40444946289E-002 
+4.61000000000E+009 -9.56779494882E-002 -4.97032135725E-001 -1.02518938482E-001 +7.79764493927E-003 -5.03729779666E-006 +3.82253574571E-006 -4.65084277093E-002 +5.12694232166E-002 
+4.81000000000E+009 -1.14753246307E-001 -5.04535734653E-001 -2.77360100299E-002 +1.02356679738E-001 +2.25035864787E-006 -4.18627541876E-006 -3.98828350008E-002 +5.84852881730E-002 
+5.01000000000E+009 -1.33522212505E-001 -5.12886881828E-001 +1.04742050171E-001 +5.70429414511E-002 +6.13606243860E-006 -4.61350873593E-006 -3.33926267922E-002 +6.51145726442E-002 
+5.21000000000E+009 -1.53321176767E-001 -5.19462406635E-001 +7.49081745744E-002 -9.16730165482E-002 +4.37600192527E-006 +6.80733000991E-006 -2.58401837200E-002 +7.11039826274E-002 
+5.41000000000E+009 -1.71889379621E-001 -5.24434685707E-001 -6.78788572550E-002 -9.86190736294E-002 +1.40061611091E-005 +6.03403441346E-006 -1.70913357288E-002 +7.63629153371E-002 
+5.61000000000E+009 -1.91761165857E-001 -5.28916120529E-001 -1.09746754169E-001 +5.33271618187E-002 +2.56878720393E-005 +4.11190603700E-006 -7.41594797000E-003 +7.94443935156E-002 
+5.81000000000E+009 -2.09694519639E-001 -5.30815839767E-001 +2.61149927974E-002 +1.06520034373E-001 +3.71332703253E-006 -3.88859825762E-006 +3.14336153679E-003 +8.02886635065E-002 
+6.01000000000E+009 -2.26346373558E-001 -5.32538771629E-001 +1.04273378849E-001 +3.68788838387E-003 -1.47342943819E-005 -1.28387882796E-005 +1.42560303211E-002 +8.23870226741E-002 
+6.21000000000E+009 -2.43024155498E-001 -5.33138275146E-001 +2.03714761883E-002 -9.27865132689E-002 -1.26803543026E-005 -7.31393583919E-006 +2.48411111534E-002 +8.16588327289E-002 
+6.41000000000E+009 -2.57652491331E-001 -5.33585250378E-001 -7.04450011253E-002 -3.93828712404E-002 -1.80934603122E-005 +8.04022693046E-006 +3.63816544414E-002 +7.98932015896E-002 
+6.61000000000E+009 -2.72455662489E-001 -5.34154832363E-001 -5.36788627505E-002 +5.00331968069E-002 -2.97964179481E-005 +2.89991767204E-005 +4.74477224052E-002 +7.47395679355E-002 
+6.81000000000E+009 -2.86579042673E-001 -5.34252941608E-001 +2.90974639356E-002 +5.68226352334E-002 +3.31442606694E-006 -1.05886329038E-005 +5.82781061530E-002 +6.88487961888E-002 
+7.01000000000E+009 -2.99972563982E-001 -5.34571468830E-001 +5.49683347344E-002 -6.47498946637E-003 +3.45435432791E-006 +2.37120821112E-005 +6.81793466210E-002 +6.26358762383E-002 
+7.21000000000E+009 -3.13373297453E-001 -5.34362018108E-001 +1.15363402292E-002 -4.88331839442E-002 -3.88875159842E-005 +1.95935244847E-005 +7.73237273097E-002 +5.39221316576E-002 
+7.41000000000E+009 -3.26050162315E-001 -5.34258663654E-001 -3.74808199704E-002 -2.38426588476E-002 +1.03811927943E-007 -9.62065405474E-006 +8.65803584456E-002 +4.37913797796E-002 
+7.61000000000E+009 -3.38072419167E-001 -5.33665299416E-001 -3.19430977106E-002 +2.35294289887E-002 +2.55569757428E-005 +2.06905424420E-005 +9.27481129766E-002 +3.17346677184E-002 
+7.81000000000E+009 -3.50553333759E-001 -5.32626211643E-001 +9.50426049531E-003 +3.45875099301E-002 +3.08422095259E-005 -5.04817762703E-006 +9.82957035303E-002 +1.96289867163E-002 
+8.01000000000E+009 -3.62078160048E-001 -5.31413674355E-001 +3.21729443967E-002 +3.22794169188E-003 +2.76278751699E-005 -1.43501129060E-005 +1.01830177009E-001 +5.72207383811E-003 
+8.21000000000E+009 -3.73505711555E-001 -5.29970765114E-001 +1.34129514918E-002 -2.60153263807E-002 +3.64094648830E-006 -1.23045520013E-005 +1.03928178549E-001 -8.22266004980E-003 
+8.41000000000E+009 -3.84593099356E-001 -5.28158128262E-001 -1.71670261770E-002 -2.02259179205E-002 +2.46416470873E-006 +1.37603274197E-005 +1.03596508503E-001 -2.33521871269E-002 
+8.61000000000E+009 -3.95603179932E-001 -5.26653110981E-001 -2.34376266599E-002 +7.81818199903E-003 -2.47977550316E-005 -6.44404371997E-006 +1.00333862007E-001 -3.88477779925E-002 
+8.81000000000E+009 -4.06043529510E-001 -5.24854123592E-001 -1.37773097958E-003 +2.26734075695E-002 -4.35274778283E-005 -1.04815387658E-006 +9.48633626103E-002 -5.43019436300E-002 
+9.01000000000E+009 -4.16234970093E-001 -5.22776961327E-001 +1.88299976289E-002 +9.19474568218E-003 -1.42059684549E-006 -4.89220929012E-006 +8.81950482726E-002 -6.79075568914E-002 
+9.21000000000E+009 -4.26191896200E-001 -5.20682573318E-001 +1.45344613120E-002 -1.31360152736E-002 +2.18448603846E-005 -9.29560337681E-006 +7.83182457089E-002 -8.27880650759E-002 
+9.41000000000E+009 -4.35449659824E-001 -5.18692076206E-001 -6.39117276296E-003 -1.69160664082E-002 +1.91105827980E-005 -1.54344652401E-005 +6.57407715917E-002 -9.62268188596E-002 
+9.61000000000E+009 -4.44746285677E-001 -5.16276180744E-001 -1.65531113744E-002 -5.66068454646E-004 -1.20286049423E-005 -3.15473630508E-006 +5.06047122180E-002 -1.08383692801E-001 
+9.81000000000E+009 -4.53395962715E-001 -5.14483392239E-001 -6.59213773906E-003 +1.41424946487E-002 +3.51115818376E-006 +1.20530535241E-006 +3.54223772883E-002 -1.17515429854E-001 
+1.00100000000E+010 -4.62285280228E-001 -5.12001574039E-001 +1.00490264595E-002 +1.05797322467E-002 +2.67695577350E-006 -1.83848660527E-005 +1.85699351132E-002 -1.25349938869E-001 
+1.02100000000E+010 -4.70616757870E-001 -5.09244978428E-001 +1.25230746344E-002 -4.66304644942E-003 -1.37558945426E-005 -9.74257204689E-007 +4.45565587142E-004 -1.32155060768E-001 
+1.04100000000E+010 -4.78885352612E-001 -5.06846547127E-001 +6.20057980996E-004 -1.27931376919E-002 +1.31101669467E-005 -4.72781084682E-006 -2.01348122209E-002 -1.37559190392E-001 
+1.06100000000E+010 -4.86836731434E-001 -5.04126429558E-001 -1.09424935654E-002 -4.83906920999E-003 +2.59719636233E-005 -1.64458524523E-005 -4.16835546494E-002 -1.40025377274E-001 
+1.08100000000E+010 -4.93705600500E-001 -5.02138614655E-001 -8.06835014373E-003 +7.42256268859E-003 +8.75785008247E-006 +1.30011985675E-005 -6.35414496064E-002 -1.39493122697E-001 
+1.10100000000E+010 -5.01019418240E-001 -4.99552100897E-001 +3.48487519659E-003 +9.97079722583E-003 -1.12332299977E-005 -1.76782723429E-005 -8.54806974530E-002 -1.35977521539E-001 
+1.12100000000E+010 -5.07824063301E-001 -4.97761964798E-001 +9.82761196792E-003 +3.27145011397E-004 +2.32595175476E-006 -1.20371469166E-005 -1.09109178185E-001 -1.29573538899E-001 
+1.14100000000E+010 -5.14837443829E-001 -4.95074242353E-001 +4.00317320600E-003 -8.18484183401E-003 +1.49205225171E-005 +7.52475216359E-006 -1.32047459483E-001 -1.19428716600E-001 
+1.16100000000E+010 -5.20464897156E-001 -4.92824018002E-001 -5.77137107030E-003 -6.72781746835E-003 +1.84816799447E-005 +2.86916679215E-006 -1.53773754835E-001 -1.06184676290E-001 
+1.18100000000E+010 -5.26635646820E-001 -4.90410894156E-001 -7.83913861960E-003 +2.76944949292E-003 +1.85813278222E-005 +7.16480644769E-006 -1.73358082771E-001 -8.94530415535E-002 
+1.20100000000E+010 -5.33024728298E-001 -4.87631797791E-001 -6.30933267530E-004 +7.62840127572E-003 -7.57665748097E-006 +3.18392485497E-005 -1.90241381526E-001 -7.00642466545E-002 
+1.22100000000E+010 -5.39249658585E-001 -4.84457731247E-001 +6.61290250719E-003 +3.50303202868E-003 +4.36292566519E-006 -1.75720761035E-005 -2.07649141550E-001 -4.82309721410E-002 
+1.24100000000E+010 -5.44926047325E-001 -4.81843501329E-001 +5.29202120379E-003 -4.59234137088E-003 +1.51201102199E-005 +1.61649695656E-005 -2.21993550658E-001 -2.30358131230E-002 
+1.26100000000E+010 -5.50614774227E-001 -4.79189515114E-001 -1.79649656639E-003 -6.25231862068E-003 +3.10396790155E-005 +1.56054575200E-005 -2.32212930918E-001 +4.55349870026E-003 
+1.28100000000E+010 -5.56108713150E-001 -4.76405888796E-001 -6.34904997423E-003 -7.71488470491E-004 +1.51333279064E-005 -4.40932262791E-006 -2.38356605172E-001 +3.34583595395E-002 
+1.30100000000E+010 -5.61576783657E-001 -4.72940266132E-001 -2.82732350752E-003 +5.24954311550E-003 +1.52767734107E-006 +4.59045895695E-006 -2.41988778114E-001 +6.32720962167E-002 
+1.32100000000E+010 -5.66605925560E-001 -4.69971150160E-001 +3.34221171215E-003 +4.48101432994E-003 -1.99611167773E-005 -2.25534731726E-005 -2.42373839021E-001 +9.46443006396E-002 
+1.34100000000E+010 -5.71799397469E-001 -4.66242074966E-001 +5.36601152271E-003 -1.33967900183E-003 +3.55287647835E-006 +1.88947331026E-006 -2.38655909896E-001 +1.26244917512E-001 
+1.36100000000E+010 -5.74833512306E-001 -4.63041812181E-001 +6.34412281215E-004 -5.08934585378E-003 -1.25755041154E-005 +1.63598851941E-005 -2.31129124761E-001 +1.58934712410E-001 
+1.38100000000E+010 -5.79924166203E-001 -4.60583746433E-001 -4.07022982836E-003 -2.60637048632E-003 +1.84975160664E-005 +8.69237646839E-006 -2.17885822058E-001 +1.90803572536E-001 
+1.40100000000E+010 -5.84903419018E-001 -4.57706928253E-001 -3.87847051024E-003 +2.74154404178E-003 -1.97541285161E-005 +1.89709971892E-005 -2.01209232211E-001 +2.21715778112E-001 
+1.42100000000E+010 -5.89460372925E-001 -4.55083906651E-001 +1.03208166547E-003 +4.32787649333E-003 +2.83219128505E-006 -9.17261857580E-008 -1.80736616254E-001 +2.52921760082E-001 
+1.44100000000E+010 -5.94308853149E-001 -4.51707601547E-001 +4.08525392413E-003 +8.61985783558E-004 -2.80336735159E-005 +1.27818921669E-007 -1.54962301254E-001 +2.81235337257E-001 
+1.46100000000E+010 -5.98227679729E-001 -4.48913961649E-001 +2.36772722565E-003 -3.39441723190E-003 -2.07297252928E-005 +5.13811073688E-006 -1.24345548451E-001 +3.06561976671E-001 
+1.48100000000E+010 -6.02050185204E-001 -4.43711310625E-001 -2.14282586239E-003 -3.19454702549E-003 +2.27281070693E-005 +7.36901529308E-006 -9.14145559072E-002 +3.28393310308E-001 
+1.50100000000E+010 -6.03764891624E-001 -4.42758768797E-001 -3.60311870463E-003 +5.21128531545E-004 +2.68086182587E-006 +1.38563336805E-005 -5.60253225267E-002 +3.47700536251E-001 
+1.52100000000E+010 -6.06925308704E-001 -4.42132830620E-001 -8.71804601047E-004 +3.50396987051E-003 +2.42575515585E-006 +1.32705808937E-005 -1.73631366342E-002 +3.62732797861E-001 
+1.54100000000E+010 -6.10708594322E-001 -4.39974427223E-001 +2.72255460732E-003 +1.98927428573E-003 -2.07041357498E-005 +9.56444819167E-006 +2.47208848596E-002 +3.72815757990E-001 
+1.56100000000E+010 -6.14689707756E-001 -4.36510354280E-001 +2.82202987000E-003 -1.51015585288E-003 +2.85113037535E-005 -7.20760044715E-006 +6.85163885355E-002 +3.77163350582E-001 
+1.58100000000E+010 -6.15955829620E-001 -4.35624897480E-001 -2.98033934087E-004 -3.11427633278E-003 -2.90747743747E-006 +3.56331765943E-005 +1.12211667001E-001 +3.77491146326E-001 
+1.60100000000E+010 -6.18524789810E-001 -4.34250354767E-001 -2.83031677827E-003 -8.11391393654E-004 +2.24788564083E-005 -5.74677278564E-006 +1.57102927566E-001 +3.72486054897E-001 
+1.62100000000E+010 -6.20985329151E-001 -4.32556897402E-001 -1.89429009333E-003 +2.12706881575E-003 +6.09977814747E-006 +1.99199257622E-005 +2.04336136580E-001 +3.62156957388E-001 
+1.64100000000E+010 -6.23258054256E-001 -4.30841475725E-001 +1.24064076226E-003 +2.49261641875E-003 -5.96277959630E-006 -3.80976007364E-006 +2.50890105963E-001 +3.45941185951E-001 
+1.66100000000E+010 -6.26733958721E-001 -4.28959608078E-001 +2.63337325305E-003 -1.65963516338E-004 -7.00406098986E-006 +1.77688816621E-005 +2.94495314360E-001 +3.22338432074E-001 
+1.68100000000E+010 -6.29989027977E-001 -4.26444143057E-001 +9.25295928027E-004 -2.33621965162E-003 -7.18199817129E-006 -2.63089987129E-005 +3.37482690811E-001 +2.94977188110E-001 
+1.70100000000E+010 -6.31822407246E-001 -4.24081116915E-001 -1.76320306491E-003 -1.73748785164E-003 +1.17350355140E-005 -1.43039105751E-005 +3.77298355103E-001 +2.63639748096E-001 
+1.72100000000E+010 -6.34337604046E-001 -4.21922832727E-001 -2.10546888411E-003 +9.27783490624E-004 +7.96989206719E-006 -3.59794626092E-006 +4.14681017399E-001 +2.25249901414E-001 
+1.74100000000E+010 -6.37401342392E-001 -4.19829875231E-001 -7.64608557802E-005 +2.24296445958E-003 +1.72230847966E-005 +7.21718834029E-006 +4.47915524244E-001 +1.82373151183E-001 
+1.76100000000E+010 -6.40159130096E-001 -4.17490780354E-001 +2.02771276236E-003 +9.02255764231E-004 +1.52341199282E-005 -1.44046944115E-005 +4.75578486919E-001 +1.36478692293E-001 
+1.78100000000E+010 -6.43072187901E-001 -4.15192484856E-001 +1.49414036423E-003 -1.40475714579E-003 +6.32573392068E-006 +1.99876849365E-005 +4.98951107264E-001 +8.80052968860E-002 
+1.80100000000E+010 -6.45442545414E-001 -4.12586987019E-001 -6.37705030385E-004 -1.90098804887E-003 -2.29416691582E-005 +1.57233735081E-005 +5.18269002438E-001 +3.69553565979E-002 
+1.82100000000E+010 -6.48153662682E-001 -4.10550862551E-001 -1.93258433137E-003 -1.19774886116E-004 +3.49986985384E-005 +1.76400153578E-005 +5.30900061131E-001 -1.72446314245E-002 
+1.84100000000E+010 -6.50659084320E-001 -4.08878415823E-001 -8.40746331960E-004 +1.65881891735E-003 +1.40775537147E-005 -2.80872645817E-005 +5.36992192268E-001 -7.42789208889E-002 
+1.86100000000E+010 -6.53766334057E-001 -4.06739532948E-001 +1.08700036071E-003 +1.37091206852E-003 +1.17951594802E-005 -1.60840609169E-005 +5.37290215492E-001 -1.30495071411E-001 
+1.88100000000E+010 -6.56180202961E-001 -4.04266774654E-001 +1.69212697074E-003 -4.70555096399E-004 +2.95776175108E-007 -1.34926976898E-005 +5.31562268734E-001 -1.86957031488E-001 
+1.90100000000E+010 -6.57987356186E-001 -4.02226626873E-001 +2.11805469007E-004 -1.62985618226E-003 -3.03616388919E-006 -3.84886288884E-006 +5.19723415375E-001 -2.42988571525E-001 
+1.92100000000E+010 -6.60365641117E-001 -4.01010483503E-001 -1.37265340891E-003 -8.92492651474E-004 -1.72224263224E-005 +1.24150246847E-005 +5.01693785191E-001 -3.00314992666E-001 
+1.94100000000E+010 -6.63043916225E-001 -3.98574829102E-001 -1.26136408653E-003 +9.05676977709E-004 +4.16002912971E-005 +1.31243814394E-005 +4.76244062185E-001 -3.54620695114E-001 
+1.96100000000E+010 -6.63913309574E-001 -3.95913362503E-001 +2.96539015835E-004 +1.44531112164E-003 -1.92242478079E-005 -2.09563968383E-005 +4.45567369461E-001 -4.06360775232E-001 
+1.98100000000E+010 -6.63161516190E-001 -3.92734199762E-001 +1.39275018591E-003 +2.83539498923E-004 +3.41279373970E-005 +2.07687135116E-005 +4.10797894001E-001 -4.53514337540E-001 
+2.00100000000E+010 -6.61817312241E-001 -3.92134279013E-001 +8.18105996586E-004 -1.15612219088E-003 -3.44748041243E-005 +2.24733430514E-005 +3.69189351797E-001 -4.99819934368E-001 
