!;Filter: kein Filter
!auto
!3/21/2019 9:26:39 AM
!3/21/2019 9:26:51 AM
!SP-Measurements Prober G4
!SP-Measurements Prober G4
!01103_448C
!134
!237
!12
!40
!-20
!0.00099996
!1.65
!0.05816927
!0.05816927
# Hz S  RI   R 50
+1.00000000000E+007 +4.04707193375E-001 +5.06397522986E-003 +4.73207719624E-002 -2.05790959299E-002 -4.99747926369E-004 -6.94116344675E-004 +5.13228448108E-003 +8.71277181432E-004 
+2.10000000000E+008 +4.02582198381E-001 -4.99152094126E-002 -7.11381994188E-003 -4.99691404402E-002 -3.56787904821E-006 +5.79177537929E-007 +8.58646910638E-003 -4.82018291950E-003 
+4.10000000000E+008 +3.93055617809E-001 -9.34906378388E-002 -5.02576865256E-002 -6.99916528538E-003 -3.99990176447E-006 +1.31827682708E-005 +9.95390675962E-003 -6.91906828433E-003 
+6.10000000000E+008 +3.83632004261E-001 -1.34647682309E-001 -2.04833894968E-002 +4.77037318051E-002 -2.84801335511E-005 -2.06004970096E-005 +1.00184436888E-002 -1.16899199784E-002 
+8.10000000000E+008 +3.72681498528E-001 -1.76669269800E-001 +4.20771688223E-002 +3.18516790867E-002 +1.08957547127E-005 -1.24819353005E-005 +6.87787681818E-003 -1.52893224731E-002 
+1.01000000000E+009 +3.53910773993E-001 -2.15096980333E-001 +4.47505749762E-002 -2.94615458697E-002 -1.91683898265E-006 -2.35023017012E-005 +2.89359432645E-003 -1.90485641360E-002 
+1.21000000000E+009 +3.39468300343E-001 -2.48220264912E-001 -1.76564585418E-002 -5.96551001072E-002 -6.17199475528E-006 +7.14481757313E-006 -1.68091163505E-003 -2.12002750486E-002 
+1.41000000000E+009 +3.27893406153E-001 -2.92633771896E-001 -6.66259154677E-002 +1.95036008954E-002 -1.01635860119E-005 -1.14970007417E-005 -7.25298793986E-003 -2.44170259684E-002 
+1.61000000000E+009 +3.03798526525E-001 -3.39685648680E-001 +2.50946469605E-002 +6.51277527213E-002 -2.05981086765E-005 -6.09274275121E-006 -1.37461125851E-002 -2.67539471388E-002 
+1.81000000000E+009 +2.69221633673E-001 -3.76721501350E-001 +6.09299764037E-002 -2.69232075661E-002 +3.78441855631E-009 +8.81476353243E-006 -1.75182782114E-002 -2.77521833777E-002 
+2.01000000000E+009 +2.36731663346E-001 -4.02125984430E-001 -1.78647432476E-002 -5.87125979364E-002 +1.88813592104E-005 -1.28359697555E-005 -2.31317821890E-002 -2.66923867166E-002 
+2.21000000000E+009 +2.06715077162E-001 -4.23208206892E-001 -5.70320971310E-002 +6.51433691382E-003 +3.91184494219E-006 -3.53013024323E-006 -2.87018697709E-002 -2.44669318199E-002 
+2.41000000000E+009 +1.79169267416E-001 -4.40579861403E-001 -6.26209005713E-003 +5.05730323493E-002 +1.08019139589E-005 +1.06161905933E-005 -3.54319252074E-002 -2.22529899329E-002 
+2.61000000000E+009 +1.54249548912E-001 -4.56231921911E-001 +3.93316112459E-002 +1.81651227176E-002 +2.48099477176E-005 +1.38072546179E-005 -4.06865850091E-002 -1.92040670663E-002 
+2.81000000000E+009 +1.29946127534E-001 -4.71292167902E-001 +2.55883838981E-002 -2.73517351598E-002 +2.52144309343E-005 +3.21313855238E-005 -4.45601604879E-002 -1.43691748381E-002 
+3.01000000000E+009 +1.05732820928E-001 -4.85285937786E-001 -1.58918108791E-002 -2.80935019255E-002 +2.20784786507E-005 +2.18960649363E-005 -4.84449006617E-002 -8.71369801462E-003 
+3.21000000000E+009 +8.25717970729E-002 -4.98245507479E-001 -2.57099550217E-002 +3.76234506257E-003 +1.23068684843E-005 -3.11310141115E-005 -5.23778237402E-002 -2.25271773525E-003 
+3.41000000000E+009 +5.97084164619E-002 -5.10392785072E-001 -3.92042752355E-003 +2.06804238260E-002 +4.12168847106E-005 +1.43954730447E-006 -5.53187988698E-002 +4.81087807566E-003 
+3.61000000000E+009 +3.68272662163E-002 -5.22154986858E-001 +1.57703105360E-002 +1.04562491179E-002 +1.87970147181E-006 -1.23593499666E-005 -5.70706427097E-002 +1.17360586300E-002 
+3.81000000000E+009 +1.38282403350E-002 -5.32315611839E-001 +1.28108710051E-002 -9.52097214758E-003 +5.52482015337E-006 -6.38906340100E-006 -5.68488501012E-002 +1.90658532083E-002 
+4.01000000000E+009 -8.22073407471E-003 -5.41883409023E-001 -2.68369773403E-003 -1.30523657426E-002 +2.03995750780E-005 +4.18308518420E-005 -5.58749362826E-002 +2.70069856197E-002 
+4.21000000000E+009 -3.05459555238E-002 -5.50333142281E-001 -1.26118483022E-002 -2.35271523707E-003 -2.45651135629E-005 -3.23164131260E-005 -5.38065545261E-002 +3.57015244663E-002 
+4.41000000000E+009 -5.23535124958E-002 -5.57648897171E-001 -5.17865642905E-003 +1.00143989548E-002 +2.06309437090E-006 -2.06998470276E-006 -5.05996719003E-002 +4.40708585083E-002 
+4.61000000000E+009 -7.35998079181E-002 -5.64141213894E-001 +5.99356461316E-003 +7.43595464155E-003 -4.83514922962E-005 +5.18453953191E-006 -4.65107522905E-002 +5.13344928622E-002 
+4.81000000000E+009 -9.48749035597E-002 -5.69824934006E-001 +8.71458835900E-003 -2.55285552703E-003 +3.02331100102E-005 -1.92611082639E-006 -3.98780629039E-002 +5.85648268461E-002 
+5.01000000000E+009 -1.15200296044E-001 -5.74937999249E-001 +3.03418666590E-004 -8.05783458054E-003 +3.13469463435E-005 -9.38740322454E-006 -3.33988070488E-002 +6.51765465736E-002 
+5.21000000000E+009 -1.34977236390E-001 -5.79601049423E-001 -6.18401961401E-003 -3.04131140001E-003 -1.41035716297E-005 +7.31769705453E-006 -2.58162356913E-002 +7.11966007948E-002 
+5.41000000000E+009 -1.54469281435E-001 -5.83113849163E-001 -4.99650835991E-003 +4.17912052944E-003 -9.51820311457E-006 +8.37688003230E-006 -1.70594491065E-002 +7.64676555991E-002 
+5.61000000000E+009 -1.73942014575E-001 -5.86279332638E-001 +2.10875505581E-003 +5.50189195201E-003 +1.74239703483E-005 +2.46465733653E-005 -7.35053420067E-003 +7.95158594847E-002 
+5.81000000000E+009 -1.92348062992E-001 -5.88579654694E-001 +5.10263815522E-003 +2.86434806185E-004 +4.13869975091E-006 -3.08462813337E-006 +3.19145829417E-003 +8.03923234344E-002 
+6.01000000000E+009 -2.10185617208E-001 -5.90105295181E-001 +2.21758848056E-003 -4.30032471195E-003 -1.92144907487E-005 +1.28523961394E-005 +1.43440784886E-002 +8.24901685119E-002 
+6.21000000000E+009 -2.27909669280E-001 -5.91011762619E-001 -2.97082518227E-003 -3.28030833043E-003 -3.86416104448E-006 +3.10323048325E-005 +2.49162763357E-002 +8.17055180669E-002 
+6.41000000000E+009 -2.44593545794E-001 -5.91486930847E-001 -3.71052115224E-003 +1.23541778885E-003 +1.70897001226E-005 +3.11809372988E-007 +3.64451631904E-002 +7.99639374018E-002 
+6.61000000000E+009 -2.61279642582E-001 -5.91592371464E-001 -3.61545564374E-004 +3.70342773385E-003 +6.12846952208E-006 -2.49955792242E-006 +4.75456155837E-002 +7.47821703553E-002 
+6.81000000000E+009 -2.77365654707E-001 -5.91230511665E-001 +3.07877059095E-003 +1.51501700748E-003 +4.33969580627E-006 -1.06929846879E-005 +5.83633929491E-002 +6.88008517027E-002 
+7.01000000000E+009 -2.92762398720E-001 -5.90616285801E-001 +2.39125173539E-003 -1.99299771339E-003 -5.47532654309E-005 +1.45187268572E-005 +6.82525783777E-002 +6.26480877399E-002 
+7.21000000000E+009 -3.07869970798E-001 -5.89455485344E-001 -7.95528176241E-004 -2.74935318157E-003 +7.48020238461E-006 -4.63991864308E-006 +7.74144679308E-002 +5.39215020835E-002 
+7.41000000000E+009 -3.22282522917E-001 -5.88301241398E-001 -2.69684405066E-003 -2.17174689169E-004 -2.68875487563E-006 +9.58941018325E-006 +8.66975635290E-002 +4.36973124743E-002 
+7.61000000000E+009 -3.35861742496E-001 -5.86543560028E-001 -1.19902985170E-003 +2.17076647095E-003 +1.84691623417E-006 +3.28336536768E-005 +9.28569734097E-002 +3.16558368504E-002 
+7.81000000000E+009 -3.49740177393E-001 -5.84181070328E-001 +1.46482803393E-003 +1.89682084601E-003 +3.37444798788E-005 -1.20575878100E-005 +9.83809828758E-002 +1.95454750210E-002 
+8.01000000000E+009 -3.62590521574E-001 -5.81764221191E-001 +2.14567501098E-003 -5.76693739276E-004 +3.34895162268E-006 -9.71089866653E-006 +1.01930089295E-001 +5.57569740340E-003 
+8.21000000000E+009 -3.75186294317E-001 -5.79002499580E-001 +2.96571030049E-004 -1.99695443735E-003 -7.01233284417E-006 +1.67090274772E-005 +1.03991910815E-001 -8.40782653540E-003 
+8.41000000000E+009 -3.87313038111E-001 -5.75953722000E-001 -1.62788957823E-003 -1.04738993105E-003 -1.34223600980E-005 -9.10059679882E-006 +1.03664629161E-001 -2.35325600952E-002 
+8.61000000000E+009 -3.99247497320E-001 -5.73139846325E-001 -1.45424809307E-003 +1.07173644938E-003 +1.59702267410E-006 +1.03789625427E-005 +1.00429013371E-001 -3.90029996634E-002 
+8.81000000000E+009 -4.10678505898E-001 -5.70119798183E-001 +4.10378299421E-004 +1.62883056328E-003 +1.95129541680E-005 +9.37689219427E-006 +9.49001759291E-002 -5.44768534601E-002 
+9.01000000000E+009 -4.21683788300E-001 -5.66810369492E-001 +1.55697425362E-003 +2.82963970676E-004 +3.21057814290E-005 +2.05744308914E-005 +8.82178992033E-002 -6.80744647980E-002 
+9.21000000000E+009 -4.32387739420E-001 -5.63530921936E-001 +8.31860001199E-004 -1.29176652990E-003 -1.16903975140E-005 +1.87488349184E-005 +7.83151835203E-002 -8.29471945763E-002 
+9.41000000000E+009 -4.42364752293E-001 -5.60302615166E-001 -7.91746017057E-004 -1.18593848310E-003 +2.29322668019E-005 +1.24228427012E-005 +6.56714662910E-002 -9.63904261589E-002 
+9.61000000000E+009 -4.52250093222E-001 -5.56707620621E-001 -1.28054898232E-003 +2.48734519118E-004 +2.49803997576E-006 -6.14537493675E-005 +5.05605451763E-002 -1.08553379774E-001 
+9.81000000000E+009 -4.61367756128E-001 -5.53669154644E-001 -2.78874736978E-004 +1.26874947455E-003 -4.36016580352E-006 -1.12361649371E-005 +3.53676043451E-002 -1.17647632957E-001 
+1.00100000000E+010 -4.70749706030E-001 -5.50190865993E-001 +9.61913610809E-004 +6.80864206515E-004 +8.88935664989E-006 -2.55561826634E-005 +1.85416713357E-002 -1.25441744924E-001 
+1.02100000000E+010 -4.79484975338E-001 -5.46353936195E-001 +9.60879668128E-004 -5.35860890523E-004 -1.62260530487E-005 -1.06295565274E-005 +2.86673661321E-004 -1.32247164845E-001 
+1.04100000000E+010 -4.88273382187E-001 -5.42910933495E-001 -1.73749096575E-004 -1.05187203735E-003 +1.77842266567E-005 -2.44590155489E-005 -2.02592462301E-002 -1.37711539865E-001 
+1.06100000000E+010 -4.96619403362E-001 -5.39181590080E-001 -9.44447121583E-004 -2.48449388891E-004 +3.23867498082E-005 -3.80871188099E-006 -4.18390631676E-002 -1.40025302768E-001 
+1.08100000000E+010 -5.03808856010E-001 -5.36123037338E-001 -6.39605103061E-004 +7.46873789467E-004 -1.47792716234E-005 +3.46767083101E-005 -6.37317970395E-002 -1.39548838139E-001 
+1.10100000000E+010 -5.11341810226E-001 -5.32481253147E-001 +4.10706386901E-004 +8.15877923742E-004 -5.31184741703E-006 -7.57208411528E-008 -8.56589153409E-002 -1.36029586196E-001 
+1.12100000000E+010 -5.18422305584E-001 -5.29689133167E-001 +8.22896836326E-004 -1.09184074972E-004 +2.24963241635E-005 -2.39382734435E-005 -1.09311923385E-001 -1.29501447082E-001 
+1.14100000000E+010 -5.25598406792E-001 -5.26110470295E-001 +2.94551573461E-004 -8.16234736703E-004 +1.97716803996E-006 +2.50769662671E-005 -1.32219269872E-001 -1.19419395924E-001 
+1.16100000000E+010 -5.31405925751E-001 -5.23031413555E-001 -5.74589299504E-004 -5.48428855836E-004 +3.00733390759E-005 -1.21227785712E-005 -1.53951346874E-001 -1.06085196137E-001 
+1.18100000000E+010 -5.37843704224E-001 -5.19798815250E-001 -7.07057828549E-004 +3.08469461743E-004 -1.78969585249E-005 -4.26683618571E-005 -1.73554167151E-001 -8.93311426044E-002 
+1.20100000000E+010 -5.44283449650E-001 -5.16120195389E-001 +2.20813653868E-005 +7.15705216862E-004 -6.26585415375E-006 -1.64005559782E-005 -1.90348774195E-001 -6.98983445764E-002 
+1.22100000000E+010 -5.50743877888E-001 -5.12101769447E-001 +5.75243029743E-004 +2.15120904613E-004 -2.25627045438E-005 -1.57593731274E-005 -2.07821428776E-001 -4.80910018086E-002 
+1.24100000000E+010 -5.56508719921E-001 -5.08693337440E-001 +4.58439026261E-004 -4.31587628555E-004 +3.54454605258E-005 -2.13704042835E-005 -2.22104713321E-001 -2.28132475168E-002 
+1.26100000000E+010 -5.62260746956E-001 -5.05337238312E-001 -2.04099109396E-004 -6.02023676038E-004 +3.44304353348E-005 -2.94991586998E-005 -2.32360422611E-001 +4.76101553068E-003 
+1.28100000000E+010 -5.67744672298E-001 -5.01734614372E-001 -6.30511553027E-004 -3.01658146782E-005 +1.76872890734E-005 +3.35905019710E-006 -2.38458976150E-001 +3.36849428713E-002 
+1.30100000000E+010 -5.73327541351E-001 -4.97566938400E-001 -2.17326087295E-004 +5.23797119968E-004 -2.73166970146E-005 -2.32553502428E-005 -2.42025598884E-001 +6.35578334332E-002 
+1.32100000000E+010 -5.78411877155E-001 -4.93844926357E-001 +3.49953392288E-004 +3.91030363971E-004 -3.37496175007E-007 -1.70235052792E-005 -2.42337986827E-001 +9.48994234204E-002 
+1.34100000000E+010 -5.83652973175E-001 -4.89469289780E-001 +5.01825881656E-004 -1.39390496770E-004 -2.06000586331E-005 -4.23050732934E-005 -2.38615900278E-001 +1.26478940248E-001 
+1.36100000000E+010 -5.86711108685E-001 -4.85604405403E-001 +2.20420429287E-006 -4.75184584502E-004 -1.37488459586E-005 -3.65246814908E-005 -2.30997100472E-001 +1.59204602242E-001 
+1.38100000000E+010 -5.91831862926E-001 -4.82471942902E-001 -3.78362427000E-004 -2.04617346753E-004 +4.06048638979E-005 +4.09893837059E-005 -2.17754095793E-001 +1.91052436829E-001 
+1.40100000000E+010 -5.96753716469E-001 -4.78994786739E-001 -3.56331904186E-004 +2.90995027171E-004 +2.73385703622E-005 -1.59080664162E-005 -2.01011165977E-001 +2.21852153540E-001 
+1.42100000000E+010 -6.01357221603E-001 -4.75727468729E-001 +9.44585990510E-005 +3.92128509702E-004 -8.58297698869E-006 -1.79891085281E-005 -1.80450662971E-001 +2.53057003021E-001 
+1.44100000000E+010 -6.06137275696E-001 -4.71789807081E-001 +4.01423138101E-004 +4.70074774057E-005 +3.39405123668E-005 +3.57569297194E-005 -1.54653295875E-001 +2.81364738941E-001 
+1.46100000000E+010 -6.10035479069E-001 -4.68490898609E-001 +2.25444033276E-004 -3.23302287143E-004 -3.28919777530E-005 +6.37270022708E-006 -1.23964898288E-001 +3.06661516428E-001 
+1.48100000000E+010 -6.13854348660E-001 -4.62641835213E-001 -2.61954701273E-004 -2.91578326141E-004 +7.06578339305E-006 +3.28533460561E-005 -9.10390540957E-002 +3.28391134739E-001 
+1.50100000000E+010 -6.15449488163E-001 -4.61153805256E-001 -3.52024595486E-004 +5.96368190600E-005 +2.82218807115E-005 -5.62141867704E-005 -5.56226111948E-002 +3.47684174776E-001 
+1.52100000000E+010 -6.18490517139E-001 -4.59975689650E-001 -5.26025069121E-005 +3.53012728738E-004 -2.19871271838E-005 +1.02764888652E-005 -1.69684290886E-002 +3.62696379423E-001 
+1.54100000000E+010 -6.22198045254E-001 -4.57426965237E-001 +2.58498534095E-004 +1.60773139214E-004 +3.30847433361E-006 +1.55765028467E-005 +2.51537654549E-002 +3.72717320919E-001 
+1.56100000000E+010 -6.26050651073E-001 -4.53457653522E-001 +2.40412875428E-004 -1.57138318173E-004 -1.53881046572E-005 +2.07546099773E-006 +6.89483433962E-002 +3.76970797777E-001 
+1.58100000000E+010 -6.27274632454E-001 -4.52095925808E-001 -7.29256280465E-005 -3.41555278283E-004 -1.08699839529E-006 -1.08254726001E-005 +1.12682737410E-001 +3.77324491739E-001 
+1.60100000000E+010 -6.29670202732E-001 -4.50313478708E-001 -2.78466439340E-004 -7.00465679984E-005 +3.77643868887E-006 +2.44734974331E-006 +1.57477855682E-001 +3.72297286987E-001 
+1.62100000000E+010 -6.32075726986E-001 -4.48269665241E-001 -1.66412326507E-004 +2.57069972577E-004 +3.73771363229E-005 +3.38708559866E-005 +2.04706966877E-001 +3.61805886030E-001 
+1.64100000000E+010 -6.34312510490E-001 -4.46161776781E-001 +9.12003670237E-005 +2.70255724899E-004 -2.60974466073E-005 -1.07823154849E-006 +2.51158863306E-001 +3.45551788807E-001 
+1.66100000000E+010 -6.37684762478E-001 -4.43810671568E-001 +2.92471348075E-004 -3.52257629856E-005 +5.07455888510E-006 +2.49256681855E-005 +2.94678986073E-001 +3.21842908859E-001 
+1.68100000000E+010 -6.40806496143E-001 -4.40767914057E-001 +5.89169758314E-005 -2.28907359997E-004 -1.52501354478E-006 +2.36124633375E-005 +3.37576866150E-001 +2.94499307871E-001 
+1.70100000000E+010 -6.42551243305E-001 -4.38124448061E-001 -1.93534142454E-004 -1.40817035572E-004 +2.53713260463E-005 -2.18359728024E-005 +3.77416998148E-001 +2.63069182634E-001 
+1.72100000000E+010 -6.44980490208E-001 -4.35649484396E-001 -2.27029595408E-004 +8.14821978565E-005 +1.42819098983E-005 +1.27322691696E-005 +4.14754509926E-001 +2.24658250809E-001 
+1.74100000000E+010 -6.47959530354E-001 -4.33295577765E-001 -1.60061863426E-005 +2.08819852560E-004 -1.17304580272E-005 -3.38883946824E-005 +4.47808533907E-001 +1.81705743074E-001 
+1.76100000000E+010 -6.50604128838E-001 -4.30478036404E-001 +2.07420613151E-004 +1.56288442668E-004 -3.82767721021E-005 -1.12527095553E-005 +4.75384026766E-001 +1.35827586055E-001 
+1.78100000000E+010 -6.53507947922E-001 -4.27878588438E-001 +1.13346082799E-004 -1.56434209202E-004 -4.29021110904E-006 +5.98279211772E-006 +4.98767077923E-001 +8.73255208135E-002 
+1.80100000000E+010 -6.55788540840E-001 -4.24934655428E-001 -7.25024146959E-005 -1.86917619430E-004 +4.56882517028E-005 -3.84204322472E-005 +5.17969310284E-001 +3.63220907748E-002 
+1.82100000000E+010 -6.58393144608E-001 -4.22573655844E-001 -1.94400825421E-004 -5.02486946061E-005 -5.93766708334E-005 -3.98725887862E-006 +5.30472815037E-001 -1.78857985884E-002 
+1.84100000000E+010 -6.60808086395E-001 -4.20535445213E-001 -2.79656305793E-005 +1.28802013933E-004 -5.92159740336E-005 -1.34530828291E-005 +5.36522686481E-001 -7.47885704041E-002 
+1.86100000000E+010 -6.63745343685E-001 -4.18090939522E-001 +1.32005196065E-004 +1.43236553413E-004 -1.01522273326E-005 -4.48759674327E-005 +5.36761999130E-001 -1.31021633744E-001 
+1.88100000000E+010 -6.66055321693E-001 -4.15437221527E-001 +1.19709213322E-004 -6.47938286420E-005 +1.72606760316E-005 -3.25449691445E-005 +5.30959904194E-001 -1.87370017171E-001 
+1.90100000000E+010 -6.67744994164E-001 -4.13085162640E-001 -1.30983862618E-005 -1.60359617439E-004 -4.15585818700E-005 -4.56716361441E-006 +5.18963575363E-001 -2.43332490325E-001 
+1.92100000000E+010 -6.69969201088E-001 -4.11406993866E-001 -1.49614614202E-004 -7.40440591471E-005 +4.46134908998E-005 +8.97065820027E-006 +5.00862538815E-001 -3.00530672073E-001 
+1.94100000000E+010 -6.72646462917E-001 -4.08678680658E-001 -1.64272554684E-004 +1.14631984616E-004 +1.09756301754E-005 +4.58430549770E-005 +4.75281983614E-001 -3.54745864868E-001 
+1.96100000000E+010 -6.73264443874E-001 -4.05759274960E-001 +2.20251010319E-007 +1.12490073661E-004 +2.20846177399E-005 +6.39471909381E-006 +4.44680184126E-001 -4.06321376562E-001 
+1.98100000000E+010 -6.72445476055E-001 -4.02405917645E-001 +1.68323924299E-004 +6.19908678345E-005 +1.18605685202E-005 -4.04869715567E-005 +4.09974962473E-001 -4.53405171633E-001 
+2.00100000000E+010 -6.71019673347E-001 -4.01509314775E-001 +9.99292460619E-005 -1.27931969473E-004 +6.23758242000E-005 -2.89694708044E-005 +3.68296772242E-001 -4.99565362930E-001 
