!;Filter: kein Filter
!auto
!3/21/2019 9:27:54 AM
!3/21/2019 9:28:10 AM
!SP-Measurements Prober G4
!SP-Measurements Prober G4
!01103_448C
!134
!235
!12
!40
!-20
!0.00599970
!2.02
!0.74959551
!0.74959551
# Hz S  RI   R 50
+1.00000000000E+007 +1.64737373590E-001 +5.73973357677E-003 +4.90187704563E-002 -1.87059417367E-002 -2.60423723375E-004 -2.22339542233E-004 +4.61502838880E-003 +1.26419821754E-003 
+2.10000000000E+008 +1.81368187070E-001 -2.07254271954E-002 -7.92441831436E-004 -5.19084110856E-002 -4.28079183621E-005 +1.36135102366E-004 +8.48812703043E-003 -4.69369441271E-003 
+4.10000000000E+008 +1.84159666300E-001 -4.96546328068E-002 -4.91253733635E-002 -1.78376417607E-002 +1.02187050288E-005 -2.04418374778E-005 +9.95399896055E-003 -7.01397983357E-003 
+6.10000000000E+008 +1.83495029807E-001 -7.91146457195E-002 -3.32602486014E-002 +3.90275344253E-002 +2.57547435467E-005 +2.40443951043E-005 +9.88763757050E-003 -1.16650043055E-002 
+8.10000000000E+008 +1.79423823953E-001 -1.08659528196E-001 +2.49580889940E-002 +4.51024286449E-002 -2.65660332843E-006 -6.87084002493E-006 +6.82009011507E-003 -1.52581259608E-002 
+1.01000000000E+009 +1.73058301210E-001 -1.37221291661E-001 +5.08503094316E-002 -7.92831834406E-003 -3.48450794263E-006 +1.37616943903E-005 +2.84755392931E-003 -1.90162770450E-002 
+1.21000000000E+009 +1.64890423417E-001 -1.64849251509E-001 +1.05644706637E-002 -4.92729991674E-002 +2.95953595923E-005 +2.74650687970E-006 -1.73492368776E-003 -2.11432538927E-002 
+1.41000000000E+009 +1.54781863093E-001 -1.92009374499E-001 -4.20690327883E-002 -2.74690724909E-002 -2.24013547268E-005 -2.82741839328E-005 -7.39177083597E-003 -2.43729948997E-002 
+1.61000000000E+009 +1.43693462014E-001 -2.17848360538E-001 -4.02070730925E-002 +2.96558178961E-002 -1.10493419925E-005 -9.78058778855E-006 -1.37780560181E-002 -2.66218166798E-002 
+1.81000000000E+009 +1.30882069468E-001 -2.42412373424E-001 +1.28271216527E-002 +4.74607795477E-002 +1.99346754926E-006 -1.29663549160E-005 -1.76029819995E-002 -2.77271494269E-002 
+2.01000000000E+009 +1.17609158158E-001 -2.65884697437E-001 +4.89194951952E-002 +5.30395144597E-003 +2.08240453503E-005 -1.35455584314E-005 -2.31680218130E-002 -2.66443993896E-002 
+2.21000000000E+009 +1.03004455566E-001 -2.88360863924E-001 +2.21264567226E-002 -4.38706725836E-002 -1.30933576656E-005 +2.41723173531E-005 -2.87140589207E-002 -2.44363397360E-002 
+2.41000000000E+009 +8.72730165720E-002 -3.09191405773E-001 -3.26590389013E-002 -3.59460338950E-002 -1.02295580291E-005 -1.54992794705E-005 -3.53825837374E-002 -2.21704225987E-002 
+2.61000000000E+009 +7.12730810046E-002 -3.28837245703E-001 -4.53285314143E-002 +1.73656828701E-002 -2.37839103647E-005 +3.50488298864E-005 -4.06598411500E-002 -1.91788040102E-002 
+2.81000000000E+009 +5.45667484403E-002 -3.47132652998E-001 +3.70651658159E-004 +4.84244786203E-002 -5.78675417273E-006 +1.49478210005E-005 -4.45389114320E-002 -1.43358623609E-002 
+3.01000000000E+009 +3.72432619333E-002 -3.64013016224E-001 +4.47878837585E-002 +1.69047117233E-002 +1.41519819863E-006 -1.54503049998E-005 -4.84074279666E-002 -8.65237228572E-003 
+3.21000000000E+009 +1.97136197239E-002 -3.79813313484E-001 +3.20078395307E-002 -3.56713086367E-002 -2.30306432059E-005 +5.92002425037E-006 -5.22804558277E-002 -2.24622013047E-003 
+3.41000000000E+009 +2.26839305833E-003 -3.94457072020E-001 -2.20916382968E-002 -4.23605777323E-002 -7.93910885477E-007 -1.37867127705E-005 -5.52379265428E-002 +4.85669076443E-003 
+3.61000000000E+009 -1.53724169359E-002 -4.07988697290E-001 -4.69532087445E-002 +5.22500369698E-003 +2.06325348699E-005 -3.93819937017E-006 -5.69951757789E-002 +1.17904366925E-002 
+3.81000000000E+009 -3.32992710173E-002 -4.20232534409E-001 -1.21395783499E-002 +4.58145588636E-002 +4.09940093959E-006 +1.19217315842E-006 -5.67765422165E-002 +1.90965980291E-002 
+4.01000000000E+009 -5.08153215051E-002 -4.31721597910E-001 +3.85848768055E-002 +2.73948945105E-002 +4.32898877989E-006 +3.36859484378E-005 -5.58124780655E-002 +2.69530285150E-002 
+4.21000000000E+009 -6.84746950865E-002 -4.41982299089E-001 +3.91341783106E-002 -2.59219873697E-002 -1.81002917543E-006 -7.54907205192E-007 -5.38013055921E-002 +3.57029177248E-002 
+4.41000000000E+009 -8.59812125564E-002 -4.51328247786E-001 -1.01370764896E-002 -4.59805913270E-002 -2.15263808059E-005 -7.84563383149E-007 -5.06518185139E-002 +4.40328791738E-002 
+4.61000000000E+009 -1.03197634220E-001 -4.59840953350E-001 -4.64615747333E-002 -6.51585962623E-003 +1.49145489559E-005 +1.29120398924E-005 -4.65295948088E-002 +5.12602888048E-002 
+4.81000000000E+009 -1.20488651097E-001 -4.67563390732E-001 -2.25447975099E-002 +4.06549461186E-002 -4.81717370349E-006 +1.54396166181E-005 -3.99418659508E-002 +5.84816262126E-002 
+5.01000000000E+009 -1.37281775475E-001 -4.74824011326E-001 +2.98598073423E-002 +3.56975086033E-002 +2.27744894801E-005 +4.77781622976E-006 -3.34121026099E-002 +6.50789737701E-002 
+5.21000000000E+009 -1.53736755252E-001 -4.81518328190E-001 +4.38152141869E-002 -1.54165206477E-002 -2.44674101850E-005 -2.99388502754E-005 -2.59072594345E-002 +7.11007490754E-002 
+5.41000000000E+009 -1.69998213649E-001 -4.87050086260E-001 +1.44818820991E-003 -4.61782105267E-002 -5.70547854295E-006 -2.15003492485E-005 -1.71204004437E-002 +7.63105824590E-002 
+5.61000000000E+009 -1.86352893710E-001 -4.92388457060E-001 -4.28846217692E-002 -1.80358421057E-002 +1.36160142574E-005 -2.08909241906E-007 -7.42949312553E-003 +7.93814212084E-002 
+5.81000000000E+009 -2.01989144087E-001 -4.96703416109E-001 -3.18696945906E-002 +3.40838879347E-002 +2.19848989218E-005 +6.42813404284E-007 +3.09089757502E-003 +8.02987366915E-002 
+6.01000000000E+009 -2.17105552554E-001 -5.00319182873E-001 +2.05610357225E-002 +4.18154150248E-002 -2.58626405412E-005 -4.67717745778E-006 +1.41941793263E-002 +8.23044329882E-002 
+6.21000000000E+009 -2.32216611505E-001 -5.03400623798E-001 +4.68687079847E-002 -4.61749546230E-003 +2.77494063994E-006 +1.97753524844E-006 +2.48377081007E-002 +8.16321000457E-002 
+6.41000000000E+009 -2.46628090739E-001 -5.06003916264E-001 +1.15194329992E-002 -4.57844622433E-002 +1.05725812318E-005 +6.41759243081E-007 +3.63122671843E-002 +7.98817053437E-002 
+6.61000000000E+009 -2.61103808880E-001 -5.08158743382E-001 -3.87663356960E-002 -2.65436470509E-002 -1.22442997963E-005 +4.58259137304E-006 +4.74128797650E-002 +7.47502744198E-002 
+6.81000000000E+009 -2.75180101395E-001 -5.09836971760E-001 -3.86082120240E-002 +2.75027975440E-002 -1.26105496747E-005 +1.88954160762E-007 +5.82133494318E-002 +6.88668340445E-002 
+7.01000000000E+009 -2.88714647293E-001 -5.11235535145E-001 +1.32134314626E-002 +4.54321205616E-002 -8.89540569915E-006 -1.64924658748E-005 +6.81341439486E-002 +6.26541227102E-002 
+7.21000000000E+009 -3.02068889141E-001 -5.12068271637E-001 +4.68400828540E-002 +3.03253624588E-003 +1.13899170628E-006 -1.74951746885E-005 +7.72679001093E-002 +5.40559403598E-002 
+7.41000000000E+009 -3.14769983292E-001 -5.12896716595E-001 +1.86159573495E-002 -4.33036945760E-002 +1.96696169041E-006 -7.32644537038E-007 +8.65156054497E-002 +4.38701808453E-002 
+7.61000000000E+009 -3.26840996742E-001 -5.13068199158E-001 -3.45994643867E-002 -3.13304215670E-002 -7.95566120360E-006 +2.30134537560E-005 +9.27289575338E-002 +3.18650566041E-002 
+7.81000000000E+009 -3.39280664921E-001 -5.12675106525E-001 -4.04638573527E-002 +2.18369420618E-002 +3.70453926735E-006 +1.04589398688E-005 +9.82456132770E-002 +1.97252966464E-002 
+8.01000000000E+009 -3.50803285837E-001 -5.12130737305E-001 +7.39166000858E-003 +4.51829321682E-002 +4.64990671389E-006 -1.47478203871E-005 +1.01789362729E-001 +5.82011649385E-003 
+8.21000000000E+009 -3.62185001373E-001 -5.11264920235E-001 +4.42580804229E-002 +7.17654218897E-003 -3.63222352462E-005 -3.98456813855E-006 +1.03918284178E-001 -8.13698116690E-003 
+8.41000000000E+009 -3.73238146305E-001 -5.09937703609E-001 +2.08170823753E-002 -3.83565276861E-002 -3.06312443854E-007 -3.46590945810E-006 +1.03562355042E-001 -2.32728384435E-002 
+8.61000000000E+009 -3.84115874767E-001 -5.08940517902E-001 -2.90822982788E-002 -3.15326526761E-002 +1.42624312502E-005 -7.52583628127E-006 +1.00294731557E-001 -3.87115105987E-002 
+8.81000000000E+009 -3.94525259733E-001 -5.07632136345E-001 -3.76900397241E-002 +1.71226337552E-002 +5.92501191932E-006 +2.51684159593E-005 +9.48804765940E-002 -5.41524700820E-002 
+9.01000000000E+009 -4.04641330242E-001 -5.05991995335E-001 +3.55625874363E-003 +3.94763834774E-002 +2.85154819721E-005 -2.94162896353E-006 +8.81826654077E-002 -6.78274482489E-002 
+9.21000000000E+009 -4.14485901594E-001 -5.04376292229E-001 +3.71779613197E-002 +9.07197035849E-003 +1.18769003166E-005 -1.82878575288E-005 +7.83354043961E-002 -8.26538875699E-002 
+9.41000000000E+009 -4.23694074154E-001 -5.02759456635E-001 +1.94718800485E-002 -3.06782145053E-002 -1.71406572917E-005 +2.90669618153E-006 +6.57984539866E-002 -9.61381271482E-002 
+9.61000000000E+009 -4.32933926582E-001 -5.00729382038E-001 -2.11546737701E-002 -2.70756166428E-002 -1.00292309071E-005 -1.31889510158E-005 +5.06760776043E-002 -1.08280189335E-001 
+9.81000000000E+009 -4.41423565149E-001 -4.99304890633E-001 -3.09379678220E-002 +1.03321811184E-002 -9.64522223512E-006 -1.62456653925E-005 +3.54871302843E-002 -1.17507047951E-001 
+1.00100000000E+010 -4.50256049633E-001 -4.97207909822E-001 -5.46722963918E-004 +3.06438561529E-002 -1.46257843880E-005 +9.90271200862E-006 +1.86520069838E-002 -1.25332206488E-001 
+1.02100000000E+010 -4.58339422941E-001 -4.94804829359E-001 +2.68236584961E-002 +1.04606924579E-002 -2.35432471527E-005 +1.71409064933E-005 +4.82106726849E-004 -1.32149741054E-001 
+1.04100000000E+010 -4.66555953026E-001 -4.92841064930E-001 +1.80337447673E-002 -2.03227438033E-002 +3.84679560739E-006 -1.09191141746E-005 -2.00288482010E-002 -1.37484535575E-001 
+1.06100000000E+010 -4.74418014288E-001 -4.90510642529E-001 -1.20255295187E-002 -2.24265716970E-002 +9.89125419437E-006 -6.08722984907E-006 -4.16027531028E-002 -1.40009164810E-001 
+1.08100000000E+010 -4.81205910444E-001 -4.88919436932E-001 -2.35805530101E-002 +3.00895888358E-003 +3.85575594919E-006 +1.67016169144E-005 -6.33545592427E-002 -1.39580219984E-001 
+1.10100000000E+010 -4.88509833813E-001 -4.86725360155E-001 -5.41610829532E-003 +2.18410231173E-002 +1.07085688796E-005 +2.13319635805E-005 -8.52833166718E-002 -1.36059701443E-001 
+1.12100000000E+010 -4.95202928782E-001 -4.85236674547E-001 +1.74403786659E-002 +1.19643146172E-002 -1.01977557279E-005 -6.96477309248E-006 -1.08952738345E-001 -1.29646688700E-001 
+1.14100000000E+010 -5.02152204514E-001 -4.82858121395E-001 +1.63223706186E-002 -1.10352858901E-002 +2.09154563890E-006 -2.64940422312E-006 -1.31906315684E-001 -1.19514308870E-001 
+1.16100000000E+010 -5.07783353329E-001 -4.81011986732E-001 -4.05333098024E-003 -1.83242987841E-002 +2.64182599494E-005 +1.29411655507E-005 -1.53709158301E-001 -1.06269001961E-001 
+1.18100000000E+010 -5.13880491257E-001 -4.78922545910E-001 -1.73703748733E-002 -2.44351569563E-003 +2.16981243284E-005 -2.39401742874E-005 -1.73253670335E-001 -8.95299091935E-002 
+1.20100000000E+010 -5.20150363445E-001 -4.76449847221E-001 -8.21948796511E-003 +1.41178565100E-002 +2.81341772279E-006 -8.81722485246E-007 -1.90174430609E-001 -7.01648592949E-002 
+1.22100000000E+010 -5.26373982430E-001 -4.73658442497E-001 +9.53092891723E-003 +1.21895931661E-002 -2.23387196456E-005 +5.22389336766E-006 -2.07607507706E-001 -4.84209842980E-002 
+1.24100000000E+010 -5.32043933868E-001 -4.71327424049E-001 +1.38579979539E-002 -4.13334695622E-003 -2.43731792580E-005 +1.15588272820E-005 -2.21966519952E-001 -2.31945645064E-002 
+1.26100000000E+010 -5.37692487240E-001 -4.68834221363E-001 +1.43289275002E-003 -1.34773897007E-002 +1.52005759446E-005 +7.94895640865E-006 -2.32202216983E-001 +4.29075211287E-003 
+1.28100000000E+010 -5.43088793755E-001 -4.66269224882E-001 -1.13511281088E-002 -6.10534008592E-003 -3.45985586137E-006 -1.13384994620E-005 -2.38481536508E-001 +3.33236753941E-002 
+1.30100000000E+010 -5.48457980156E-001 -4.63121891022E-001 -9.27506107837E-003 +7.76925822720E-003 +7.00688451616E-006 -1.47832806761E-005 -2.42133930326E-001 +6.31290748715E-002 
+1.32100000000E+010 -5.53448021412E-001 -4.60404425859E-001 +3.30859841779E-003 +1.09317302704E-002 -1.56823389261E-005 -1.10138162199E-005 -2.42512986064E-001 +9.45420339704E-002 
+1.34100000000E+010 -5.58533072472E-001 -4.56992924213E-001 +1.09201362357E-002 +1.05276692193E-003 +2.04220141313E-005 +6.16569059275E-006 -2.38901436329E-001 +1.26117587090E-001 
+1.36100000000E+010 -5.61709582806E-001 -4.54171299934E-001 +4.72160149366E-003 -9.17535088956E-003 +2.03531071747E-005 -5.01692193211E-005 -2.31298059225E-001 +1.58808514476E-001 
+1.38100000000E+010 -5.66796839237E-001 -4.51851993799E-001 -6.19755219668E-003 -7.52359535545E-003 +1.45116664498E-005 -3.15003089781E-005 -2.18139827251E-001 +1.90720602870E-001 
+1.40100000000E+010 -5.71616947651E-001 -4.49190557003E-001 -8.95191170275E-003 +2.75985361077E-003 +2.25694875553E-005 +1.94511867448E-005 -2.01498270035E-001 +2.21610099077E-001 
+1.42100000000E+010 -5.76200485229E-001 -4.46836322546E-001 -7.27591221221E-004 +8.81366804242E-003 -2.41949474002E-005 +3.13507121064E-006 -1.81087791920E-001 +2.52878159285E-001 
+1.44100000000E+010 -5.80929815769E-001 -4.43635016680E-001 +7.43215717375E-003 +3.92501847818E-003 +2.53291855188E-005 +1.04773798739E-005 -1.55410990119E-001 +2.81247377396E-001 
+1.46100000000E+010 -5.84777951241E-001 -4.41061228514E-001 +6.19246251881E-003 -5.10449754074E-003 +7.31706268198E-006 +2.75736656477E-005 -1.24834075570E-001 +3.06668192148E-001 
+1.48100000000E+010 -5.88503360748E-001 -4.36162203550E-001 -2.28476547636E-003 -7.25062796846E-003 +2.04958269023E-005 -2.04255902645E-005 -9.19237360358E-002 +3.28591227531E-001 
+1.50100000000E+010 -5.90341687202E-001 -4.35443609953E-001 -7.20898387954E-003 -7.26742844563E-004 +8.81871528691E-006 -1.45261828948E-005 -5.64651265740E-002 +3.47925961018E-001 
+1.52100000000E+010 -5.93434989452E-001 -4.34975206852E-001 -3.29638156109E-003 +6.06638099998E-003 +7.93242361397E-006 +1.13271416922E-005 -1.77985914052E-002 +3.62982332706E-001 
+1.54100000000E+010 -5.97109973431E-001 -4.33023184538E-001 +4.10949205980E-003 +5.07600000128E-003 -1.05486617485E-006 -1.90455994016E-005 +2.42642574012E-002 +3.73046576977E-001 
+1.56100000000E+010 -6.00973606110E-001 -4.29866522551E-001 +6.02726498619E-003 -1.66530709248E-003 -9.24385949475E-006 -1.56579528721E-006 +6.80665522814E-002 +3.77476394176E-001 
+1.58100000000E+010 -6.02366864681E-001 -4.29224908352E-001 +7.75993394200E-004 -5.99840888754E-003 +3.13957207254E-005 +4.46645060492E-007 +1.11852824688E-001 +3.77900660038E-001 
+1.60100000000E+010 -6.04899525642E-001 -4.28017318249E-001 -4.96661989018E-003 -2.86609167233E-003 -5.33205729880E-006 -1.16539658848E-005 +1.56747907400E-001 +3.72921258211E-001 
+1.62100000000E+010 -6.07375502586E-001 -4.26573246717E-001 -4.40589571372E-003 +3.24490130879E-003 +7.66460016166E-006 -2.33828868659E-005 +2.04013735056E-001 +3.62677544355E-001 
+1.64100000000E+010 -6.09507322311E-001 -4.25183087587E-001 +1.25293585006E-003 +5.13613456860E-003 +3.78473232558E-005 +3.97365602112E-006 +2.50671207905E-001 +3.46565335989E-001 
+1.66100000000E+010 -6.13009154797E-001 -4.23442363739E-001 +4.97469864786E-003 +7.86202959716E-004 -3.64545758202E-006 -6.21604669959E-007 +2.94418156147E-001 +3.22980433702E-001 
+1.68100000000E+010 -6.16386294365E-001 -4.21166241169E-001 +2.56923376583E-003 -4.10170853138E-003 -1.87574460142E-005 -1.27000794237E-005 +3.37502241135E-001 +2.95726299286E-001 
+1.70100000000E+010 -6.18134796619E-001 -4.19061064720E-001 -2.69562425092E-003 -3.81353311241E-003 +3.96565610572E-006 -1.63430593147E-006 +3.77427458763E-001 +2.64381498098E-001 
+1.72100000000E+010 -6.20595276356E-001 -4.17058616877E-001 -4.33352589607E-003 +9.44884784985E-004 +1.76029407157E-005 -1.10402916107E-005 +4.14874196053E-001 +2.26004287601E-001 
+1.74100000000E+010 -6.23696208000E-001 -4.15226459503E-001 -8.38873093016E-004 +4.17253049091E-003 -4.00226053898E-006 +1.80668248504E-005 +4.48166400194E-001 +1.83250382543E-001 
+1.76100000000E+010 -6.26420915127E-001 -4.13125991821E-001 +3.37861734442E-003 +2.27787322365E-003 +3.45316766470E-005 +7.30764213586E-006 +4.75959986448E-001 +1.37357234955E-001 
+1.78100000000E+010 -6.29344761372E-001 -4.11053687334E-001 +3.25501803309E-003 -2.13550520130E-003 -2.24488394451E-005 -8.30049339129E-006 +4.99449431896E-001 +8.87885689735E-002 
+1.80100000000E+010 -6.31751954556E-001 -4.08728927374E-001 -6.71283807606E-004 -3.70484800078E-003 +2.04776770261E-005 +7.20873003957E-006 +5.18788039684E-001 +3.77705618739E-002 
+1.82100000000E+010 -6.34481310844E-001 -4.06964898109E-001 -3.50875966251E-003 -8.13975115307E-004 +1.11720664790E-005 -1.46228740050E-005 +5.31542539597E-001 -1.65711026639E-002 
+1.84100000000E+010 -6.37249231339E-001 -4.05488491058E-001 -2.03076400794E-003 +2.75604380295E-003 -1.27436805997E-005 +3.39378821081E-005 +5.37737071514E-001 -7.36643448472E-002 
+1.86100000000E+010 -6.40164136887E-001 -4.03440594673E-001 +1.67728401721E-003 +2.85398704000E-003 +3.84307350032E-005 -1.79650469363E-005 +5.38067877293E-001 -1.30072370172E-001 
+1.88100000000E+010 -6.42600297928E-001 -4.01232838631E-001 +3.19346715696E-003 -3.81360761821E-004 +1.67204070749E-005 +3.73314333046E-006 +5.32331287861E-001 -1.86560705304E-001 
+1.90100000000E+010 -6.44354164600E-001 -3.99526089430E-001 +8.50836338941E-004 -2.95348465443E-003 -1.73388380063E-005 +1.18325297080E-005 +5.20580947399E-001 -2.42656186223E-001 
+1.92100000000E+010 -6.46867573261E-001 -3.98523569107E-001 -2.26317252964E-003 -1.87968416139E-003 +2.42390029825E-007 +1.67074776982E-005 +5.02703785896E-001 -2.99977302551E-001 
+1.94100000000E+010 -6.49643242359E-001 -3.96339327097E-001 -2.55256053060E-003 +1.29353033844E-003 +2.74346748483E-005 +2.66359420493E-005 +4.77380275726E-001 -3.54531735182E-001 
+1.96100000000E+010 -6.50553166866E-001 -3.94075334072E-001 +1.57690315973E-004 +2.71165394224E-003 +6.49484718451E-006 -2.05390169867E-005 +4.46743369102E-001 -4.06525313854E-001 
+1.98100000000E+010 -6.50026142597E-001 -3.91337394714E-001 +2.46038520709E-003 +8.86227004230E-004 -1.75994846359E-005 -2.59650460066E-005 +4.12002593279E-001 -4.53854531050E-001 
+2.00100000000E+010 -6.49319589138E-001 -3.90710026026E-001 +1.74216646701E-003 -1.85705674812E-003 +1.83392639883E-005 -4.10321044910E-005 +3.70385199785E-001 -5.00182032585E-001 
