!;Filter: kein Filter
!auto
!3/21/2019 9:25:24 AM
!3/21/2019 9:25:40 AM
!SP-Measurements Prober G4
!SP-Measurements Prober G4
!01103_448C
!134
!235
!12
!40
!-20
!0.00399976
!1.88
!0.54220246
!0.54220246
# Hz S  RI   R 50
+1.00000000000E+007 +2.39019811153E-001 +9.34640970081E-003 +5.66510930657E-002 -2.44528781623E-002 +6.38036173768E-004 +1.90684528206E-004 +5.17665920779E-003 +9.48167697061E-004 
+2.10000000000E+008 +2.63806968927E-001 -2.59161610156E-002 -2.39500054158E-003 -5.68846464157E-002 +3.04453715216E-005 -2.47153820965E-005 +8.62071290612E-003 -4.72059985623E-003 
+4.10000000000E+008 +2.64680504799E-001 -6.19478896260E-002 -5.35310208797E-002 -1.80492214859E-002 +2.96445773529E-006 -1.17001093258E-006 +9.99256223440E-003 -7.01403990388E-003 
+6.10000000000E+008 +2.60981470346E-001 -9.65474545956E-002 -3.42748314142E-002 +4.28302958608E-002 -9.11772258405E-006 -1.21153543660E-005 +9.92813054472E-003 -1.16932727396E-002 
+8.10000000000E+008 +2.53877222538E-001 -1.30381718278E-001 +2.71079167724E-002 +4.71969544888E-002 -1.98176803679E-005 +1.76414664566E-006 +6.82068942115E-003 -1.52831617743E-002 
+1.01000000000E+009 +2.44576618075E-001 -1.62556618452E-001 +5.43344281614E-002 -8.84553790092E-003 +1.19046317195E-005 +1.44711975736E-005 +2.85357213579E-003 -1.90020166337E-002 
+1.21000000000E+009 +2.33470976353E-001 -1.93526878953E-001 +1.04181775823E-002 -5.23957759142E-002 -1.11872823254E-005 +4.38259894509E-006 -1.72511779238E-003 -2.11640410125E-002 
+1.41000000000E+009 +2.20295906067E-001 -2.23496019840E-001 -4.45889532566E-002 -2.89023593068E-002 -9.74192880676E-006 +2.18523632611E-006 -7.34459422529E-003 -2.43979170918E-002 
+1.61000000000E+009 +2.06244245172E-001 -2.51875728369E-001 -4.31948862970E-002 +3.18056941032E-002 -1.25872520584E-005 -9.57282372838E-006 -1.37731395662E-002 -2.66687292606E-002 
+1.81000000000E+009 +1.90252184868E-001 -2.78731107712E-001 +1.42042078078E-002 +5.08615076542E-002 -2.58011223195E-005 +1.31726437758E-005 -1.75983067602E-002 -2.77003347874E-002 
+2.01000000000E+009 +1.73861935735E-001 -3.04170012474E-001 +5.25173023343E-002 +5.50132151693E-003 -1.50995028889E-005 +1.66870868270E-005 -2.31768228114E-002 -2.66616251320E-002 
+2.21000000000E+009 +1.56155750155E-001 -3.28384131193E-001 +2.35887151212E-002 -4.78300042450E-002 -2.75271340797E-005 -2.83919166577E-006 -2.86936145276E-002 -2.44899168611E-002 
+2.41000000000E+009 +1.37277573347E-001 -3.50595772266E-001 -3.57254929841E-002 -3.81400845945E-002 +2.31031190197E-005 -3.23558997479E-005 -3.54173183441E-002 -2.22062096000E-002 
+2.61000000000E+009 +1.18136763573E-001 -3.71241211891E-001 -4.85883951187E-002 +1.90308913589E-002 +2.02359897230E-005 -6.94954451319E-006 -4.06427867711E-002 -1.92221812904E-002 
+2.81000000000E+009 +9.84933376312E-002 -3.90410184860E-001 +8.96141922567E-004 +5.26007749140E-002 +1.05218170177E-007 -1.47649607243E-005 -4.45702075958E-002 -1.43957240507E-002 
+3.01000000000E+009 +7.81829059124E-002 -4.07917022705E-001 +4.84361164272E-002 +1.75509937108E-002 -8.71231259225E-006 +4.68906318929E-006 -4.84163090587E-002 -8.65953229368E-003 
+3.21000000000E+009 +5.79525642097E-002 -4.24055427313E-001 +3.46583239734E-002 -3.85549589992E-002 -1.02614203570E-005 +1.09604461613E-005 -5.22927083075E-002 -2.24372069351E-003 
+3.41000000000E+009 +3.79158146679E-002 -4.38949644566E-001 -2.45261173695E-002 -4.64061722159E-002 +1.16968449220E-005 -1.63594922924E-005 -5.52777759731E-002 +4.87262988463E-003 
+3.61000000000E+009 +1.76596958190E-002 -4.52558547258E-001 -5.10809421539E-002 +6.21096696705E-003 +2.17626325139E-006 -1.57366321218E-005 -5.70434890687E-002 +1.17951892316E-002 
+3.81000000000E+009 -2.66752182506E-003 -4.64742153883E-001 -1.34177654982E-002 +5.03459833562E-002 -2.75534039247E-005 -3.06064284814E-005 -5.68409189582E-002 +1.91223043948E-002 
+4.01000000000E+009 -2.24328301847E-002 -4.76194590330E-001 +4.34083566070E-002 +3.00965085626E-002 -5.59013778911E-006 -1.34845095090E-005 -5.58650940657E-002 +2.70087383687E-002 
+4.21000000000E+009 -4.23439219594E-002 -4.86168950796E-001 +4.28018979728E-002 -2.88352463394E-002 -6.08245954936E-007 -9.05079104996E-006 -5.38393333554E-002 +3.57212387025E-002 
+4.41000000000E+009 -6.18293322623E-002 -4.95181262493E-001 -1.10967224464E-002 -5.14199361205E-002 -3.20143735735E-005 +2.05223204830E-005 -5.06941713393E-002 +4.40924465656E-002 
+4.61000000000E+009 -8.10775756836E-002 -5.03284275532E-001 -5.26969209313E-002 -6.97365915403E-003 +1.00361539808E-005 +3.17381127388E-005 -4.65590842068E-002 +5.13114072382E-002 
+4.81000000000E+009 -1.00288338959E-001 -5.10485649109E-001 -2.56461650133E-002 +4.57905232906E-002 +1.06730894913E-005 +5.57743351237E-006 -3.99556905031E-002 +5.85203059018E-002 
+5.01000000000E+009 -1.18794597685E-001 -5.17261564732E-001 +3.42712998390E-002 +4.18255329132E-002 -9.21494859085E-007 -3.58950586588E-007 -3.34105305374E-002 +6.51418343186E-002 
+5.21000000000E+009 -1.36888876557E-001 -5.23445546627E-001 +5.16762584448E-002 -1.85620170087E-002 -1.59468145284E-005 +2.29935794778E-005 -2.59023029357E-002 +7.11471065879E-002 
+5.41000000000E+009 -1.54778271914E-001 -5.28410971165E-001 +1.27276580315E-003 -5.49462139606E-002 -1.17757454063E-005 +2.23396800720E-005 -1.71283297241E-002 +7.63331502676E-002 
+5.61000000000E+009 -1.72665238380E-001 -5.33174812794E-001 -5.27753382921E-002 -2.15771552175E-002 +3.88251100958E-006 +2.62501407633E-006 -7.42887938395E-003 +7.94310793281E-002 
+5.81000000000E+009 -1.89749315381E-001 -5.36920487881E-001 -3.82215231657E-002 +4.40571121871E-002 -2.65464441327E-005 -1.04746004581E-005 +3.09684802778E-003 +8.03412646055E-002 
+6.01000000000E+009 -2.06307366490E-001 -5.39783179760E-001 +2.81617082655E-002 +5.12795262039E-002 -1.24448197312E-005 +1.17581666927E-005 +1.42186619341E-002 +8.24143961072E-002 
+6.21000000000E+009 -2.22727477551E-001 -5.42311906815E-001 +6.05625510216E-002 -9.59033053368E-003 +4.23919254899E-006 -1.20654149214E-005 +2.48857103288E-002 +8.17324295640E-002 
+6.41000000000E+009 -2.38472461700E-001 -5.44200539589E-001 +9.03520360589E-003 -6.17467053235E-002 -2.02182272915E-005 -2.93468146992E-005 +3.63813266158E-002 +7.99224153161E-002 
+6.61000000000E+009 -2.54232227802E-001 -5.45562863350E-001 -5.53377196193E-002 -2.89708189666E-002 -1.42548451549E-005 -3.71582682419E-005 +4.74794022739E-002 +7.47792944312E-002 
+6.81000000000E+009 -2.69458293915E-001 -5.46569466591E-001 -4.64672930539E-002 +4.54104878008E-002 +1.07220030259E-005 +3.63472349818E-006 +5.83107322454E-002 +6.89184591174E-002 
+7.01000000000E+009 -2.84189492464E-001 -5.47116756439E-001 +3.08654550463E-002 +5.69869279861E-002 +6.74110697219E-006 -9.83004701993E-006 +6.82029128075E-002 +6.26925155520E-002 
+7.21000000000E+009 -2.98593044281E-001 -5.47021806240E-001 +6.26097321510E-002 -1.14719429985E-002 -1.02625181171E-005 -5.81913695896E-007 +7.73354843259E-002 +5.40758296847E-002 
+7.41000000000E+009 -3.12329143286E-001 -5.46976923943E-001 +7.06668570638E-003 -6.38131201267E-002 -4.09366002714E-005 -6.22153038421E-006 +8.65772664547E-002 +4.38885428011E-002 
+7.61000000000E+009 -3.25300991535E-001 -5.46183645725E-001 -5.71958236396E-002 -2.26020328701E-002 -1.45505555338E-005 +2.18118043449E-006 +9.28069055080E-002 +3.18503789604E-002 
+7.81000000000E+009 -3.38493406773E-001 -5.44802546501E-001 -3.73163148761E-002 +4.47226054966E-002 +3.14869721478E-005 +2.16231046579E-006 +9.83399227262E-002 +1.96919254959E-002 
+8.01000000000E+009 -3.50712627172E-001 -5.43296813965E-001 +3.14585417509E-002 +4.73519749939E-002 +3.87625323128E-006 -8.14282066131E-006 +1.01889774203E-001 +5.79086504877E-003 
+8.21000000000E+009 -3.62640559673E-001 -5.41393995285E-001 +4.98191490769E-002 -1.51246469468E-002 +4.70573468192E-006 +1.62371779879E-005 +1.03977628052E-001 -8.19182116538E-003 
+8.41000000000E+009 -3.74149978161E-001 -5.39290428162E-001 +2.40451772697E-003 -4.87413182855E-002 -1.57531285367E-005 -2.69861502602E-005 +1.03639476001E-001 -2.33328677714E-002 
+8.61000000000E+009 -3.85527193546E-001 -5.37416219711E-001 -4.36570420861E-002 -1.60959493369E-002 -1.38776176755E-005 -6.35794276604E-006 +1.00377254188E-001 -3.87753657997E-002 
+8.81000000000E+009 -3.96303743124E-001 -5.35340368748E-001 -2.64805480838E-002 +3.31693403423E-002 -3.52468873643E-006 -5.73167608309E-006 +9.49210971594E-002 -5.42597807944E-002 
+9.01000000000E+009 -4.06793504953E-001 -5.32920956612E-001 +2.05460172147E-002 +3.38429547846E-002 -1.31138413053E-005 +1.57931954163E-005 +8.82129073143E-002 -6.79005384445E-002 
+9.21000000000E+009 -4.16975289583E-001 -5.30554354191E-001 +3.58946546912E-002 -8.31805448979E-003 -7.19627132639E-006 -6.17336937125E-008 +7.83796384931E-002 -8.27774107456E-002 
+9.41000000000E+009 -4.26487982273E-001 -5.28290152550E-001 +3.92456538975E-003 -3.33176665008E-002 +4.78262290926E-006 -1.23270965560E-005 +6.58036544919E-002 -9.62498262525E-002 
+9.61000000000E+009 -4.35971707106E-001 -5.25579631329E-001 -2.80045941472E-002 -1.42875202000E-002 -6.79784261592E-006 -1.00766210380E-005 +5.06785511971E-002 -1.08441151679E-001 
+9.81000000000E+009 -4.44679588079E-001 -5.23544311523E-001 -2.09180377424E-002 +1.94573253393E-002 -4.29150668424E-006 +1.76344874490E-005 +3.55288386345E-002 -1.17602184415E-001 
+1.00100000000E+010 -4.53806072474E-001 -5.20831227303E-001 +1.02832028642E-002 +2.40934155881E-002 +8.19233628135E-006 +1.08871108750E-005 +1.86378732324E-002 -1.25452429056E-001 
+1.02100000000E+010 -4.62155431509E-001 -5.17858028412E-001 +2.36409977078E-002 -2.92624928989E-004 -5.52371921003E-006 -1.21536340885E-005 +4.84165619127E-004 -1.32256522775E-001 
+1.04100000000E+010 -4.70548808575E-001 -5.15212476254E-001 +7.96695239842E-003 -2.05834228545E-002 -6.54809809930E-006 +1.48984163388E-005 -2.01088637114E-002 -1.37659475207E-001 
+1.06100000000E+010 -4.78686451912E-001 -5.12367546558E-001 -1.48003017530E-002 -1.38134155422E-002 -1.44408375036E-006 +6.07870276781E-007 -4.16896753013E-002 -1.40135914087E-001 
+1.08100000000E+010 -4.85662132502E-001 -5.10273694992E-001 -1.72711461782E-002 +7.84746557474E-003 -4.59211423731E-006 -2.03500003408E-005 -6.34843781590E-002 -1.39650195837E-001 
+1.10100000000E+010 -4.93092983961E-001 -5.07485628128E-001 +7.16386013664E-004 +1.78696382791E-002 +2.06774166145E-005 -7.80773552833E-006 -8.54321122169E-002 -1.36164635420E-001 
+1.12100000000E+010 -4.99970346689E-001 -5.05510151386E-001 +1.58693473786E-002 +5.52570447326E-003 -2.86020531348E-006 -8.35658829601E-006 -1.09123960137E-001 -1.29696473479E-001 
+1.14100000000E+010 -5.07075309753E-001 -5.02661287785E-001 +1.02465348318E-002 -1.15942377597E-002 +1.59986154813E-006 +2.02256760531E-005 -1.32071435452E-001 -1.19595944881E-001 
+1.16100000000E+010 -5.12791097164E-001 -5.00253498554E-001 -6.31247228011E-003 -1.33524443954E-002 +1.84347336472E-005 +5.08892844664E-006 -1.53827786446E-001 -1.06299556792E-001 
+1.18100000000E+010 -5.19059836864E-001 -4.97733414173E-001 -1.38439889997E-002 +9.39323275816E-004 +7.76430386651E-009 -3.29625072482E-006 -1.73441022635E-001 -8.95271450281E-002 
+1.20100000000E+010 -5.25394856930E-001 -4.94783401489E-001 -4.26869094372E-003 +1.22043322772E-002 +2.83782701445E-005 +1.98372144951E-005 -1.90338656306E-001 -7.01769962907E-002 
+1.22100000000E+010 -5.31798005104E-001 -4.91524875164E-001 +9.30905528367E-003 +8.40077176690E-003 -1.51390404426E-005 -3.16702335112E-006 -2.07772672176E-001 -4.83667105436E-002 
+1.24100000000E+010 -5.37594676018E-001 -4.88738775253E-001 +1.05134025216E-002 -5.31974202022E-003 +1.17319841593E-005 -1.18208345157E-005 -2.22143054008E-001 -2.31113526970E-002 
+1.26100000000E+010 -5.43284356594E-001 -4.85904514790E-001 -6.95776077919E-004 -1.10058719292E-002 -7.83624273026E-006 -1.65602091329E-006 -2.32400521636E-001 +4.41537611187E-003 
+1.28100000000E+010 -5.48765003681E-001 -4.82899963856E-001 -1.00875459611E-002 -3.42528126203E-003 -3.45369358001E-006 -3.09592869598E-005 -2.38590434194E-001 +3.34215350449E-002 
+1.30100000000E+010 -5.54221570492E-001 -4.79272544384E-001 -6.45491620526E-003 +7.59172858670E-003 +1.67224607139E-005 -6.22318475507E-006 -2.42240399122E-001 +6.32816404104E-002 
+1.32100000000E+010 -5.59259057045E-001 -4.76229041815E-001 +4.06238669530E-003 +8.45236517489E-003 +4.60050287074E-005 +9.70865767158E-006 -2.42613449693E-001 +9.46660190821E-002 
+1.34100000000E+010 -5.64411342144E-001 -4.72403407097E-001 +9.12992190570E-003 -5.59296924621E-004 -4.40351050202E-006 +1.56125697686E-005 -2.38958522677E-001 +1.26296818256E-001 
+1.36100000000E+010 -5.67495286465E-001 -4.69088047743E-001 +2.65623861924E-003 -8.12534615397E-003 +2.61324948951E-005 +1.06240668174E-006 -2.31333464384E-001 +1.58995598555E-001 
+1.38100000000E+010 -5.72673022747E-001 -4.66439962387E-001 -6.02856278419E-003 -5.36873191595E-003 +6.73184786137E-006 +8.13478254713E-006 -2.18147262931E-001 +1.90921053290E-001 
+1.40100000000E+010 -5.77556371689E-001 -4.63415861130E-001 -7.04749254510E-003 +3.45314037986E-003 -6.61539979774E-006 +7.49213722884E-006 -2.01446190476E-001 +2.21856817603E-001 
+1.42100000000E+010 -5.82132816315E-001 -4.60652798414E-001 +5.86296082474E-004 +7.30045931414E-003 -2.29066281463E-005 -2.99834027828E-006 -1.81008949876E-001 +2.53089904785E-001 
+1.44100000000E+010 -5.86921036243E-001 -4.57168161869E-001 +6.53632823378E-003 +2.31543858536E-003 -2.91930450658E-006 +4.68292819278E-005 -1.55264869332E-001 +2.81472325325E-001 
+1.46100000000E+010 -5.90798377991E-001 -4.54282194376E-001 +4.48680901900E-003 -5.01661514863E-003 -4.56316456621E-006 -8.40702614369E-006 -1.24636791646E-001 +3.06884407997E-001 
+1.48100000000E+010 -5.94589471817E-001 -4.48975950480E-001 -2.77089141309E-003 -5.65684633330E-003 +1.95544962480E-005 +8.11850725313E-007 -9.17470529675E-002 +3.28731387854E-001 
+1.50100000000E+010 -5.96323907375E-001 -4.47962045670E-001 -5.93140162528E-003 +2.10968588362E-004 -8.25240294944E-006 -1.72713007487E-005 -5.62835223973E-002 +3.48066657782E-001 
+1.52100000000E+010 -5.99333584309E-001 -4.47150290012E-001 -2.01091216877E-003 +5.41731249541E-003 +1.81123759830E-005 +1.26640343296E-005 -1.76051184535E-002 +3.63125413656E-001 
+1.54100000000E+010 -6.03065431118E-001 -4.44992095232E-001 +3.99491284043E-003 +3.70109453797E-003 -2.23387105507E-005 -4.98590861753E-006 +2.45159268379E-002 +3.73195767403E-001 
+1.56100000000E+010 -6.06899201870E-001 -4.41488593817E-001 +4.76203905419E-003 -2.03774543479E-003 -2.71498465736E-005 -6.17033992967E-006 +6.83251619339E-002 +3.77565860748E-001 
+1.58100000000E+010 -6.08229577541E-001 -4.40562486649E-001 -7.81065973570E-005 -5.03261713311E-003 -3.73122384190E-005 +3.27606539940E-005 +1.12087577581E-001 +3.77942472696E-001 
+1.60100000000E+010 -6.10708236694E-001 -4.39093172550E-001 -4.37481701374E-003 -1.71699968632E-003 +2.06567037822E-005 -1.33251769512E-005 +1.57087728381E-001 +3.72908890247E-001 
+1.62100000000E+010 -6.13167762756E-001 -4.37421232462E-001 -3.21852578782E-003 +3.14531568438E-003 +7.99278859631E-006 +1.27370176415E-005 +2.04355180264E-001 +3.62647920847E-001 
+1.64100000000E+010 -6.15366876125E-001 -4.35750603676E-001 +1.58771802671E-003 +4.06667822972E-003 -2.63029562575E-007 -1.84828877536E-005 +2.50967949629E-001 +3.46436321735E-001 
+1.66100000000E+010 -6.18850231171E-001 -4.33843821287E-001 +4.14521852508E-003 +7.84301082604E-005 -2.15226064029E-005 -2.21230402531E-005 +2.94687807560E-001 +3.22863429785E-001 
+1.68100000000E+010 -6.22139811516E-001 -4.31330889463E-001 +1.72074395232E-003 -3.55809368193E-003 +2.16876815102E-005 -1.47408336488E-005 +3.37741315365E-001 +2.95552045107E-001 
+1.70100000000E+010 -6.23867571354E-001 -4.28904145956E-001 -2.57306452841E-003 -2.85065500066E-003 +1.32721752379E-005 +2.24381219596E-005 +3.77603322268E-001 +2.64191418886E-001 
+1.72100000000E+010 -6.26268446445E-001 -4.26769673824E-001 -3.37701477110E-003 +1.15831184667E-003 +5.14243074576E-005 -3.25754845107E-005 +4.15023773909E-001 +2.25772589445E-001 
+1.74100000000E+010 -6.29336416721E-001 -4.24772500992E-001 -2.91711534373E-004 +3.49568808451E-003 +2.38012962654E-005 -3.29265494656E-005 +4.48371976614E-001 +1.82961523533E-001 
+1.76100000000E+010 -6.32033526897E-001 -4.22332495451E-001 +2.94676469639E-003 +1.56782579143E-003 -2.86373760900E-005 -3.57942662959E-005 +4.76085752249E-001 +1.37026563287E-001 
+1.78100000000E+010 -6.35017454624E-001 -4.20104563236E-001 +2.40102293901E-003 -2.00891448185E-003 +1.91143481061E-005 -1.31539563881E-005 +4.99534666538E-001 +8.84618386626E-002 
+1.80100000000E+010 -6.37348890305E-001 -4.17650163174E-001 -8.05513584055E-004 -2.95425299555E-003 -2.65552080236E-005 +1.19987880680E-005 +5.18874108791E-001 +3.73620018363E-002 
+1.82100000000E+010 -6.40090584755E-001 -4.15656119585E-001 -2.94564617798E-003 -3.85376391932E-004 -6.99058728060E-006 +2.90333741759E-006 +5.31539857388E-001 -1.69357825071E-002 
+1.84100000000E+010 -6.42694830894E-001 -4.13825750351E-001 -1.42712262459E-003 +2.43025762029E-003 -2.80351905531E-005 -4.58341637568E-005 +5.37649512291E-001 -7.40876719356E-002 
+1.86100000000E+010 -6.45611822605E-001 -4.11669284105E-001 +1.58147781622E-003 +2.21269275062E-003 +4.39472387370E-006 -1.88743379113E-005 +5.37953495979E-001 -1.30425781012E-001 
+1.88100000000E+010 -6.47966146469E-001 -4.09309774637E-001 +2.60329572484E-003 -5.99482329562E-004 -1.17805147966E-005 +1.98571033252E-005 +5.32202303410E-001 -1.86908647418E-001 
+1.90100000000E+010 -6.49781584740E-001 -4.07442361116E-001 +4.42548451247E-004 -2.44328379631E-003 -1.50468777065E-005 +2.45895134867E-005 +5.20431458950E-001 -2.43005812168E-001 
+1.92100000000E+010 -6.52279257774E-001 -4.06242102385E-001 -1.98888219893E-003 -1.39407592360E-003 +1.46576130646E-005 -1.24531425172E-005 +5.02438068390E-001 -3.00410866737E-001 
+1.94100000000E+010 -6.54970407486E-001 -4.03844356537E-001 -1.99548969977E-003 +1.26554328017E-003 -5.01146178067E-006 -2.70083364740E-005 +4.77008908987E-001 -3.54858517647E-001 
+1.96100000000E+010 -6.55840635300E-001 -4.01447296143E-001 +3.37856647093E-004 +2.21201265231E-003 +1.40232232297E-005 +1.22557112263E-005 +4.46333020926E-001 -4.06802237034E-001 
+1.98100000000E+010 -6.55261337757E-001 -3.98516327143E-001 +2.06008343957E-003 +5.63867797609E-004 +1.41597820402E-005 +8.34667025629E-006 +4.11628454924E-001 -4.54100936651E-001 
+2.00100000000E+010 -6.54383778572E-001 -3.97739112377E-001 +1.31234969012E-003 -1.65500922594E-003 +1.75434308858E-006 -2.82115743175E-005 +3.69955629110E-001 -5.00378370285E-001 
