!;Filter: kein Filter
!auto
!3/21/2019 9:26:39 AM
!3/21/2019 9:26:51 AM
!SP-Measurements Prober G4
!SP-Measurements Prober G4
!01103_448C
!134
!233
!12
!40
!-20
!0.00099996
!1.65
!0.05816927
!0.05816927
# Hz S  RI   R 50
+1.00000000000E+007 +5.07376730442E-001 +3.89233650640E-003 +4.11141589284E-002 -1.65641531348E-002 +4.36601549154E-005 -9.40398022067E-004 +5.43706538156E-003 +1.62657830515E-004 
+2.10000000000E+008 +5.15166044235E-001 -4.96475957334E-002 -2.85249971785E-003 -4.20027002692E-002 +5.67290262552E-005 -1.00068151369E-004 +8.58683604747E-003 -4.72703622654E-003 
+4.10000000000E+008 +5.09980916977E-001 -9.96628701687E-002 -3.95394712687E-002 -1.11926719546E-002 -5.15125539096E-005 -6.44023239147E-005 +9.99042671174E-003 -7.03995162621E-003 
+6.10000000000E+008 +4.99945133924E-001 -1.47728055716E-001 -2.38456688821E-002 +3.27848568559E-002 +2.65163307631E-005 +2.44126604230E-005 +9.97283961624E-003 -1.16822924465E-002 
+8.10000000000E+008 +4.86165702343E-001 -1.93893834949E-001 +2.26355325431E-002 +3.36287692189E-002 +6.61571220917E-006 +1.94607200683E-005 +6.92224642262E-003 -1.52571490034E-002 
+1.01000000000E+009 +4.69012349844E-001 -2.37367793918E-001 +3.96694242954E-002 -9.47509147227E-003 +4.47812726634E-006 +8.92349635251E-006 +2.89518642239E-003 -1.91129725426E-002 
+1.21000000000E+009 +4.49523448944E-001 -2.78904914856E-001 +5.00336010009E-003 -4.04950007796E-002 -3.94268727177E-006 -5.65379268664E-005 -1.74414995126E-003 -2.12376080453E-002 
+1.41000000000E+009 +4.28148329258E-001 -3.17717760801E-001 -3.76246422529E-002 -1.90622415394E-002 +2.71886528935E-005 +3.67057600670E-006 -7.31019536033E-003 -2.44709774852E-002 
+1.61000000000E+009 +4.05424624681E-001 -3.54314714670E-001 -3.14405709505E-002 +2.97456812114E-002 -5.63814819543E-006 +4.66815181426E-005 -1.37641709298E-002 -2.67136413604E-002 
+1.81000000000E+009 +3.80096644163E-001 -3.88721406460E-001 +1.74435134977E-002 +3.99940796196E-002 -1.10308683361E-005 +4.69611495646E-006 -1.75876878202E-002 -2.78015956283E-002 
+2.01000000000E+009 +3.54790925980E-001 -4.21328634024E-001 +4.45323809981E-002 -4.60145901889E-003 +1.30797079692E-005 -5.72341878069E-006 -2.31508649886E-002 -2.67435647547E-002 
+2.21000000000E+009 +3.27571302652E-001 -4.50205266476E-001 +1.22393677011E-002 -4.49562743306E-002 +4.35223398654E-007 -1.30877060656E-005 -2.87104472518E-002 -2.45343446732E-002 
+2.41000000000E+009 +2.99343973398E-001 -4.76290553808E-001 -3.84436510503E-002 -2.85863708705E-002 -2.53810248978E-005 +1.56974983838E-005 -3.54410521686E-002 -2.22407802939E-002 
+2.61000000000E+009 +2.72303193808E-001 -5.01731634140E-001 -4.14731167257E-002 +3.11543717980E-002 -6.51744039715E-006 +3.55934935214E-005 -4.07248549163E-002 -1.93166378886E-002 
+2.81000000000E+009 +2.44688481092E-001 -5.24870574474E-001 +1.91310942173E-002 +5.30926659703E-002 +2.82126566162E-005 -2.73922487395E-005 -4.46491986513E-002 -1.44245950505E-002 
+3.01000000000E+009 +2.16312542558E-001 -5.45532107353E-001 +6.07214272022E-002 -1.27610936761E-003 +3.07201407850E-005 -2.06968684324E-006 -4.85116094351E-002 -8.69103334844E-003 
+3.21000000000E+009 +1.86829388142E-001 -5.67599773407E-001 +8.69405921549E-003 -6.48703873158E-002 +2.99457788060E-005 -1.65959681908E-005 -5.23864142597E-002 -2.25238455459E-003 
+3.41000000000E+009 +1.56981095672E-001 -5.87011098862E-001 -6.79325237870E-002 -2.20000464469E-002 +4.33379045717E-006 -8.65803576744E-006 -5.54136335850E-002 +4.85973479226E-003 
+3.61000000000E+009 +1.24761320651E-001 -6.04366242886E-001 -3.20048220456E-002 +6.78762495518E-002 +6.85643817633E-006 +1.57949179993E-005 -5.71997724473E-002 +1.17840375751E-002 
+3.81000000000E+009 +9.07853394747E-002 -6.16209268570E-001 +5.92393018305E-002 +3.67826521397E-002 +3.37960154866E-005 +1.64055236382E-005 -5.69733157754E-002 +1.91407185048E-002 
+4.01000000000E+009 +5.98183013499E-002 -6.25214934349E-001 +4.42852489650E-002 -4.92957532406E-002 +2.73590394499E-005 -2.85356145469E-005 -5.59509620070E-002 +2.70352680236E-002 
+4.21000000000E+009 +3.03427372128E-002 -6.31350398064E-001 -3.67906764150E-002 -4.86551113427E-002 -8.99884162209E-006 -1.85594708455E-005 -5.39901144803E-002 +3.58067564666E-002 
+4.41000000000E+009 +3.60674760304E-003 -6.35277986526E-001 -4.68344800174E-002 +1.99597682804E-002 -1.62649430422E-005 +2.94020683214E-005 -5.08080497384E-002 +4.41766269505E-002 
+4.61000000000E+009 -2.17882283032E-002 -6.39100909233E-001 +7.12712248787E-003 +4.44000512362E-002 +3.59111618309E-005 +1.04974506030E-005 -4.66543920338E-002 +5.14106638730E-002 
+4.81000000000E+009 -4.63189557195E-002 -6.42482876778E-001 +3.97073663771E-002 +5.22915879264E-003 -4.01935431000E-005 -1.51706444740E-005 -4.00348566473E-002 +5.86717277765E-002 
+5.01000000000E+009 -6.92604184151E-002 -6.45276904106E-001 +1.29911182448E-002 -3.06222308427E-002 +3.42813473253E-006 +6.68285292704E-006 -3.34924757481E-002 +6.52796849608E-002 
+5.21000000000E+009 -9.11658704281E-002 -6.48292958736E-001 -2.02620700002E-002 -1.89095009118E-002 -3.33645984938E-005 -1.10914243123E-005 -2.59471312165E-002 +7.13250115514E-002 
+5.41000000000E+009 -1.12889468670E-001 -6.50435388088E-001 -2.22535282373E-002 +1.09373154119E-002 -2.13343082578E-005 +1.90327209566E-005 -1.71425286680E-002 +7.65399783850E-002 
+5.61000000000E+009 -1.34473696351E-001 -6.52186155319E-001 +2.76136025786E-003 +2.12768316269E-002 +2.40430890699E-005 +1.91321778402E-005 -7.37512158230E-003 +7.96752423048E-002 
+5.81000000000E+009 -1.54920637608E-001 -6.53271317482E-001 +1.78716611117E-002 +4.79176966473E-003 -1.96956625587E-005 +4.78399169879E-006 +3.09987668879E-003 +8.05277228355E-002 
+6.01000000000E+009 -1.74804642797E-001 -6.53486013412E-001 +9.98014863580E-003 -1.36605482548E-002 -7.90313606558E-006 +4.62172738480E-006 +1.42926238477E-002 +8.25934857130E-002 
+6.21000000000E+009 -1.94198772311E-001 -6.53128802776E-001 -8.37478134781E-003 -1.23358890414E-002 -3.01967293126E-006 +5.30261513632E-006 +2.49834600836E-002 +8.18941220641E-002 
+6.41000000000E+009 -2.12671726942E-001 -6.52369201183E-001 -1.27598438412E-002 +2.55823647603E-003 -2.47071930062E-005 +8.87520036486E-006 +3.65125238895E-002 +8.00885632634E-002 
+6.61000000000E+009 -2.31093421578E-001 -6.51231408119E-001 -2.27868859656E-003 +1.16358306259E-002 +1.08190733954E-005 +1.42706335282E-006 +4.76234853268E-002 +7.49219432473E-002 
+6.81000000000E+009 -2.48735696077E-001 -6.49658322334E-001 +8.97564273328E-003 +5.72856795043E-003 +1.47150294652E-005 +2.15194777411E-005 +5.85003681481E-002 +6.89852237701E-002 
+7.01000000000E+009 -2.65693932772E-001 -6.47723674774E-001 +7.90581014007E-003 -5.41116576642E-003 -2.13572566281E-005 -2.43339345616E-005 +6.84083104134E-002 +6.27704784274E-002 
+7.21000000000E+009 -2.82279044390E-001 -6.45309686661E-001 -1.74234108999E-003 -8.61540995538E-003 +1.14837112051E-005 +9.76478895609E-006 +7.75160193443E-002 +5.41611947119E-002 
+7.41000000000E+009 -2.98018127680E-001 -6.42875552177E-001 -8.00214614719E-003 -1.42937758937E-003 +3.08884009428E-005 +1.03265037978E-005 +8.68245512247E-002 +4.39396686852E-002 
+7.61000000000E+009 -3.12859147787E-001 -6.39864683151E-001 -4.02008183300E-003 +6.18924340233E-003 +2.48057085628E-006 -2.10348262044E-005 +9.30604189634E-002 +3.18337380886E-002 
+7.81000000000E+009 -3.27920407057E-001 -6.36313676834E-001 +3.82760027424E-003 +5.63332671300E-003 +4.10121829191E-005 +1.86192733054E-006 +9.85580831766E-002 +1.96382869035E-002 
+8.01000000000E+009 -3.41929286718E-001 -6.32619142532E-001 +6.12307619303E-003 -1.28146971110E-003 -2.78015522781E-006 -3.97540543418E-006 +1.02132692933E-001 +5.70442248136E-003 
+8.21000000000E+009 -3.55494499207E-001 -6.28538072109E-001 +1.04874803219E-003 -5.68986637518E-003 -1.37434080898E-005 -4.26304068242E-005 +1.04222975671E-001 -8.33724625409E-003 
+8.41000000000E+009 -3.68579000235E-001 -6.24205589294E-001 -4.44974051788E-003 -2.95804208145E-003 -5.41820336366E-005 +2.36762061832E-005 +1.03911936283E-001 -2.34903823584E-002 
+8.61000000000E+009 -3.81396949291E-001 -6.20106697083E-001 -4.22043493018E-003 +2.75331153534E-003 -8.06115986052E-006 -1.88784215425E-005 +1.00587382913E-001 -3.89831550419E-002 
+8.81000000000E+009 -3.93521010876E-001 -6.15961432457E-001 +9.36883734539E-004 +4.55946242437E-003 -1.69275390363E-005 -1.84519485629E-005 +9.51114967465E-002 -5.44623322785E-002 
+9.01000000000E+009 -4.05266016722E-001 -6.11386418343E-001 +4.23319498077E-003 +9.10400820430E-004 +4.83061121486E-005 -2.01408261091E-006 +8.83742049336E-002 -6.81289657950E-002 
+9.21000000000E+009 -4.16625291109E-001 -6.06898069382E-001 +2.28605163284E-003 -3.35903861560E-003 -9.40012159845E-006 +1.15656284834E-005 +7.85186886787E-002 -8.30465853214E-002 
+9.41000000000E+009 -4.27158653736E-001 -6.02449953556E-001 -2.08106660284E-003 -3.14480811357E-003 +2.87400980596E-005 -1.85727330972E-005 +6.58810287714E-002 -9.65479016304E-002 
+9.61000000000E+009 -4.37558531761E-001 -5.97696840763E-001 -3.42644378543E-003 +5.22175570950E-004 +1.93644700630E-005 -5.57248604309E-005 +5.07086627185E-002 -1.08689747751E-001 
+9.81000000000E+009 -4.47123795748E-001 -5.93575894833E-001 -8.12244543340E-004 +3.24835767969E-003 +1.12347606773E-005 -2.29741272051E-005 +3.54984886944E-002 -1.17923535407E-001 
+1.00100000000E+010 -4.56924557686E-001 -5.88909149170E-001 +2.51102680340E-003 +1.81415048428E-003 +2.31857684412E-005 +6.09451899436E-006 +1.86251532286E-002 -1.25782847404E-001 
+1.02100000000E+010 -4.65874493122E-001 -5.83979189396E-001 +2.52196053043E-003 -1.46578135900E-003 +3.45191510860E-005 -1.38582554428E-005 +3.62765218597E-004 -1.32593303919E-001 
+1.04100000000E+010 -4.74790483713E-001 -5.79521298409E-001 -3.20198712870E-004 -2.77412356809E-003 +5.78377012062E-006 -2.20153251576E-005 -2.02773828059E-002 -1.37990608811E-001 
+1.06100000000E+010 -4.83450651169E-001 -5.74958086014E-001 -2.55581247620E-003 -6.69687637128E-004 -2.93218727165E-005 +3.95064853365E-006 -4.18717935681E-002 -1.40416607261E-001 
+1.08100000000E+010 -4.90868061781E-001 -5.71084558964E-001 -1.52504758444E-003 +1.85672321822E-003 -2.87546754407E-005 -1.43325414683E-005 -6.37388974428E-002 -1.39981403947E-001 
+1.10100000000E+010 -4.98698800802E-001 -5.66540360451E-001 +1.04404997546E-003 +2.05751787871E-003 -7.27583619664E-006 +1.58360835485E-005 -8.57218652964E-002 -1.36410206556E-001 
+1.12100000000E+010 -5.05894064903E-001 -5.62938749790E-001 +2.15344922617E-003 -2.09201229154E-004 +1.50090854731E-005 -8.16793635749E-006 -1.09465628862E-001 -1.29987314343E-001 
+1.14100000000E+010 -5.13247489929E-001 -5.58367908001E-001 +6.89423992299E-004 -1.93218735512E-003 +1.95439770323E-005 +6.46368243906E-006 -1.32456526160E-001 -1.19746498764E-001 
+1.16100000000E+010 -5.19131243229E-001 -5.54428756237E-001 -1.44405430183E-003 -1.32669624873E-003 +4.20500373366E-006 -9.39919342358E-009 -1.54208660126E-001 -1.06472209096E-001 
+1.18100000000E+010 -5.25519907475E-001 -5.50456166267E-001 -1.67570589110E-003 +7.67665449530E-004 +3.41804043273E-005 -2.38610427914E-005 -1.73877879977E-001 -8.96032303572E-002 
+1.20100000000E+010 -5.31976461411E-001 -5.45986711979E-001 +7.24900382920E-005 +1.75911199767E-003 -2.55483391811E-005 +1.00200941233E-005 -1.90826162696E-001 -7.01335966587E-002 
+1.22100000000E+010 -5.38469731808E-001 -5.41300714016E-001 +1.54026539531E-003 +5.69833209738E-004 +1.33494495458E-005 -2.91257510980E-005 -2.08283424377E-001 -4.82440702617E-002 
+1.24100000000E+010 -5.44257700443E-001 -5.37155568600E-001 +1.09268573578E-003 -1.15521135740E-003 -1.18923007904E-005 -3.80439778382E-005 -2.22607195377E-001 -2.29735933244E-002 
+1.26100000000E+010 -5.49940884113E-001 -5.32842636108E-001 -5.79043000471E-004 -1.39493623283E-003 +5.06542528456E-006 +2.75460820376E-006 -2.32850134373E-001 +4.57488326356E-003 
+1.28100000000E+010 -5.55313050747E-001 -5.28445661068E-001 -1.48451270070E-003 +4.04586535296E-006 +4.95859603689E-006 -3.34508367814E-005 -2.39051491022E-001 +3.37112247944E-002 
+1.30100000000E+010 -5.60608923435E-001 -5.23600101471E-001 -5.64150745049E-004 +1.25247600954E-003 -2.44313978328E-005 +6.02546242590E-006 -2.42605939507E-001 +6.36032819748E-002 
+1.32100000000E+010 -5.65406143665E-001 -5.19199252129E-001 +8.42602923512E-004 +9.64673643466E-004 +1.89985621546E-005 -5.11377174917E-006 -2.42939859629E-001 +9.50601100922E-002 
+1.34100000000E+010 -5.70273220539E-001 -5.14217138290E-001 +1.21736782603E-003 -4.41457726993E-004 -6.61535959807E-005 +1.40160200317E-005 -2.39252194762E-001 +1.26747131348E-001 
+1.36100000000E+010 -5.73165416718E-001 -5.09923815727E-001 +5.74011901335E-005 -1.14130531438E-003 +2.61208442680E-005 +2.78083425655E-005 -2.31596976519E-001 +1.59468278289E-001 
+1.38100000000E+010 -5.77949881554E-001 -5.06169974804E-001 -9.48470493313E-004 -5.34078164492E-004 -1.73891967279E-005 +1.19401438496E-005 -2.18344837427E-001 +1.91416442394E-001 
+1.40100000000E+010 -5.82529425621E-001 -5.02112746239E-001 -8.51835415233E-004 +6.93008536473E-004 +3.38563004334E-005 -1.27013217934E-005 -2.01564222574E-001 +2.22395241261E-001 
+1.42100000000E+010 -5.86603581905E-001 -4.98390555382E-001 +3.22678912198E-004 +9.83010511845E-004 -3.63069484592E-005 +1.39790035973E-005 -1.81060791016E-001 +2.53596723080E-001 
+1.44100000000E+010 -5.90906143188E-001 -4.93930578232E-001 +9.65210201684E-004 +1.25181933981E-004 -3.39902362612E-005 -2.64138161583E-005 -1.55209660530E-001 +2.82042056322E-001 
+1.46100000000E+010 -5.94288885593E-001 -4.90256875753E-001 +4.84649091959E-004 -8.11801000964E-004 -1.81877585419E-005 -1.50961732288E-005 -1.24589204788E-001 +3.07438075542E-001 
+1.48100000000E+010 -5.97413003445E-001 -4.84200090170E-001 -5.28252217919E-004 -7.54817621782E-004 -9.56930034590E-006 -9.30715395953E-006 -9.15308296680E-002 +3.29298436642E-001 
+1.50100000000E+010 -5.98709106445E-001 -4.82625812292E-001 -8.41545523144E-004 +1.89148820937E-004 -1.88092799362E-005 -1.85800981853E-005 -5.59988021851E-002 +3.48604947329E-001 
+1.52100000000E+010 -6.01127684116E-001 -4.81242924929E-001 -1.82303003385E-004 +7.88042671047E-004 +2.10491748476E-006 -4.28657540397E-006 -1.71935316175E-002 +3.63611698151E-001 
+1.54100000000E+010 -6.04310810566E-001 -4.78654980659E-001 +6.58361241221E-004 +4.45556041086E-004 -1.31168144435E-005 +3.87487270928E-005 +2.49929912388E-002 +3.73583704233E-001 
+1.56100000000E+010 -6.07569456100E-001 -4.74771916866E-001 +6.53415278066E-004 -3.96401417674E-004 -1.96915189008E-005 -1.82333205885E-005 +6.88132122159E-002 +3.77877324820E-001 
+1.58100000000E+010 -6.08490347862E-001 -4.73717004061E-001 -1.09467211587E-004 -7.48598889913E-004 +2.17374526983E-005 -2.61833138211E-005 +1.12709589303E-001 +3.78215521574E-001 
+1.60100000000E+010 -6.10587656498E-001 -4.71998006105E-001 -6.44885702059E-004 -1.87015015399E-004 -7.60382181397E-006 -6.30339718555E-006 +1.57677680254E-001 +3.73055160046E-001 
+1.62100000000E+010 -6.12614750862E-001 -4.70105767250E-001 -4.20523632783E-004 +5.26070478372E-004 -6.69183964419E-006 -1.08638578240E-005 +2.04998478293E-001 +3.62783670425E-001 
+1.64100000000E+010 -6.14427626133E-001 -4.68363493681E-001 +3.46203218214E-004 +5.99145889282E-004 -1.43720922097E-006 +1.38255609272E-006 +2.51618951559E-001 +3.46448928118E-001 
+1.66100000000E+010 -6.17764770985E-001 -4.66475814581E-001 +5.73413679376E-004 -4.41812480858E-005 -2.14476913243E-005 +6.38420460746E-005 +2.95405745506E-001 +3.22800815105E-001 
+1.68100000000E+010 -6.20894134045E-001 -4.63860124350E-001 +1.53455301188E-004 -5.85964589845E-004 -2.10063844861E-005 -3.56384407496E-005 +3.38407337666E-001 +2.95378834009E-001 
+1.70100000000E+010 -6.22455775738E-001 -4.61529582739E-001 -4.39173716586E-004 -3.81878839107E-004 -2.99983166769E-005 +6.41809892841E-005 +3.78260999918E-001 +2.63874709606E-001 
+1.72100000000E+010 -6.24790251255E-001 -4.59448546171E-001 -4.77413123008E-004 +2.61303328443E-004 +8.18276203063E-006 +1.22369337987E-005 +4.15751993656E-001 +2.25359961390E-001 
+1.74100000000E+010 -6.27937197685E-001 -4.57392781973E-001 +4.63482183477E-006 +5.71341428440E-004 +4.74631924590E-005 -2.26165102504E-005 +4.48876023293E-001 +1.82468086481E-001 
+1.76100000000E+010 -6.30812883377E-001 -4.55080002546E-001 +4.85081720399E-004 +2.09612815524E-004 -6.82394093019E-005 -6.97218201822E-005 +4.76674050093E-001 +1.36478424072E-001 
+1.78100000000E+010 -6.33906543255E-001 -4.52783375978E-001 +3.30127048073E-004 -3.24962107698E-004 -4.75421211377E-006 +7.94776224211E-006 +4.99946385622E-001 +8.77873748541E-002 
+1.80100000000E+010 -6.36377990246E-001 -4.50201749802E-001 -1.13608577522E-004 -4.60260227555E-004 +4.83041148982E-005 +1.51099457071E-005 +5.19252777100E-001 +3.67213264108E-002 
+1.82100000000E+010 -6.39299273491E-001 -4.48103964329E-001 -4.96626249515E-004 -2.82615237666E-005 -1.70599232661E-005 -4.75738630712E-007 +5.31805992126E-001 -1.77187882364E-002 
+1.84100000000E+010 -6.42171204090E-001 -4.46173965931E-001 -1.80903560249E-004 +3.49307578290E-004 -3.33864991262E-005 -3.21613129017E-006 +5.37819266319E-001 -7.48345181346E-002 
+1.86100000000E+010 -6.45238041878E-001 -4.43902045488E-001 +2.35536659602E-004 +2.88761366392E-004 -2.44386374106E-005 +5.47576019017E-005 +5.37985324860E-001 -1.31211683154E-001 
+1.88100000000E+010 -6.47797763348E-001 -4.41287189722E-001 +4.18508279836E-004 -1.44160716445E-004 -6.47930983178E-006 -2.63055953837E-005 +5.32129883766E-001 -1.87656134367E-001 
+1.90100000000E+010 -6.49710178375E-001 -4.39132809639E-001 +6.66520936647E-005 -4.04214428272E-004 -6.73895847285E-005 -1.00301767816E-005 +5.20185410976E-001 -2.43843972683E-001 
+1.92100000000E+010 -6.52444720268E-001 -4.37706798315E-001 -3.31918330630E-004 -1.93006286281E-004 +3.14521785185E-005 +2.85695241473E-005 +5.02192616463E-001 -3.01088690758E-001 
+1.94100000000E+010 -6.55280590057E-001 -4.35157388449E-001 -2.73861893220E-004 +2.40457302425E-004 +5.74929799768E-006 -2.89948252430E-006 +4.76686656475E-001 -3.55609774590E-001 
+1.96100000000E+010 -6.56286656857E-001 -4.32626456022E-001 +2.87449511234E-005 +3.68588516722E-004 +2.43214508373E-005 +4.51260530099E-006 +4.45874422789E-001 -4.07442092896E-001 
+1.98100000000E+010 -6.56153202057E-001 -4.29574221373E-001 +3.51797963958E-004 +7.01962926541E-005 -1.80118076969E-005 -8.21185767563E-006 +4.11094427109E-001 -4.54656749964E-001 
+2.00100000000E+010 -6.55862390995E-001 -4.28082436323E-001 +2.36455482082E-004 -2.87050090265E-004 -3.14805620292E-005 -1.76142166310E-005 +3.69321852922E-001 -5.00974893570E-001 
