!;Filter: kein Filter
!auto
!3/21/2019 9:27:54 AM
!3/21/2019 9:28:10 AM
!SP-Measurements Prober G4
!SP-Measurements Prober G4
!01103_448C
!134
!237
!12
!40
!-20
!0.00599970
!2.02
!0.74959551
!0.74959551
# Hz S  RI   R 50
+1.00000000000E+007 +1.05640128255E-001 +7.45502393693E-003 +5.90699985623E-002 -2.29430310428E-002 +3.32163530402E-004 +3.83667007554E-004 +5.50108868629E-003 +1.38737098314E-003 
+2.10000000000E+008 +1.24779589474E-001 -2.03229282051E-002 -1.18252988614E-004 -6.15807399154E-002 +2.68760104518E-005 +5.14752136951E-005 +8.60695913434E-003 -4.73813898861E-003 
+4.10000000000E+008 +1.26121327281E-001 -4.80994097888E-002 -5.76595291495E-002 -2.31687929481E-002 +1.57585182023E-005 -1.30801699925E-005 +9.95760038495E-003 -7.04347295687E-003 
+6.10000000000E+008 +1.24200358987E-001 -7.50343650579E-002 -4.18068990111E-002 +4.59846742451E-002 -1.65256169566E-005 +5.44801878277E-006 +9.93954483420E-003 -1.16308750585E-002 
+8.10000000000E+008 +1.19749866426E-001 -1.01973704994E-001 +2.78709195554E-002 +5.62241896987E-002 -1.98857906071E-005 +4.27018221671E-006 +6.81733246893E-003 -1.52472248301E-002 
+1.01000000000E+009 +1.13603852689E-001 -1.27736628056E-001 +6.44740685821E-002 -6.46001566201E-003 +5.94751327299E-006 -9.50901085162E-006 +2.82094534487E-003 -1.90129689872E-002 
+1.21000000000E+009 +1.05968050659E-001 -1.52843654156E-001 +1.54864434153E-002 -6.13355077803E-002 +4.27687882620E-005 -1.00709594335E-005 -1.70529237948E-003 -2.11480613798E-002 
+1.41000000000E+009 +9.66182947159E-002 -1.77503585815E-001 -5.12483119965E-002 -3.67925502360E-002 +2.13725634239E-005 -8.27399890113E-006 -7.33794318512E-003 -2.43913382292E-002 
+1.61000000000E+009 +8.67418348789E-002 -2.01064676046E-001 -5.30242547393E-002 +3.59959639609E-002 -3.72053909814E-005 -7.48617821955E-006 -1.37498369440E-002 -2.66162268817E-002 
+1.81000000000E+009 +7.50068873167E-002 -2.23551973701E-001 +1.42676047981E-002 +6.06838352978E-002 -3.71996684407E-005 +2.05503897632E-006 -1.75477899611E-002 -2.76485178620E-002 
+2.01000000000E+009 +6.30429759622E-002 -2.44971975684E-001 +6.20808489621E-002 +9.58405993879E-003 +1.52643258389E-006 -2.61085660895E-005 -2.31097973883E-002 -2.66008432955E-002 
+2.21000000000E+009 +4.99065816402E-002 -2.65666693449E-001 +3.01135107875E-002 -5.57705126703E-002 +7.26346797819E-006 +4.77197409054E-006 -2.86682955921E-002 -2.44581177831E-002 
+2.41000000000E+009 +3.56737971306E-002 -2.84743517637E-001 -3.98933030665E-002 -4.73665632308E-002 -1.00637344076E-005 +8.48599665915E-006 -3.53842936456E-002 -2.21407953650E-002 
+2.61000000000E+009 +2.13295947760E-002 -3.02745163441E-001 -5.96270710230E-002 +1.98688097298E-002 -2.05730884772E-006 -1.40539050335E-005 -4.06064055860E-002 -1.91827174276E-002 
+2.81000000000E+009 +6.26207422465E-003 -3.19707542658E-001 -1.39607419260E-003 +6.27144128084E-002 +1.09775319288E-005 -2.24367813644E-005 -4.45185489953E-002 -1.43596604466E-002 
+3.01000000000E+009 -9.34956502169E-003 -3.35265427828E-001 +5.66783659160E-002 +2.43871230632E-002 +8.82775566424E-006 -4.26710994361E-006 -4.83543425798E-002 -8.66690650582E-003 
+3.21000000000E+009 -2.49235592782E-002 -3.49937051535E-001 +4.43718545139E-002 -4.47381064296E-002 -8.01076203061E-006 -1.95681914192E-005 -5.22159226239E-002 -2.23862426355E-003 
+3.41000000000E+009 -4.05991673470E-002 -3.63715231419E-001 -2.69104037434E-002 -5.65933920443E-002 -3.74008959625E-006 -1.07026608021E-005 -5.52117004991E-002 +4.83822263777E-003 
+3.61000000000E+009 -5.64309135079E-002 -3.76362025738E-001 -6.20937421918E-002 +3.58614185825E-003 -1.21642224258E-005 -1.58764760272E-005 -5.69191798568E-002 +1.17893218994E-002 
+3.81000000000E+009 -7.24709406495E-002 -3.88025462627E-001 -1.94972325116E-002 +6.08105771244E-002 -1.03790025605E-005 -2.24431187235E-005 -5.66968545318E-002 +1.90585143864E-002 
+4.01000000000E+009 -8.83045569062E-002 -3.99064302444E-001 +5.00324256718E-002 +3.85986641049E-002 +1.45024041558E-005 +3.55812480848E-005 -5.57510927320E-002 +2.69023310393E-002 
+4.21000000000E+009 -1.04199722409E-001 -4.08849775791E-001 +5.46800494194E-002 -3.17254401743E-002 +9.38750690693E-006 +5.31331306775E-006 -5.37586174905E-002 +3.56293953955E-002 
+4.41000000000E+009 -1.19944810867E-001 -4.17998045683E-001 -1.06860045344E-002 -6.42258226871E-002 +1.77696492756E-005 +1.32569921334E-005 -5.05784563720E-002 +4.39840257168E-002 
+4.61000000000E+009 -1.35608077049E-001 -4.26289677620E-001 -6.32978826761E-002 -1.19746755809E-002 +2.84796824417E-005 +2.55213967648E-006 -4.64942306280E-002 +5.12068346143E-002 
+4.81000000000E+009 -1.51265352964E-001 -4.33851659298E-001 -3.53266261518E-002 +5.47660030425E-002 +1.44585533235E-006 +3.77157971343E-006 -3.98547016084E-002 +5.84139786661E-002 
+5.01000000000E+009 -1.66463732719E-001 -4.41191077232E-001 +4.06443960965E-002 +5.39914369583E-002 -4.50045217804E-006 +1.32855220727E-005 -3.33658494055E-002 +6.50129616261E-002 
+5.21000000000E+009 -1.81503921747E-001 -4.47879046202E-001 +6.42138272524E-002 -1.96104515344E-002 +2.97707288155E-006 +1.55088091560E-005 -2.58656311780E-002 +7.10343420506E-002 
+5.41000000000E+009 -1.96295171976E-001 -4.53609287739E-001 +5.76428882778E-003 -6.86924010515E-002 -1.02176918517E-005 +7.32422540750E-006 -1.71426888555E-002 +7.62074068189E-002 
+5.61000000000E+009 -2.11333543062E-001 -4.59195822477E-001 -6.57119452953E-002 -2.88724862039E-002 +2.48503893090E-005 +1.85401004273E-005 -7.42546003312E-003 +7.93496891856E-002 
+5.81000000000E+009 -2.25690931082E-001 -4.63770359755E-001 -4.90075796843E-002 +5.16716465354E-002 -1.64592365763E-005 +1.46259744724E-005 +3.10254725628E-003 +8.02055150270E-002 
+6.01000000000E+009 -2.39536136389E-001 -4.67673599720E-001 +3.21368388832E-002 +6.67052567005E-002 +5.68236237086E-006 -8.12824691820E-006 +1.41638554633E-002 +8.22752639651E-002 
+6.21000000000E+009 -2.53598630428E-001 -4.71228718758E-001 +7.58056715131E-002 -1.11338635907E-002 +2.60101637650E-006 +1.51157119035E-005 +2.48069576919E-002 +8.15685316920E-002 
+6.41000000000E+009 -2.66968786716E-001 -4.74046140909E-001 +1.44825186580E-002 -7.43222162127E-002 +3.61619470368E-007 +9.09262325877E-006 +3.62927317619E-002 +7.97610133886E-002 
+6.61000000000E+009 -2.80442237854E-001 -4.76731747389E-001 -6.85476362705E-002 -3.97524647415E-002 -1.22263463709E-005 +1.00952556750E-005 +4.73264753819E-002 +7.46966823936E-002 
+6.81000000000E+009 -2.93622821569E-001 -4.78768587112E-001 -5.72471208870E-002 +5.53520023823E-002 -8.01866826805E-006 -2.41719444602E-005 +5.81545494497E-002 +6.88298121095E-002 
+7.01000000000E+009 -3.06238651276E-001 -4.80542987585E-001 +3.28417308629E-002 +7.09423795342E-002 +1.40930751513E-005 +3.37710594067E-006 +6.80346041918E-002 +6.25856742263E-002 
+7.21000000000E+009 -3.18815171719E-001 -4.81780260801E-001 +8.00524055958E-002 -1.08986105770E-002 +7.86339296610E-006 +7.47639705878E-006 +7.71359950304E-002 +5.39795197546E-002 
+7.41000000000E+009 -3.30792844296E-001 -4.82888281345E-001 +1.02906646207E-002 -7.72653743625E-002 +6.68851271257E-006 +1.88955673366E-005 +8.64159166813E-002 +4.37962152064E-002 
+7.61000000000E+009 -3.41978669167E-001 -4.83396321535E-001 -6.77489638329E-002 -3.37047614157E-002 +1.43730931086E-005 +2.10727775993E-005 +9.25758406520E-002 +3.18017154932E-002 
+7.81000000000E+009 -3.53670150042E-001 -4.83339548111E-001 -5.06668090820E-002 +5.60722053051E-002 +3.78131881007E-005 -3.38932750310E-006 +9.81362089515E-002 +1.96891315281E-002 
+8.01000000000E+009 -3.64410370588E-001 -4.83078688383E-001 +3.64499725401E-002 +5.91583810747E-002 +5.08187667947E-006 -4.85705368192E-006 +1.01663328707E-001 +5.78062003478E-003 
+8.21000000000E+009 -3.74981403351E-001 -4.82600480318E-001 +6.56398087740E-002 -1.49303171784E-002 +1.91687013285E-005 -1.32267541630E-005 +1.03767648339E-001 -8.13675113022E-003 
+8.41000000000E+009 -3.85314762592E-001 -4.81702953577E-001 +2.79741641134E-003 -6.37597292662E-002 +4.07597508456E-006 +2.03037016036E-005 +1.03445045650E-001 -2.32509244233E-002 
+8.61000000000E+009 -3.95364165306E-001 -4.81048971415E-001 -5.14499619603E-002 -1.90948210657E-002 +1.18075458886E-005 -6.25136408416E-006 +1.00214831531E-001 -3.86759079993E-002 
+8.81000000000E+009 -4.05025720596E-001 -4.80305045843E-001 -3.46672162414E-002 +3.97253036499E-002 -3.73091916117E-006 +1.32131305008E-007 +9.47778597474E-002 -5.41192367673E-002 
+9.01000000000E+009 -4.14479851723E-001 -4.79116648436E-001 +2.51357536763E-002 +4.14048917592E-002 +1.51864469444E-006 -6.49946923659E-006 +8.80830585957E-002 -6.77090734243E-002 
+9.21000000000E+009 -4.23589885235E-001 -4.78023529053E-001 +4.30699028075E-002 -7.46590783820E-003 +9.65594244917E-006 -2.44311286224E-006 +7.82505273819E-002 -8.25655087829E-002 
+9.41000000000E+009 -4.32240635157E-001 -4.77085202932E-001 +7.46879028156E-003 -4.11569885910E-002 +2.19075027417E-005 -2.93162497655E-006 +6.57183974981E-002 -9.59986820817E-002 
+9.61000000000E+009 -4.40936416388E-001 -4.75562959909E-001 -3.30424048007E-002 -1.84560362250E-002 -1.59654227900E-005 +5.47673471374E-006 +5.05828112364E-002 -1.08142443001E-001 
+9.81000000000E+009 -4.48934644461E-001 -4.74758058786E-001 -2.73087657988E-002 +2.14570406824E-002 +3.65761252397E-006 +1.89800830412E-005 +3.54662276804E-002 -1.17314316332E-001 
+1.00100000000E+010 -4.57310825586E-001 -4.73255515099E-001 +1.01579846814E-002 +3.15885469317E-002 -1.62468168128E-005 +7.52684172767E-006 +1.86820644885E-002 -1.25140100718E-001 
+1.02100000000E+010 -4.65054064989E-001 -4.71374839544E-001 +3.00354212523E-002 +1.29837135319E-003 +1.81220566446E-005 -3.19995251630E-006 +5.07304328494E-004 -1.31944045424E-001 
+1.04100000000E+010 -4.72860246897E-001 -4.69869911671E-001 +1.20255928487E-002 -2.52719018608E-002 -1.57641588885E-005 +1.92160641745E-005 -2.00172122568E-002 -1.37396588922E-001 
+1.06100000000E+010 -4.80411678553E-001 -4.68109667301E-001 -1.85573827475E-002 -1.91810447723E-002 +1.92904626601E-005 -1.96299242816E-006 -4.15339171886E-002 -1.39820963144E-001 
+1.08100000000E+010 -4.86872553825E-001 -4.67034608126E-001 -2.22845058888E-002 +9.36388410628E-003 +1.39909043355E-005 -2.32282673096E-005 -6.33093342185E-002 -1.39386728406E-001 
+1.10100000000E+010 -4.93831992149E-001 -4.65290993452E-001 -1.80637769517E-004 +2.28299759328E-002 +3.93457776227E-006 +1.06608777060E-005 -8.52036625147E-002 -1.35858103633E-001 
+1.12100000000E+010 -5.00293374062E-001 -4.64373171329E-001 +2.01852712780E-002 +7.84741155803E-003 +1.97256713363E-006 +9.83548579825E-006 -1.08849838376E-001 -1.29477351904E-001 
+1.14100000000E+010 -5.06958484650E-001 -4.62525159121E-001 +1.35736977682E-002 -1.43532175571E-002 +2.21817572310E-005 -2.93974699161E-006 -1.31794735789E-001 -1.19411237538E-001 
+1.16100000000E+010 -5.12313485146E-001 -4.61120963097E-001 -7.42150982842E-003 -1.73138957471E-002 +6.23559571977E-006 -3.23709286931E-006 -1.53488278389E-001 -1.06155835092E-001 
+1.18100000000E+010 -5.18291532993E-001 -4.59472745657E-001 -1.79375391454E-002 +7.36431451514E-004 -1.77220154001E-005 +4.97627752338E-006 -1.73071816564E-001 -8.94607231021E-002 
+1.20100000000E+010 -5.24329304695E-001 -4.57383096218E-001 -5.70609467104E-003 +1.53989847749E-002 +2.13273551708E-006 +9.97482129605E-006 -1.89940258861E-001 -7.00927972794E-002 
+1.22100000000E+010 -5.30358910561E-001 -4.55041378736E-001 +1.14316968247E-002 +1.08772590756E-002 -9.56513395067E-006 -1.35143818625E-006 -2.07394525409E-001 -4.83540520072E-002 
+1.24100000000E+010 -5.35792529583E-001 -4.53171521425E-001 +1.35702155530E-002 -6.42990460619E-003 +3.83980568586E-006 -1.67062953551E-005 -2.21763879061E-001 -2.31788642704E-002 
+1.26100000000E+010 -5.41340768337E-001 -4.51226949692E-001 -5.36354840733E-004 -1.38892680407E-002 +1.46516586028E-005 -1.27552275444E-005 -2.32004374266E-001 +4.28171781823E-003 
+1.28100000000E+010 -5.46641409397E-001 -4.49096113443E-001 -1.25484848395E-002 -4.78060543537E-003 -1.92122533917E-005 +5.07865763666E-007 -2.38240554929E-001 +3.32606770098E-002 
+1.30100000000E+010 -5.51970064640E-001 -4.46348220110E-001 -8.48553050309E-003 +9.43450443447E-003 -1.78471145773E-005 +4.01171701014E-006 -2.41852790117E-001 +6.30186498165E-002 
+1.32100000000E+010 -5.56844055653E-001 -4.44043666124E-001 +4.91684395820E-003 +1.07180690393E-002 -1.36150356411E-005 +1.67214184330E-005 -2.42242336273E-001 +9.43803191185E-002 
+1.34100000000E+010 -5.61887502670E-001 -4.41049277782E-001 +1.14360786974E-002 -3.09648632538E-004 -2.83333592961E-005 -4.71283965453E-005 -2.38638564944E-001 +1.25939607620E-001 
+1.36100000000E+010 -5.64888894558E-001 -4.38499689102E-001 +3.63644352183E-003 -1.02175781503E-002 +1.41900318340E-005 -1.33180481043E-006 -2.31096386909E-001 +1.58615708351E-001 
+1.38100000000E+010 -5.69969177246E-001 -4.36593443155E-001 -7.32226669788E-003 -6.91398698837E-003 -1.14411595860E-005 +1.54765875777E-005 -2.17896997929E-001 +1.90463572741E-001 
+1.40100000000E+010 -5.74777603149E-001 -4.34375405312E-001 -8.99887178093E-003 +3.93475452438E-003 +3.55052725354E-005 -5.07462027599E-006 -2.01279088855E-001 +2.21384927630E-001 
+1.42100000000E+010 -5.79371631145E-001 -4.32348489761E-001 +3.70176596334E-004 +9.24393068999E-003 -2.11377318919E-005 +5.33096817890E-006 -1.80905312300E-001 +2.52583295107E-001 
+1.44100000000E+010 -5.84141850471E-001 -4.29521709681E-001 +8.04972089827E-003 +3.20628564805E-003 -1.64806006069E-005 +3.71160740542E-006 -1.55213505030E-001 +2.80909627676E-001 
+1.46100000000E+010 -5.87951719761E-001 -4.27287608385E-001 +5.97010971978E-003 -6.01892033592E-003 -1.68822498381E-005 +1.50764954014E-005 -1.24636441469E-001 +3.06332319975E-001 
+1.48100000000E+010 -5.91777324677E-001 -4.22665268183E-001 -3.21310921572E-003 -7.31763197109E-003 -4.65686662210E-006 +1.03478478195E-005 -9.18040126562E-002 +3.28178584576E-001 
+1.50100000000E+010 -5.93586325645E-001 -4.22297745943E-001 -7.49729340896E-003 -6.92915564287E-005 -2.41154375544E-005 -5.07060804011E-006 -5.63782379031E-002 +3.47527414560E-001 
+1.52100000000E+010 -5.96801161766E-001 -4.22109901905E-001 -2.92950472794E-003 +6.73169363290E-003 -6.24039284958E-006 -6.19053980699E-006 -1.77822131664E-002 +3.62597018480E-001 
+1.54100000000E+010 -6.00503623486E-001 -4.20386105776E-001 +4.91919321939E-003 +4.90142358467E-003 -1.36749567901E-005 +1.01339783214E-005 +2.42383386940E-002 +3.72716635466E-001 
+1.56100000000E+010 -6.04543685913E-001 -4.17465060949E-001 +6.12878613174E-003 -2.29992344975E-003 +2.70560285571E-005 +2.26322231356E-006 +6.79909735918E-002 +3.77116173506E-001 
+1.58100000000E+010 -6.05945408344E-001 -4.17003065348E-001 +2.36016014242E-004 -6.41991104931E-003 +2.09606369026E-005 +1.94391359400E-005 +1.11694045365E-001 +3.77528458834E-001 
+1.60100000000E+010 -6.08500242233E-001 -4.16059583426E-001 -5.47203188762E-003 -2.48714420013E-003 -6.73916747473E-006 +2.01102147912E-006 +1.56535461545E-001 +3.72571557760E-001 
+1.62100000000E+010 -6.10996186733E-001 -4.14834201336E-001 -4.33084135875E-003 +3.79757885821E-003 +2.45558694587E-005 +1.37659790198E-005 +2.03817889094E-001 +3.62351477146E-001 
+1.64100000000E+010 -6.13276064396E-001 -4.13563877344E-001 +1.81477190927E-003 +5.32498210669E-003 +1.10763976409E-005 +1.48130975504E-005 +2.50416755676E-001 +3.46212923527E-001 
+1.66100000000E+010 -6.16870760918E-001 -4.11960572004E-001 +5.27591817081E-003 +3.22732783388E-004 +4.14377136622E-005 -3.93541904486E-006 +2.94048219919E-001 +3.22695642710E-001 
+1.68100000000E+010 -6.20135188103E-001 -4.09800410271E-001 +2.34350562096E-003 -4.48755966499E-003 -3.86538067687E-006 -1.20067227272E-006 +3.37029546499E-001 +2.95444130898E-001 
+1.70100000000E+010 -6.22005999088E-001 -4.07893061638E-001 -3.17797902972E-003 -3.82504891604E-003 -6.98350368111E-006 -2.10269499803E-005 +3.77024739981E-001 +2.64166861773E-001 
+1.72100000000E+010 -6.24528706074E-001 -4.06157702208E-001 -4.45579970255E-003 +1.38489552774E-003 +2.89160307148E-005 +1.56999476530E-006 +4.14386957884E-001 +2.25842282176E-001 
+1.74100000000E+010 -6.27717077732E-001 -4.04427289963E-001 -5.35446451977E-004 +4.44799335673E-003 -2.07229459193E-005 -1.27906869238E-005 +4.47740286589E-001 +1.83006465435E-001 
+1.76100000000E+010 -6.30501329899E-001 -4.02384281158E-001 +3.78846097738E-003 +2.13458947837E-003 +2.98214472423E-005 -6.22034633579E-007 +4.75498169661E-001 +1.37212723494E-001 
+1.78100000000E+010 -6.33469820023E-001 -4.00448650122E-001 +3.26891057193E-003 -2.49798665754E-003 -4.60287810711E-005 -6.31334187347E-005 +4.98930454254E-001 +8.87135416269E-002 
+1.80100000000E+010 -6.35865092278E-001 -3.98226737976E-001 -8.64337082021E-004 -3.85982263833E-003 +2.51403653238E-005 -1.60333038366E-005 +5.18377721310E-001 +3.77677492797E-002 
+1.82100000000E+010 -6.38658940792E-001 -3.96534055471E-001 -3.75638320111E-003 -6.39518955722E-004 +1.17122044685E-005 +2.13017514739E-007 +5.31061589718E-001 -1.65085121989E-002 
+1.84100000000E+010 -6.41301989555E-001 -3.95121872425E-001 -1.93715048954E-003 +3.03860171698E-003 +8.17350701254E-006 +3.52947718056E-005 +5.37242412567E-001 -7.35531821847E-002 
+1.86100000000E+010 -6.44409179688E-001 -3.93254458904E-001 +1.90338399261E-003 +2.93360184878E-003 -8.07175274531E-006 -3.28449204972E-005 +5.37624418736E-001 -1.29863172770E-001 
+1.88100000000E+010 -6.46839678288E-001 -3.91144812107E-001 +3.36308241822E-003 -6.32310111541E-004 -1.25112619571E-005 +2.00239028345E-005 +5.31975030899E-001 -1.86247184873E-001 
+1.90100000000E+010 -6.48675084114E-001 -3.89426052570E-001 +7.16551556252E-004 -3.12477024272E-003 +3.04194163618E-005 +4.31308872066E-005 +5.20231306553E-001 -2.42415130138E-001 
+1.92100000000E+010 -6.51208639145E-001 -3.88465374708E-001 -2.47319438495E-003 -1.88564532436E-003 +8.36654908198E-006 +1.58215661941E-005 +5.02239525318E-001 -2.99749881029E-001 
+1.94100000000E+010 -6.54023349285E-001 -3.86297494173E-001 -2.57429620251E-003 +1.56883301679E-003 +1.21518751257E-005 -4.84654174215E-006 +4.77021306753E-001 -3.54183316231E-001 
+1.96100000000E+010 -6.54881000519E-001 -3.83947551250E-001 +3.38176963851E-004 +2.84148380160E-003 -6.26368091616E-006 +3.87139334634E-006 +4.46400702000E-001 -4.06063348055E-001 
+1.98100000000E+010 -6.54289186001E-001 -3.81094545126E-001 +2.66708550043E-003 +8.31397483125E-004 +3.92519104935E-005 +9.31968497753E-006 +4.11717712879E-001 -4.53328311443E-001 
+2.00100000000E+010 -6.53059422970E-001 -3.80776196718E-001 +1.71707349364E-003 -2.05969391391E-003 -3.77166034013E-005 -7.78661615186E-006 +3.70168536901E-001 -4.99711364508E-001 
