!;Filter: kein Filter
!auto
!3/21/2019 9:25:24 AM
!3/21/2019 9:25:40 AM
!SP-Measurements Prober G4
!SP-Measurements Prober G4
!01103_448C
!134
!237
!12
!30
!-20
!0.00399976
!1.88
!0.54220246
!0.54220246
# Hz S  RI   R 50
+1.00000000000E+007 +2.05204114318E-001 +1.54146319255E-002 +6.94997459650E-002 -2.83064451069E-002 -2.77926214039E-004 -5.93363147345E-005 +5.10010123253E-003 +8.15436651465E-005 
+2.10000000000E+008 +2.27263912559E-001 -2.70320270211E-002 -2.04684352502E-003 -7.16454461217E-002 -4.54048677057E-005 -2.96955677186E-005 +9.03537217528E-003 -4.34046285227E-003 
+4.10000000000E+008 +2.26486638188E-001 -6.08861483634E-002 -6.71731382608E-002 -2.34644021839E-002 -1.29569298224E-005 -2.72841534752E-005 +1.04841534048E-002 -7.24584097043E-003 
+6.10000000000E+008 +2.22560986876E-001 -9.34845581651E-002 -4.49625328183E-002 +5.43360263109E-002 -9.25612937408E-007 -2.35923089349E-005 +9.34509839863E-003 -1.14130908623E-002 
+8.10000000000E+008 +2.15549588203E-001 -1.25316724181E-001 +3.46290059388E-002 +6.11263215542E-002 -1.84581476788E-005 -1.15623643069E-005 +6.84529868886E-003 -1.51816969737E-002 
+1.01000000000E+009 +2.06825226545E-001 -1.55470445752E-001 +6.99577555060E-002 -1.05779925361E-002 +1.10372866402E-006 -6.34191337667E-006 +2.91954493150E-003 -1.87816359103E-002 
+1.21000000000E+009 +1.96098759770E-001 -1.84581115842E-001 +1.45103279501E-002 -6.77769631147E-002 +3.62055652658E-005 +1.72767659024E-006 -1.72791839577E-003 -2.13638693094E-002 
+1.41000000000E+009 +1.83727860451E-001 -2.12796539068E-001 -5.78868277371E-002 -3.81453000009E-002 -2.03288618650E-005 -1.04568553070E-005 -7.78015702963E-003 -2.44615823030E-002 
+1.61000000000E+009 +1.70686110854E-001 -2.39822641015E-001 -5.63415065408E-002 +4.08739931881E-002 -8.09502671473E-006 -7.13185272616E-006 -1.36657496914E-002 -2.69062928855E-002 
+1.81000000000E+009 +1.55693158507E-001 -2.65062212944E-001 +1.76175422966E-002 +6.60250112414E-002 -1.24535256418E-006 -8.05825129646E-006 -1.78138595074E-002 -2.80296988785E-002 
+2.01000000000E+009 +1.40489295125E-001 -2.89227306843E-001 +6.79966956377E-002 +7.69277103245E-003 +1.80499446287E-005 +2.08498568099E-005 -2.31610834599E-002 -2.69932784140E-002 
+2.21000000000E+009 +1.23828604817E-001 -3.12012940645E-001 +3.19127477705E-002 -6.15445151925E-002 +1.62679202731E-006 +2.14892279473E-005 -2.89946570992E-002 -2.48575881124E-002 
+2.41000000000E+009 +1.06256425381E-001 -3.33105117083E-001 -4.48943264782E-002 -5.08010014892E-002 +2.74128178717E-005 +4.54182554677E-006 -3.56275402009E-002 -2.25326456130E-002 
+2.61000000000E+009 +8.84885117412E-002 -3.52630198002E-001 -6.47326260805E-002 +2.25009322166E-002 +8.87190708454E-006 -3.68898145098E-005 -4.07952293754E-002 -1.95048879832E-002 
+2.81000000000E+009 +7.04510211945E-002 -3.70903551579E-001 -8.80246458109E-004 +6.99707120657E-002 +3.34229821419E-006 -6.44885949441E-005 -4.47628274560E-002 -1.46830426529E-002 
+3.01000000000E+009 +5.15969358385E-002 -3.87676030397E-001 +6.33362084627E-002 +2.61692740023E-002 +1.27692310343E-005 -2.09028003155E-005 -4.86211888492E-002 -8.81430692971E-003 
+3.21000000000E+009 +3.28639931977E-002 -4.03079867363E-001 +4.95074167848E-002 -5.03236092627E-002 +1.52536322275E-005 -2.35218476519E-006 -5.26566021144E-002 -2.39372043870E-003 
+3.41000000000E+009 +1.43905198202E-002 -4.17697072029E-001 -3.18259932101E-002 -6.43809288740E-002 -5.17690978086E-006 +6.05551576882E-006 -5.56882657111E-002 +4.76571032777E-003 
+3.61000000000E+009 -4.54093469307E-003 -4.30917084217E-001 -7.05101713538E-002 +5.43247349560E-003 -5.11194321007E-006 +5.03166484123E-006 -5.74719458818E-002 +1.18569312617E-002 
+3.81000000000E+009 -2.33348980546E-002 -4.42931681871E-001 -2.15246994048E-002 +7.04044401646E-002 -1.50553869389E-005 +2.37395852309E-005 -5.74513487518E-002 +1.93663816899E-002 
+4.01000000000E+009 -4.19273860753E-002 -4.54313635826E-001 +5.99902942777E-002 +4.33778800070E-002 +4.27012673754E-005 +7.49264745536E-006 -5.65191507339E-002 +2.73673739284E-002 
+4.21000000000E+009 -6.05618879199E-002 -4.64096218348E-001 +6.25708475709E-002 -3.87712121010E-002 -3.17624544550E-005 +1.73094776983E-005 -5.46400025487E-002 +3.60317900777E-002 
+4.41000000000E+009 -7.87023827434E-002 -4.73288595676E-001 -1.47127527744E-002 -7.57327824831E-002 -2.05153560273E-006 +2.60957640421E-005 -5.16232997179E-002 +4.43596988916E-002 
+4.61000000000E+009 -9.69445034862E-002 -4.81635004282E-001 -7.67776295543E-002 -1.08993900940E-002 -2.20457823161E-005 +7.57793395678E-006 -4.73125316203E-002 +5.16905225813E-002 
+4.81000000000E+009 -1.15086838603E-001 -4.88887250423E-001 -3.96851599216E-002 +6.79663792253E-002 -2.15400223169E-006 -4.77480762129E-006 -4.08257953823E-002 +5.90104870498E-002 
+5.01000000000E+009 -1.32533892989E-001 -4.95997458696E-001 +5.33928461373E-002 +6.41831308603E-002 -1.59360060934E-005 +8.27951043902E-006 -3.41795235872E-002 +6.56936541200E-002 
+5.21000000000E+009 -1.49838939309E-001 -5.02534747124E-001 +7.88961350918E-002 -3.10930274427E-002 -2.66810548055E-006 +1.22123446999E-005 -2.67128739506E-002 +7.17731639743E-002 
+5.41000000000E+009 -1.66775375605E-001 -5.07843732834E-001 -7.93292128947E-004 -8.71425494552E-002 -1.63339173014E-005 +8.69094583322E-006 -1.77475195378E-002 +7.67314732075E-002 
+5.61000000000E+009 -1.83956772089E-001 -5.13139843941E-001 -8.87874811888E-002 -2.81806569546E-002 +2.48907645073E-006 +1.46267930177E-005 -7.79813714325E-003 +8.00822228193E-002 
+5.81000000000E+009 -2.00497984886E-001 -5.17285704613E-001 -5.33457808197E-002 +7.71624147892E-002 -4.64479035145E-006 +7.38246581022E-006 +2.67659756355E-003 +8.11448916793E-002 
+6.01000000000E+009 -2.16375902295E-001 -5.20648300648E-001 +5.72319515049E-002 +7.84686058760E-002 +2.01382335945E-005 -5.39937627764E-006 +1.40463057905E-002 +8.27875211835E-002 
+6.21000000000E+009 -2.32475534081E-001 -5.23633837700E-001 +9.57027152181E-002 -3.60026881099E-002 -1.24577518363E-005 -3.00412502838E-005 +2.50600259751E-002 +8.24319496751E-002 
+6.41000000000E+009 -2.47875958681E-001 -5.25740087032E-001 -8.40315967798E-003 -1.00375793874E-001 +3.03136876028E-005 -1.08148915388E-005 +3.65313589573E-002 +8.04783552885E-002 
+6.61000000000E+009 -2.63225734234E-001 -5.27383744717E-001 -9.99083593488E-002 -2.13392097503E-002 +1.00271117844E-005 +2.18756995309E-005 +4.77969720960E-002 +7.57354721427E-002 
+6.81000000000E+009 -2.78167426586E-001 -5.28531789780E-001 -4.44285087287E-002 +9.14231911302E-002 +1.21299062812E-005 +4.63461719846E-006 +5.88699616492E-002 +7.01678395271E-002 
+7.01000000000E+009 -2.92366147041E-001 -5.29180347919E-001 +7.17509314418E-002 +6.40820413828E-002 +1.88180422356E-006 -7.27910105525E-007 +6.90940842032E-002 +6.36694952846E-002 
+7.21000000000E+009 -3.06291967630E-001 -5.29285788536E-001 +7.88923501968E-002 -4.96834926307E-002 +5.08382163389E-006 -4.57549185739E-006 +7.82009735703E-002 +5.52311502397E-002 
+7.41000000000E+009 -3.19428473711E-001 -5.29341518879E-001 -2.59786751121E-002 -8.34959372878E-002 -1.72729214682E-005 +7.99781992100E-006 +8.71875509620E-002 +4.50054146349E-002 
+7.61000000000E+009 -3.31760823727E-001 -5.28800547123E-001 -8.07210355997E-002 +5.06058393512E-004 +1.00148026831E-005 +1.36132302941E-005 +9.38177555799E-002 +3.30367982388E-002 
+7.81000000000E+009 -3.44379246235E-001 -5.27730941772E-001 -2.10519749671E-002 +7.12931528687E-002 +1.53816381498E-005 +1.67185189639E-005 +9.92084741592E-002 +2.03818473965E-002 
+8.01000000000E+009 -3.56027007103E-001 -5.26658713818E-001 +5.60671947896E-002 +3.79583463073E-002 -8.93693686521E-006 +1.32507811941E-005 +1.02814540267E-001 +6.75651105121E-003 
+8.21000000000E+009 -3.67523789406E-001 -5.25255560875E-001 +4.99756038189E-002 -3.83227132261E-002 +1.23985482787E-005 +7.56141935199E-006 +1.05178400874E-001 -7.52785103396E-003 
+8.41000000000E+009 -3.78551423550E-001 -5.23543000221E-001 -2.07475759089E-002 -5.16789406538E-002 +9.16997760214E-006 -2.51414917329E-006 +1.04725778103E-001 -2.27385479957E-002 
+8.61000000000E+009 -3.89463216066E-001 -5.22323906422E-001 -4.87635657191E-002 -7.63171003200E-004 -1.49668503582E-005 +1.11298513730E-005 +1.01429924369E-001 -3.83725017309E-002 
+8.81000000000E+009 -3.99966835976E-001 -5.20698785782E-001 -1.64830554277E-002 +4.23126704991E-002 -4.09195781685E-005 -3.81283211937E-006 +9.60622653365E-002 -5.41849583387E-002 
+9.01000000000E+009 -4.10168439150E-001 -5.18824756145E-001 +3.05854808539E-002 +2.73124631494E-002 +2.44843249675E-006 -3.36920425070E-006 +8.92669409513E-002 -6.82635828853E-002 
+9.21000000000E+009 -4.20122712851E-001 -5.16976773739E-001 +3.37318778038E-002 -1.68697908521E-002 -1.37160986924E-005 -1.70887306012E-005 +7.93673023582E-002 -8.32036212087E-002 
+9.41000000000E+009 -4.29461389780E-001 -5.15172541142E-001 -3.82505287416E-003 -3.48473787308E-002 +2.19619359996E-005 -1.40562215165E-005 +6.67778328061E-002 -9.70543473959E-002 
+9.61000000000E+009 -4.38817560673E-001 -5.12988448143E-001 -3.04007995874E-002 -8.41420330107E-003 -2.38323464146E-005 -2.82974951915E-007 +5.14011830091E-002 -1.09197691083E-001 
+9.81000000000E+009 -4.47436451912E-001 -5.11334419250E-001 -1.82064156979E-002 +2.33580544591E-002 +5.87014301345E-006 +2.45989008363E-006 +3.62685061991E-002 -1.18804782629E-001 
+1.00100000000E+010 -4.56258565187E-001 -5.09040713310E-001 +1.42733724788E-002 +2.34411992133E-002 +2.10588041227E-005 -1.97106896849E-006 +1.92482899874E-002 -1.26828804612E-001 
+1.02100000000E+010 -4.64693546295E-001 -5.06534278393E-001 +2.47662495822E-002 -3.66645702161E-003 +3.83466021958E-006 -1.59600804182E-005 +1.06465374120E-003 -1.33981183171E-001 
+1.04100000000E+010 -4.73077982664E-001 -5.04376828671E-001 +5.81918423995E-003 -2.32818722725E-002 +2.32242455240E-005 -3.14510793942E-006 -1.95812489837E-002 -1.39422804117E-001 
+1.06100000000E+010 -4.81105893850E-001 -5.01788020134E-001 -1.83249916881E-002 -1.28117427230E-002 +3.34256947099E-006 +1.92280958800E-006 -4.17023263872E-002 -1.42324581742E-001 
+1.08100000000E+010 -4.88063752651E-001 -5.00000596046E-001 -1.74515824765E-002 +1.10254203901E-002 +4.47185448138E-006 +2.21706195589E-005 -6.33564442396E-002 -1.41818806529E-001 
+1.10100000000E+010 -4.95417356491E-001 -4.97423022985E-001 +3.31904413179E-003 +1.94505061954E-002 -2.56749603977E-006 +7.29987732484E-007 -8.56482014060E-002 -1.38304799795E-001 
+1.12100000000E+010 -5.02355277538E-001 -4.95791941881E-001 +1.81233789772E-002 +3.54935345240E-003 +1.21721523101E-005 -2.19214871322E-005 -1.09705179930E-001 -1.31658345461E-001 
+1.14100000000E+010 -5.09370148182E-001 -4.93237286806E-001 +9.56978276372E-003 -1.40582239255E-002 +1.08133917820E-005 +1.11334438770E-005 -1.32878243923E-001 -1.21446140110E-001 
+1.16100000000E+010 -5.15097737312E-001 -4.91182714701E-001 -8.88850074261E-003 -1.37197673321E-002 +2.74847334367E-005 -1.18999960250E-005 -1.54845550656E-001 -1.07895687222E-001 
+1.18100000000E+010 -5.21446764469E-001 -4.88894104958E-001 -1.49839185178E-002 +3.22806020267E-003 -3.42786115652E-005 +1.26820013975E-005 -1.74479544163E-001 -9.11873504519E-002 
+1.20100000000E+010 -5.27897238731E-001 -4.86106276512E-001 -2.79231346212E-003 +1.38944322243E-002 -4.39742188973E-006 -5.76380944040E-006 -1.92272156477E-001 -7.17754215002E-002 
+1.22100000000E+010 -5.34334182739E-001 -4.83105123043E-001 +1.13253705204E-002 +7.69484275952E-003 -1.87785753951E-005 +3.92317633668E-005 -2.09884732962E-001 -4.95363101363E-002 
+1.24100000000E+010 -5.40166735649E-001 -4.80597883463E-001 +1.04860318825E-002 -7.34310457483E-003 +3.68747919310E-006 +1.41872769746E-005 -2.24563211203E-001 -2.39717140794E-002 
+1.26100000000E+010 -5.45916855335E-001 -4.77997630835E-001 -2.22087488510E-003 -1.16675198078E-002 +3.93968684875E-006 -4.49532944913E-006 -2.34883919358E-001 +3.85215342976E-003 
+1.28100000000E+010 -5.51457464695E-001 -4.75245207548E-001 -1.12622715533E-002 -2.42533674464E-003 -8.05716808827E-006 -1.90166701941E-005 -2.41457000375E-001 +3.31677086651E-002 
+1.30100000000E+010 -5.57095587254E-001 -4.71978992224E-001 -5.85830258206E-003 +8.98153241724E-003 +3.98140355173E-006 -3.80302185476E-006 -2.45152190328E-001 +6.33234009147E-002 
+1.32100000000E+010 -5.62260448933E-001 -4.69126492739E-001 +5.36554818973E-003 +8.46708565950E-003 -2.35498173424E-005 -3.96694258598E-006 -2.45554119349E-001 +9.52356383204E-002 
+1.34100000000E+010 -5.67558586597E-001 -4.65591937304E-001 +9.65906772763E-003 -1.62731343880E-003 -1.18312427730E-005 -1.08379363155E-005 -2.42249324918E-001 +1.26964941621E-001 
+1.36100000000E+010 -5.70794761181E-001 -4.62424814701E-001 +1.80241779890E-003 -8.94017517567E-003 +2.77213821391E-005 -2.45704941335E-005 -2.34326466918E-001 +1.60170510411E-001 
+1.38100000000E+010 -5.75995862484E-001 -4.59918230772E-001 -6.88238069415E-003 -5.10322302580E-003 +1.28686597236E-005 -4.27293252869E-006 -2.21411034465E-001 +1.92590683699E-001 
+1.40100000000E+010 -5.80938935280E-001 -4.57175433636E-001 -7.21389707178E-003 +4.35590418056E-003 +6.25823375344E-008 +8.65016136231E-006 -2.04804122448E-001 +2.24243864417E-001 
+1.42100000000E+010 -5.85733294487E-001 -4.54551905394E-001 +1.31897744723E-003 +7.74043891579E-003 -4.42675445811E-006 -2.36670057348E-005 -1.84249222279E-001 +2.55824178457E-001 
+1.44100000000E+010 -5.90532541275E-001 -4.51323926449E-001 +7.14228441939E-003 +1.90400844440E-003 -1.28269921333E-005 +5.26369467480E-006 -1.58342897892E-001 +2.84858107567E-001 
+1.46100000000E+010 -5.94578325748E-001 -4.48668450117E-001 +4.42806119099E-003 -5.75834373012E-003 +1.43135293911E-005 -1.79080343514E-005 -1.27481028438E-001 +3.10517102480E-001 
+1.48100000000E+010 -5.98683655262E-001 -4.43637073040E-001 -3.46760870889E-003 -5.77762024477E-003 -2.85376627289E-005 +1.76988078238E-006 -9.45920720696E-002 +3.32669943571E-001 
+1.50100000000E+010 -6.00548863411E-001 -4.42661106586E-001 -6.35458109900E-003 +6.24438689556E-004 +1.77458805410E-005 +6.99934219028E-007 -5.89335560799E-002 +3.52226018906E-001 
+1.52100000000E+010 -6.03862106800E-001 -4.41995173693E-001 -1.81068235543E-003 +6.03244034573E-003 -1.11078288683E-005 +6.95882226864E-006 -1.97346433997E-002 +3.67671906948E-001 
+1.54100000000E+010 -6.07685327530E-001 -4.39844340086E-001 +4.55432618037E-003 +3.62207810394E-003 -8.15715065983E-006 -2.34915987676E-005 +2.29528211057E-002 +3.77756744623E-001 
+1.56100000000E+010 -6.11673772335E-001 -4.36554640532E-001 +4.99510904774E-003 -2.49171932228E-003 +6.26012342764E-006 -9.94639685814E-006 +6.73147588968E-002 +3.82109463215E-001 
+1.58100000000E+010 -6.13099038601E-001 -4.35699790716E-001 -3.98151372792E-004 -5.45744225383E-003 -3.16451769322E-006 +5.30730517312E-007 +1.11900098622E-001 +3.82653445005E-001 
+1.60100000000E+010 -6.15699708462E-001 -4.34483110905E-001 -4.85220691189E-003 -1.57184677664E-003 +6.78810147292E-006 -1.87234727491E-005 +1.57594680786E-001 +3.77713412046E-001 
+1.62100000000E+010 -6.18312954903E-001 -4.32766735554E-001 -3.33549245261E-003 +3.55783663690E-003 -1.37928200274E-005 +3.69836525351E-005 +2.05696403980E-001 +3.67302715778E-001 
+1.64100000000E+010 -6.20728313923E-001 -4.31084483862E-001 +1.99342239648E-003 +4.34134481475E-003 -3.36587727361E-005 -7.03276919012E-006 +2.53024041653E-001 +3.50999057293E-001 
+1.66100000000E+010 -6.24300360680E-001 -4.29176479578E-001 +4.45313565433E-003 -1.92403676920E-004 +4.76081822853E-006 +2.05440719583E-005 +2.97450870275E-001 +3.27515810728E-001 
+1.68100000000E+010 -6.27545177937E-001 -4.26648825407E-001 +1.66412943508E-003 -3.96320782602E-003 -1.08074455056E-005 -3.45855539763E-008 +3.41311216354E-001 +3.00496906042E-001 
+1.70100000000E+010 -6.29344642162E-001 -4.24337863922E-001 -2.97314859927E-003 -2.95150931925E-003 +5.28229156771E-006 +4.14419846493E-005 +3.82036924362E-001 +2.69200950861E-001 
+1.72100000000E+010 -6.31894767284E-001 -4.22323942184E-001 -3.62092931755E-003 +1.49349891581E-003 +2.15973409468E-006 -4.12891751012E-007 +4.20244127512E-001 +2.30504125357E-001 
+1.74100000000E+010 -6.35206997395E-001 -4.20323491096E-001 -2.01950912015E-004 +3.73257417232E-003 +3.02749049297E-006 +2.00729737116E-005 +4.53953921795E-001 +1.87191098928E-001 
+1.76100000000E+010 -6.38019740582E-001 -4.17918503284E-001 +3.32107651047E-003 +1.61935761571E-003 +2.12190298043E-005 -4.14175083279E-005 +4.82040226460E-001 +1.40874013305E-001 
+1.78100000000E+010 -6.41086280346E-001 -4.15543168783E-001 +2.59464513510E-003 -2.29272292927E-003 -6.26595938229E-005 -1.82825897355E-005 +5.05926966667E-001 +9.17447060347E-002 
+1.80100000000E+010 -6.43494307995E-001 -4.13052797318E-001 -9.90071916021E-004 -3.25844297186E-003 -4.81154384033E-005 -5.86360101806E-006 +5.25175333023E-001 +4.01103459299E-002 
+1.82100000000E+010 -6.46318614483E-001 -4.10886675119E-001 -3.28408717178E-003 -3.37236211635E-004 -5.93941194893E-006 -2.33144037338E-005 +5.37749648094E-001 -1.51597885415E-002 
+1.84100000000E+010 -6.48988544941E-001 -4.09196674824E-001 -1.46881421097E-003 +2.69370945171E-003 +1.26548528101E-007 -3.99223536078E-005 +5.44013202190E-001 -7.30587542057E-002 
+1.86100000000E+010 -6.52069151402E-001 -4.07013535500E-001 +1.66428519879E-003 +2.57107056677E-003 -9.39456094784E-006 +1.85704484466E-005 +5.44392406940E-001 -1.29948526621E-001 
+1.88100000000E+010 -6.54502391815E-001 -4.04757827520E-001 +3.00045614131E-003 -7.11699016392E-004 -4.74389344163E-006 -1.93452501662E-006 +5.38864314556E-001 -1.87582314014E-001 
+1.90100000000E+010 -6.56462967396E-001 -4.02890890837E-001 +3.59567347914E-004 -2.93757440522E-003 -6.22820334684E-006 -3.34597862093E-005 +5.27667045593E-001 -2.44610711932E-001 
+1.92100000000E+010 -6.59132659435E-001 -4.01573300362E-001 -2.29317881167E-003 -1.46688788664E-003 +1.67189809872E-005 -2.64543232333E-005 +5.09286165237E-001 -3.03100824356E-001 
+1.94100000000E+010 -6.61873400211E-001 -3.98925483227E-001 -2.19818018377E-003 +1.47976900917E-003 -2.55130071309E-005 +2.34899162024E-005 +4.83834922314E-001 -3.58741909266E-001 
+1.96100000000E+010 -6.62779211998E-001 -3.96159857512E-001 +5.10004465468E-004 +2.51848064363E-003 -1.08812346298E-005 +8.25940514915E-006 +4.53117638826E-001 -4.11270886660E-001 
+1.98100000000E+010 -6.62107229233E-001 -3.93045693636E-001 +2.42945435457E-003 +5.75937272515E-004 +2.78084153251E-005 -4.25936559623E-005 +4.18840765953E-001 -4.59349602461E-001 
+2.00100000000E+010 -6.60900175571E-001 -3.92422497272E-001 +1.41914398409E-003 -1.95677252486E-003 -3.23141853187E-006 +2.20123474719E-005 +3.76832753420E-001 -5.06516993046E-001 
