!;Filter: kein Filter
!auto
!3/21/2019 9:27:39 AM
!3/21/2019 9:27:53 AM
!SP-Measurements Prober G4
!SP-Measurements Prober G4
!01103_448C
!134
!233
!12
!30
!-20
!0.00499992
!1.96
!0.64375220
!0.64375220
# Hz S  RI   R 50
+1.00000000000E+007 +2.74448961020E-001 +5.96006633714E-003 +4.81528230011E-002 -1.84330567718E-002 -4.10056003602E-004 -4.60388750071E-004 +4.49589686468E-003 -7.46795732994E-004 
+2.10000000000E+008 +2.91519641876E-001 -2.55307462066E-002 -1.98733294383E-003 -4.97208237648E-002 +1.68109672813E-005 -1.19040614663E-005 +9.00901108980E-003 -4.34386031702E-003 
+4.10000000000E+008 +2.93925344944E-001 -5.95365539193E-002 -4.61155660450E-002 -1.57925933599E-002 +4.72384490422E-005 -1.18261286843E-005 +1.05043277144E-002 -7.23911402747E-003 
+6.10000000000E+008 +2.91927427053E-001 -9.41732451320E-002 -2.99919676036E-002 +3.66075225174E-002 -6.59446095597E-006 -2.19559569814E-005 +9.36755817384E-003 -1.14072198048E-002 
+8.10000000000E+008 +2.86387950182E-001 -1.28349527717E-001 +2.30800677091E-002 +4.12912219763E-002 -2.49494246418E-006 -1.62900596479E-005 +6.81707449257E-003 -1.51932733133E-002 
+1.01000000000E+009 +2.77923166752E-001 -1.61728233099E-001 +4.84086349607E-002 -7.33087770641E-003 -6.73696740705E-006 +1.88628291653E-005 +2.92101642117E-003 -1.87626536936E-002 
+1.21000000000E+009 +2.67182052135E-001 -1.93418323994E-001 +9.36060305685E-003 -4.54897172749E-002 +1.21771854538E-005 +2.56122416431E-006 -1.76476757042E-003 -2.13910881430E-002 
+1.41000000000E+009 +2.54575490952E-001 -2.24222764373E-001 -3.86996492743E-002 -2.56886072457E-002 -9.30342866923E-006 -1.39122339533E-005 -7.80029734597E-003 -2.44760103524E-002 
+1.61000000000E+009 +2.40952283144E-001 -2.53739207983E-001 -3.78528609872E-002 +2.81473491341E-002 +6.39341749320E-007 +1.24507528199E-006 -1.36854825541E-002 -2.69182045013E-002 
+1.81000000000E+009 +2.25147113204E-001 -2.81426966190E-001 +1.22517244890E-002 +4.36075888574E-002 -1.48454246300E-005 -7.46568275645E-006 -1.78309641778E-002 -2.79968287796E-002 
+2.01000000000E+009 +2.09021776915E-001 -3.07797759771E-001 +4.52831983566E-002 +4.81883250177E-003 -5.14288421982E-006 -3.08554626827E-006 -2.31725797057E-002 -2.69934237003E-002 
+2.21000000000E+009 +1.91285938025E-001 -3.33128780127E-001 +1.99357084930E-002 -4.10082638264E-002 -4.26223778049E-006 -5.68790210309E-006 -2.90001630783E-002 -2.48446073383E-002 
+2.41000000000E+009 +1.72342866659E-001 -3.56218278408E-001 -3.01009304821E-002 -3.25786583126E-002 +1.24338803289E-005 +1.18804246085E-005 -3.56103815138E-002 -2.25264690816E-002 
+2.61000000000E+009 +1.53150901198E-001 -3.77873212099E-001 -4.13807407022E-002 +1.62698589265E-002 -1.94455660676E-005 -1.76976354851E-005 -4.08075079322E-002 -1.95163544267E-002 
+2.81000000000E+009 +1.33129820228E-001 -3.98111313581E-001 +9.18568810448E-004 +4.42261621356E-002 +7.34204741093E-006 -2.41953443947E-006 -4.48054671288E-002 -1.46296732128E-002 
+3.01000000000E+009 +1.12562134862E-001 -4.16456371546E-001 +4.05621863902E-002 +1.49529865012E-002 +8.20945660962E-006 +5.41886720384E-007 -4.86549772322E-002 -8.79791751504E-003 
+3.21000000000E+009 +9.17863547802E-002 -4.33567285538E-001 +2.86007877439E-002 -3.22784371674E-002 +3.02126022689E-006 -3.17683145568E-007 -5.26864007115E-002 -2.37080361694E-003 
+3.41000000000E+009 +7.10254907608E-002 -4.49223309755E-001 -2.00676508248E-002 -3.78169640899E-002 +1.36493363243E-005 +3.01064414998E-006 -5.56888505816E-002 +4.78861667216E-003 
+3.61000000000E+009 +5.02005331218E-002 -4.63551789522E-001 -4.16439957917E-002 +4.67262603343E-003 -2.58859199675E-005 +7.56816189096E-006 -5.75200468302E-002 +1.18460450321E-002 
+3.81000000000E+009 +2.91152652353E-002 -4.76475656033E-001 -1.09149878845E-002 +4.04172576964E-002 -1.95978805095E-006 -2.44211914833E-005 -5.74356243014E-002 +1.93717218935E-002 
+4.01000000000E+009 +8.42468906194E-003 -4.88229632378E-001 +3.36957313120E-002 +2.43185088038E-002 -3.23720996676E-005 +2.08066057894E-006 -5.64953461289E-002 +2.74405218661E-002 
+4.21000000000E+009 -1.21498927474E-002 -4.98721569777E-001 +3.44165302813E-002 -2.19744537026E-002 -1.27462112687E-006 -3.63778744941E-005 -5.46241328120E-002 +3.60629819334E-002 
+4.41000000000E+009 -3.25614623725E-002 -5.08128106594E-001 -7.78577011079E-003 -4.01250049472E-002 -1.20358563436E-005 -2.16225907934E-006 -5.16641512513E-002 +4.43840660155E-002 
+4.61000000000E+009 -5.26700131595E-002 -5.16478002071E-001 -4.00721654296E-002 -6.85858726501E-003 +2.62699159066E-005 +3.15287002195E-006 -4.73229996860E-002 +5.17322495580E-002 
+4.81000000000E+009 -7.26742222905E-002 -5.23892819881E-001 -2.08566077054E-002 +3.41554619372E-002 +1.29959953483E-005 +5.28673535882E-006 -4.08753901720E-002 +5.90078793466E-002 
+5.01000000000E+009 -9.20902416110E-002 -5.30765771866E-001 +2.41930279881E-002 +3.20971347392E-002 +6.26288010608E-006 +2.67456853180E-005 -3.41784097254E-002 +6.56896755099E-002 
+5.21000000000E+009 -1.10968180001E-001 -5.36885082722E-001 +3.83566655219E-002 -1.11242868006E-002 -6.98377425579E-006 +3.49082365574E-005 -2.67612133175E-002 +7.17838183045E-002 
+5.41000000000E+009 -1.29553467035E-001 -5.41916608810E-001 +3.88298858888E-003 -3.93684804440E-002 -1.22825349536E-005 +5.92498781771E-006 -1.77719239146E-002 +7.67293050885E-002 
+5.61000000000E+009 -1.48261010647E-001 -5.46576797962E-001 -3.54915969074E-002 -1.81849226356E-002 -8.24793346510E-007 -2.92179083772E-006 -7.84291606396E-003 +8.00828933716E-002 
+5.81000000000E+009 -1.65940061212E-001 -5.50211310387E-001 -2.95289326459E-002 +2.66668386757E-002 -6.52203789286E-006 +1.08906588139E-005 +2.63472343795E-003 +8.11397209764E-002 
+6.01000000000E+009 -1.83117359877E-001 -5.53033888340E-001 +1.39034539461E-002 +3.72179895639E-002 -1.69881059264E-006 -2.89506988338E-005 +1.40122026205E-002 +8.27816948295E-002 
+6.21000000000E+009 -2.00217112899E-001 -5.55302679539E-001 +4.02161814272E-002 +4.59247181425E-004 +1.63388594956E-005 +8.07643971257E-007 +2.50907111913E-002 +8.24126377702E-002 
+6.41000000000E+009 -2.16481640935E-001 -5.57009518147E-001 +1.45459063351E-002 -3.75659763813E-002 +1.45547687680E-006 -1.33648691190E-005 +3.65353412926E-002 +8.05094614625E-002 
+6.61000000000E+009 -2.32716888189E-001 -5.58148682117E-001 -2.98252794892E-002 -2.71729510278E-002 +1.26078502944E-005 +1.21280181702E-005 +4.78369817138E-002 +7.57211446762E-002 
+6.81000000000E+009 -2.48387858272E-001 -5.58936595917E-001 -3.63907329738E-002 +1.84865519404E-002 +1.33986222863E-005 -1.79424714588E-005 +5.88726997375E-002 +7.01542124152E-002 
+7.01000000000E+009 -2.63431698084E-001 -5.59401631355E-001 +4.78718103841E-003 +4.07094620168E-002 -8.49121715873E-006 +1.26959048430E-006 +6.91132023931E-002 +6.36473521590E-002 
+7.21000000000E+009 -2.78219491243E-001 -5.59220671654E-001 +3.99459488690E-002 +9.82670485973E-003 -7.37287564334E-007 +5.60483385925E-007 +7.81766399741E-002 +5.52530735731E-002 
+7.41000000000E+009 -2.92320609093E-001 -5.59045314789E-001 +2.30925288051E-002 -3.43653969467E-002 -2.04492826015E-005 +4.98284407513E-006 +8.71467739344E-002 +4.50393110514E-002 
+7.61000000000E+009 -3.05684983730E-001 -5.58236718178E-001 -2.45065949857E-002 -3.34557220340E-002 +1.23299732877E-005 -2.19438734348E-005 +9.38528627157E-002 +3.30508947372E-002 
+7.81000000000E+009 -3.19364815950E-001 -5.56837558746E-001 -3.98065857589E-002 +1.15702981129E-002 -9.58374312177E-006 -3.12390693580E-005 +9.92086976767E-002 +2.03788541257E-002 
+8.01000000000E+009 -3.32044303417E-001 -5.55193603039E-001 -2.60965619236E-003 +4.13497798145E-002 -2.89497111226E-005 -1.78522259375E-005 +1.02844290435E-001 +6.79795490578E-003 
+8.21000000000E+009 -3.44440221786E-001 -5.53244829178E-001 +3.80550473928E-002 +1.62021815777E-002 -1.20890672406E-006 +4.54321025245E-007 +1.05226270854E-001 -7.53870373592E-003 
+8.41000000000E+009 -3.56482446194E-001 -5.50949037075E-001 +2.76630856097E-002 -3.02470196038E-002 -2.00539379875E-005 -1.00587067209E-005 +1.04744881392E-001 -2.27564945817E-002 
+8.61000000000E+009 -3.68319600821E-001 -5.48872768879E-001 -1.90598741174E-002 -3.57566028833E-002 +6.41422957415E-006 -8.64250250743E-006 +1.01385742426E-001 -3.83524559438E-002 
+8.81000000000E+009 -3.79552900791E-001 -5.46565353870E-001 -3.97470034659E-002 +6.07401505113E-003 +1.22524152175E-005 +3.66932977158E-006 +9.60348546505E-002 -5.41521385312E-002 
+9.01000000000E+009 -3.90499413013E-001 -5.43877899647E-001 -7.10850628093E-003 +3.88251319528E-002 +5.15636247655E-006 -1.20897732359E-006 +8.92803296447E-002 -6.82458952069E-002 
+9.21000000000E+009 -4.01107937098E-001 -5.41216254234E-001 +3.37175615132E-002 +1.95228159428E-002 -1.77940182766E-006 -2.19457160711E-005 +7.93378129601E-002 -8.31481665373E-002 
+9.41000000000E+009 -4.10949438810E-001 -5.38644433022E-001 +2.88908202201E-002 -2.60273292661E-002 +9.25743734115E-007 +4.34700086771E-006 +6.68278485537E-002 -9.70710963011E-002 
+9.61000000000E+009 -4.20822650194E-001 -5.35599112511E-001 -1.51562569663E-002 -3.36167216301E-002 +6.50637093713E-006 -8.87655551196E-006 +5.13978637755E-002 -1.09185859561E-001 
+9.81000000000E+009 -4.29820686579E-001 -5.33075630665E-001 -3.52707169950E-002 +2.66119698063E-003 +2.06226977753E-005 -1.06959978439E-005 +3.63219343126E-002 -1.18831492960E-001 
+1.00100000000E+010 -4.39131498337E-001 -5.30043065548E-001 -8.09903815389E-003 +3.29963080585E-002 -4.65640405309E-005 -2.59296957665E-005 +1.92321743816E-002 -1.26808837056E-001 
+1.02100000000E+010 -4.47679102421E-001 -5.26703596115E-001 +2.61527691036E-002 +1.76645498723E-002 -9.79310789262E-006 +1.64068806043E-005 +1.08935497701E-003 -1.33958503604E-001 
+1.04100000000E+010 -4.56312477589E-001 -5.23771822453E-001 +2.50391103327E-002 -1.76924206316E-002 +2.81235370494E-005 -7.48316051613E-006 -1.95509586483E-002 -1.39421179891E-001 
+1.06100000000E+010 -4.64666664600E-001 -5.20571649075E-001 -8.40632896870E-003 -2.83337663859E-002 -1.52624437533E-008 -2.60853380496E-006 -4.17073853314E-002 -1.42332538962E-001 
+1.08100000000E+010 -4.71778839827E-001 -5.18092155457E-001 -2.75178886950E-002 -1.49364117533E-003 +1.69102859218E-005 +2.96296511806E-005 -6.33471757174E-002 -1.41814649105E-001 
+1.10100000000E+010 -4.79358017445E-001 -5.14912366867E-001 -1.07444152236E-002 +2.40606311709E-002 -1.35388302169E-006 +4.80876269648E-006 -8.56222137809E-002 -1.38305947185E-001 
+1.12100000000E+010 -4.86453264952E-001 -5.12576699257E-001 +1.84610113502E-002 +1.69546790421E-002 -2.36327214225E-005 -1.70598068507E-005 -1.09680488706E-001 -1.31690010428E-001 
+1.14100000000E+010 -4.93660539389E-001 -5.09265065193E-001 +2.03248262405E-002 -1.01164504886E-002 -5.45890043213E-006 -5.73686065763E-006 -1.32829383016E-001 -1.21510535479E-001 
+1.16100000000E+010 -4.99410063028E-001 -5.06503760815E-001 -1.68583379127E-003 -2.18361373991E-002 -1.04440141513E-005 -2.23266833927E-005 -1.54828846455E-001 -1.07978798449E-001 
+1.18100000000E+010 -5.05821168423E-001 -5.03583550453E-001 -1.99301280081E-002 -5.25364326313E-003 +3.71486858057E-005 +3.71267879018E-006 -1.74481421709E-001 -9.12005081773E-002 
+1.20100000000E+010 -5.12304127216E-001 -5.00126421452E-001 -1.13514307886E-002 +1.51216341183E-002 +2.21050504479E-006 -1.87645273400E-005 -1.92292407155E-001 -7.17566981912E-002 
+1.22100000000E+010 -5.18824636936E-001 -4.96452659369E-001 +9.47172008455E-003 +1.56704578549E-002 -1.09794882519E-005 -5.81302720093E-006 -2.09899187088E-001 -4.95087727904E-002 
+1.24100000000E+010 -5.24634957314E-001 -4.93315339088E-001 +1.68406702578E-002 -3.50168044679E-003 -1.51475014718E-005 +2.00132199097E-005 -2.24580362439E-001 -2.39835921675E-002 
+1.26100000000E+010 -5.30291378498E-001 -4.89946126938E-001 +2.98510282300E-003 -1.54733825475E-002 +4.20431842940E-006 +2.41736524913E-005 -2.34883770347E-001 +3.87323345058E-003 
+1.28100000000E+010 -5.35699427128E-001 -4.86567616463E-001 -1.28334918991E-002 -8.41420795768E-003 -1.36933495014E-005 +1.38095638249E-005 -2.41508916020E-001 +3.31554003060E-002 
+1.30100000000E+010 -5.41114151478E-001 -4.82619911432E-001 -1.14118168131E-002 +8.56416113675E-003 -1.06503343034E-007 -2.83295739791E-005 -2.45207846165E-001 +6.32573664188E-002 
+1.32100000000E+010 -5.45945584774E-001 -4.79150295258E-001 +3.01823276095E-003 +1.27917611971E-002 -7.12521205060E-006 +1.09150923890E-005 -2.45610162616E-001 +9.52490195632E-002 
+1.34100000000E+010 -5.50863265991E-001 -4.75029498339E-001 +1.26636251807E-002 +2.04115547240E-003 -6.62779439153E-006 +2.62527701125E-005 -2.42288425565E-001 +1.26963302493E-001 
+1.36100000000E+010 -5.53792715073E-001 -4.71526354551E-001 +5.93264540657E-003 -1.03642446920E-002 +2.37142576225E-005 +7.17663579053E-006 -2.34330296516E-001 +1.60186946392E-001 
+1.38100000000E+010 -5.58695912361E-001 -4.68535602093E-001 -6.53564138338E-003 -9.03619267046E-003 -2.22740854952E-005 -2.66637962341E-005 -2.21413910389E-001 +1.92608013749E-001 
+1.40100000000E+010 -5.63344419003E-001 -4.65296745300E-001 -1.07074584812E-002 +2.59353406727E-003 +3.94627249989E-006 -1.13542673716E-005 -2.04829335213E-001 +2.24259510636E-001 
+1.42100000000E+010 -5.67648768425E-001 -4.62374567986E-001 -1.19622424245E-003 +1.01966978982E-002 -8.12853704701E-006 -4.40078329120E-005 -1.84308394790E-001 +2.55814164877E-001 
+1.44100000000E+010 -5.72054147720E-001 -4.58660960197E-001 +8.29059071839E-003 +4.90205502138E-003 +1.12023717520E-005 +2.13370749407E-005 -1.58393487334E-001 +2.84822344780E-001 
+1.46100000000E+010 -5.75608611107E-001 -4.55595642328E-001 +7.53260962665E-003 -5.71442022920E-003 +4.60314367956E-006 +3.15279430652E-005 -1.27556204796E-001 +3.10559630394E-001 
+1.48100000000E+010 -5.78861951828E-001 -4.50277835131E-001 -2.51030246727E-003 -8.44141282141E-003 +4.15955173594E-006 -7.28596069166E-006 -9.47369337082E-002 +3.32755684853E-001 
+1.50100000000E+010 -5.80286979675E-001 -4.49372053146E-001 -8.20063427091E-003 -1.12532288767E-003 -1.45188714669E-005 -4.33914965470E-006 -5.90002536774E-002 +3.52342635393E-001 
+1.52100000000E+010 -5.82994043827E-001 -4.48557317257E-001 -4.03621094301E-003 +7.05137476325E-003 +2.19741395995E-005 +1.64869543369E-005 -1.97346806526E-002 +3.67721974850E-001 
+1.54100000000E+010 -5.86297869682E-001 -4.46424573660E-001 +4.74183401093E-003 +5.87035389617E-003 +5.60761827728E-006 +9.78293064691E-006 +2.28714905679E-002 +3.77851516008E-001 
+1.56100000000E+010 -5.89672029018E-001 -4.43219065666E-001 +6.89863553271E-003 -1.76588923205E-003 -2.77866183751E-005 -1.30670250655E-005 +6.72117546201E-002 +3.82162600756E-001 
+1.58100000000E+010 -5.90725660324E-001 -4.42732363939E-001 +9.73241229076E-004 -6.93250354379E-003 +8.89383318281E-006 +3.15835277434E-005 +1.11821904778E-001 +3.82685333490E-001 
+1.60100000000E+010 -5.92973947525E-001 -4.41790521145E-001 -5.66360866651E-003 -3.18768713623E-003 -4.89341027787E-006 +2.98901722999E-005 +1.57512962818E-001 +3.77814263105E-001 
+1.62100000000E+010 -5.95182597637E-001 -4.40367698669E-001 -5.03056636080E-003 +3.60935577191E-003 +1.21964230857E-005 -9.23211518966E-006 +2.05611705780E-001 +3.67499470711E-001 
+1.64100000000E+010 -5.97228527069E-001 -4.39026057720E-001 +1.43803155515E-003 +5.94934727997E-003 -2.62359280896E-005 -3.56734562956E-006 +2.52956688404E-001 +3.51108491421E-001 
+1.66100000000E+010 -6.00585222244E-001 -4.37648594379E-001 +5.63470041379E-003 +7.94027466327E-004 +9.37765162234E-006 +2.39202872763E-005 +2.97476410866E-001 +3.27726989985E-001 
+1.68100000000E+010 -6.03952229023E-001 -4.35457974672E-001 +2.97281006351E-003 -4.56356722862E-003 -1.68735937223E-006 -3.52248292756E-007 +3.41382473707E-001 +3.00657182932E-001 
+1.70100000000E+010 -6.05553984642E-001 -4.33485299349E-001 -3.06474952959E-003 -4.36369981617E-003 -3.93143727706E-006 -1.58727470989E-005 +3.82068395615E-001 +2.69298613071E-001 
+1.72100000000E+010 -6.08079910278E-001 -4.31851714849E-001 -4.80027915910E-003 +1.13192980643E-003 -2.85463411274E-005 +4.18285071646E-006 +4.20161306858E-001 +2.30616286397E-001 
+1.74100000000E+010 -6.11331343651E-001 -4.30250912905E-001 -9.44534083828E-004 +4.62936656550E-003 -5.29901481059E-005 +2.66491515504E-005 +4.53983813524E-001 +1.87394082546E-001 
+1.76100000000E+010 -6.14479124546E-001 -4.28423225880E-001 +3.80365154706E-003 +2.54501658492E-003 +2.80627573375E-005 -1.68939379819E-007 +4.82163488865E-001 +1.41082450747E-001 
+1.78100000000E+010 -6.17680668831E-001 -4.26282614470E-001 +3.67580563761E-003 -2.36087129451E-003 +2.80893564195E-005 +1.72278032551E-005 +5.05977332592E-001 +9.18965563178E-002 
+1.80100000000E+010 -6.20286822319E-001 -4.24079179764E-001 -5.51896577235E-004 -4.20803530142E-003 +5.67884455904E-007 +1.30111066028E-005 +5.25322854519E-001 +4.02241237462E-002 
+1.82100000000E+010 -6.23423933983E-001 -4.22237575054E-001 -4.14285296574E-003 -1.00969546475E-003 +1.76150151674E-005 +2.02812657335E-006 +5.37896096706E-001 -1.50345060974E-002 
+1.84100000000E+010 -6.26412808895E-001 -4.20671254396E-001 -2.30325805023E-003 +3.26021900401E-003 -2.09837762668E-005 +1.51571321112E-005 +5.44169187546E-001 -7.30421394110E-002 
+1.86100000000E+010 -6.29697322845E-001 -4.18711394072E-001 +1.98354781605E-003 +3.27386520803E-003 +3.32103190885E-005 +1.99883288587E-005 +5.44568598270E-001 -1.30055695772E-001 
+1.88100000000E+010 -6.32454156876E-001 -4.16474997997E-001 +3.64237092435E-003 -5.30228484422E-004 +1.39207104439E-005 -2.16538846871E-005 +5.38937509060E-001 -1.87624350190E-001 
+1.90100000000E+010 -6.34667277336E-001 -4.14605736732E-001 +7.99353001639E-004 -3.33524076268E-003 -2.42888618232E-005 -3.94410344597E-005 +5.27761459351E-001 -2.44569361210E-001 
+1.92100000000E+010 -6.37573421001E-001 -4.13306504488E-001 -2.58258776739E-003 -2.04112823121E-003 -1.76239773282E-005 +5.28089694853E-005 +5.09388267994E-001 -3.03039610386E-001 
+1.94100000000E+010 -6.40592336655E-001 -4.10845130682E-001 -2.80442531221E-003 +1.58073275816E-003 +1.94549156731E-005 +1.35404916364E-005 +4.84066337347E-001 -3.58797103167E-001 
+1.96100000000E+010 -6.41625404358E-001 -4.08532798290E-001 +3.12462681904E-004 +2.95589864254E-003 +4.24097343057E-005 -1.84163563972E-005 +4.53342765570E-001 -4.11305993795E-001 
+1.98100000000E+010 -6.41614913940E-001 -4.05791014433E-001 +2.73595680483E-003 +1.02300138678E-003 +8.41965811560E-006 -1.17290319395E-005 +4.19023543596E-001 -4.59499299526E-001 
+2.00100000000E+010 -6.41515851021E-001 -4.04486238956E-001 +2.01569218189E-003 -2.13008676656E-003 +1.80376828212E-005 +2.82508899545E-005 +3.76956671476E-001 -5.06646454334E-001 
