!;Filter: kein Filter
!auto
!3/21/2019 9:25:24 AM
!3/21/2019 9:25:40 AM
!SP-Measurements Prober G4
!SP-Measurements Prober G4
!01103_448C
!134
!233
!12
!30
!-20
!0.00399976
!1.88
!0.54220246
!0.54220246
# Hz S  RI   R 50
+1.00000000000E+007 +3.20273667574E-001 +6.65376521647E-003 +4.98698912561E-002 -1.98975764215E-002 +2.94166064123E-004 +4.41794749349E-004 +5.06748445332E-003 -2.81398999505E-004 
+2.10000000000E+008 +3.39373171329E-001 -2.96310558915E-002 -1.80778058711E-003 -5.09621687233E-002 -2.55718368862E-005 +2.74080093732E-006 +9.05265286565E-003 -4.28138300776E-003 
+4.10000000000E+008 +3.40168625116E-001 -6.77841305733E-002 -4.72660586238E-002 -1.66962984949E-002 -3.14762073685E-005 -5.84915505897E-005 +1.04514025152E-002 -7.22241774201E-003 
+6.10000000000E+008 +3.36307525635E-001 -1.05793543160E-001 -3.15317660570E-002 +3.75916808844E-002 -1.20202339531E-005 -4.21771346737E-006 +9.39016789198E-003 -1.14200040698E-002 
+8.10000000000E+008 +3.28635185957E-001 -1.42343565822E-001 +2.34823320061E-002 +4.28894907236E-002 +1.08280291897E-005 -5.20410685567E-006 +6.82099675760E-003 -1.52383213863E-002 
+1.01000000000E+009 +3.18444877863E-001 -1.77653402090E-001 +5.03797680140E-002 -7.11971661076E-003 -1.04721566458E-005 +1.87902714970E-005 +2.94852675870E-003 -1.87995340675E-002 
+1.21000000000E+009 +3.05762380362E-001 -2.11497291923E-001 +1.01408008486E-002 -4.74694110453E-002 +3.30377656610E-006 +2.94815454254E-005 -1.72100588679E-003 -2.13731992990E-002 
+1.41000000000E+009 +2.91067332029E-001 -2.44030058384E-001 -4.02691848576E-002 -2.68869157881E-002 -1.41414802783E-005 +3.24319785250E-006 -7.80269084498E-003 -2.44974717498E-002 
+1.61000000000E+009 +2.75339752436E-001 -2.75042921305E-001 -3.97100485861E-002 +2.86875180900E-002 +4.75639626529E-006 +9.84465714282E-006 -1.36905778199E-002 -2.69300565124E-002 
+1.81000000000E+009 +2.57382631302E-001 -3.03803950548E-001 +1.23819652945E-002 +4.61543612182E-002 +1.76476078195E-005 -1.37995439218E-005 -1.78367905319E-002 -2.80448924750E-002 
+2.01000000000E+009 +2.39242285490E-001 -3.31071138382E-001 +4.76682446897E-002 +5.26151107624E-003 +6.16132183495E-006 +3.24948159687E-005 -2.31956504285E-002 -2.70329937339E-002 
+2.21000000000E+009 +2.19593867660E-001 -3.57090622187E-001 +2.14667338878E-002 -4.31028306484E-002 +1.40734327942E-005 -5.00223222843E-006 -2.90237888694E-002 -2.48743426055E-002 
+2.41000000000E+009 +1.98733508587E-001 -3.80766004324E-001 -3.18745188415E-002 -3.46084833145E-002 -8.46958755574E-007 -4.01593315473E-005 -3.56329083443E-002 -2.25723944604E-002 
+2.61000000000E+009 +1.77804023027E-001 -4.02896583080E-001 -4.37149517238E-002 +1.72054450959E-002 -1.48364051711E-006 -4.85596729050E-006 -4.07684631646E-002 -1.95221658796E-002 
+2.81000000000E+009 +1.56004667282E-001 -4.23441380262E-001 +9.48479515500E-004 +4.68639470637E-002 -2.93687298836E-005 -1.02120011434E-005 -4.47905883193E-002 -1.46486330777E-002 
+3.01000000000E+009 +1.33675113320E-001 -4.42004740238E-001 +4.29571643472E-002 +1.55671769753E-002 +1.54832869157E-005 +2.11063306779E-005 -4.86688837409E-002 -8.80914274603E-003 
+3.21000000000E+009 +1.11333943903E-001 -4.59229558706E-001 +3.00830248743E-002 -3.40622141957E-002 +5.12349288329E-006 +6.29085070614E-006 -5.27027212083E-002 -2.39245407283E-003 
+3.41000000000E+009 +8.90128910542E-002 -4.74846988916E-001 -2.12816856802E-002 -4.00036312640E-002 -2.53708149103E-005 -3.55572701665E-005 -5.57086355984E-002 +4.78001683950E-003 
+3.61000000000E+009 +6.67045265436E-002 -4.89071190357E-001 -4.38529253006E-002 +5.06150024012E-003 -9.60627767199E-006 +4.40513258582E-006 -5.74945062399E-002 +1.18549028412E-002 
+3.81000000000E+009 +4.42439243197E-002 -5.01774728298E-001 -1.17506636307E-002 +4.25258167088E-002 -1.23612892367E-007 -7.48439106246E-006 -5.74464723468E-002 +1.93940587342E-002 
+4.01000000000E+009 +2.22531408072E-002 -5.13381481171E-001 +3.56891565025E-002 +2.59350761771E-002 +1.53547407535E-005 +2.64205955318E-005 -5.65458573401E-002 +2.73819137365E-002 
+4.21000000000E+009 +4.35865804320E-004 -5.23556470871E-001 +3.65651398897E-002 -2.29153688997E-002 -2.32111615333E-005 +1.97789049707E-005 -5.46671822667E-002 +3.60844992101E-002 
+4.41000000000E+009 -2.10413802415E-002 -5.32610893250E-001 -7.60892452672E-003 -4.29393723607E-002 -1.29129284687E-006 -1.00207798823E-005 -5.16331158578E-002 +4.44118082523E-002 
+4.61000000000E+009 -4.22216169536E-002 -5.40628910065E-001 -4.29700352252E-002 -7.83862918615E-003 +1.91492435988E-005 +2.34531198657E-005 -4.73803803325E-002 +5.17625138164E-002 
+4.81000000000E+009 -6.33134543896E-002 -5.47632515430E-001 -2.30213273317E-002 +3.63965556026E-002 -2.75586025964E-005 -3.26701342601E-006 -4.08555492759E-002 +5.90489022434E-002 
+5.01000000000E+009 -8.36364775896E-002 -5.54099142551E-001 +2.58028209209E-002 +3.55143882334E-002 +1.14850058708E-006 -2.10706093640E-006 -3.42288613319E-002 +6.57459050417E-002 
+5.21000000000E+009 -1.03419058025E-001 -5.59900522232E-001 +4.22525145113E-002 -1.19372708723E-002 +1.43767492773E-005 -6.37286746041E-007 -2.67471931875E-002 +7.18373432755E-002 
+5.41000000000E+009 -1.22813753784E-001 -5.64501821995E-001 +4.72971610725E-003 -4.34161350131E-002 -1.45591411638E-005 +7.52034475227E-006 -1.77305117249E-002 +7.67741650343E-002 
+5.61000000000E+009 -1.42353147268E-001 -5.68749189377E-001 -3.97001765668E-002 -2.05007456243E-002 -2.76354762718E-006 +1.11204117275E-005 -7.83132575452E-003 +8.01294445992E-002 
+5.81000000000E+009 -1.60808429122E-001 -5.71883201599E-001 -3.28373871744E-002 +3.02530005574E-002 -5.02225020682E-006 +7.00187229086E-006 +2.68769054674E-003 +8.12103077769E-002 
+6.01000000000E+009 -1.78659841418E-001 -5.74267625809E-001 +1.59503016621E-002 +4.17961515486E-002 +7.28964778318E-007 +8.51864115248E-006 +1.40434885398E-002 +8.28163996339E-002 
+6.21000000000E+009 -1.96416616440E-001 -5.76095283031E-001 +4.58760261536E-002 -3.12272430165E-004 -1.66078716575E-005 -5.06289234181E-006 +2.50973552465E-002 +8.24775323272E-002 
+6.41000000000E+009 -2.13282793760E-001 -5.77318727970E-001 +1.52575392276E-002 -4.31743226945E-002 +7.88231318438E-006 -2.66830647888E-005 +3.65980789065E-002 +8.05166214705E-002 
+6.61000000000E+009 -2.30107009411E-001 -5.78069031239E-001 -3.50021682680E-002 -3.01418341696E-002 -7.14290877113E-007 -8.51317963679E-006 +4.78361696005E-002 +7.57601186633E-002 
+6.81000000000E+009 -2.46268555522E-001 -5.78343749046E-001 -4.11057844758E-002 +2.32885889709E-002 +3.58157594746E-005 +1.97629797185E-005 +5.89170902967E-002 +7.01850578189E-002 
+7.01000000000E+009 -2.61874943972E-001 -5.78336000443E-001 +8.04952066392E-003 +4.64264266193E-002 -4.89910644319E-006 -2.54796941590E-005 +6.91503211856E-002 +6.36651143432E-002 
+7.21000000000E+009 -2.77127474546E-001 -5.77710032463E-001 +4.69464547932E-002 +8.87509528548E-003 +2.39529563260E-005 +9.08884521778E-006 +7.82246515155E-002 +5.52448220551E-002 
+7.41000000000E+009 -2.91659951210E-001 -5.77130258083E-001 +2.39963252097E-002 -4.22903969884E-002 +1.57895328812E-006 +4.74808530271E-007 +8.71956422925E-002 +4.50288616121E-002 
+7.61000000000E+009 -3.05489212275E-001 -5.75851082802E-001 -3.20749655366E-002 -3.62943895161E-002 -5.21435140399E-006 +1.43738607221E-005 +9.38903391361E-002 +3.30323725939E-002 
+7.81000000000E+009 -3.19480746984E-001 -5.73945522308E-001 -4.51435185969E-002 +1.83310583234E-002 -1.48555791384E-005 -7.14238376531E-006 +9.92689654231E-002 +2.03710664064E-002 
+8.01000000000E+009 -3.32589805126E-001 -5.71879565716E-001 +3.23229143396E-003 +4.83343042433E-002 +1.48109666043E-006 +1.16261298899E-005 +1.02897189558E-001 +6.77808793262E-003 
+8.21000000000E+009 -3.45354169607E-001 -5.69476246834E-001 +4.61175702512E-002 +1.25932656229E-002 +1.12662673928E-005 +1.42224171213E-005 +1.05282515287E-001 -7.54126626998E-003 
+8.41000000000E+009 -3.57665449381E-001 -5.66677927971E-001 +2.69695892930E-002 -3.98675315082E-002 -1.99931673706E-006 +1.17315094030E-005 +1.04780912399E-001 -2.27861311287E-002 
+8.61000000000E+009 -3.69782686234E-001 -5.64142584801E-001 -2.89711970836E-002 -3.67179960012E-002 +1.24907967347E-006 +1.23919335238E-005 +1.01447992027E-001 -3.84100265801E-002 
+8.81000000000E+009 -3.81319999695E-001 -5.61381697655E-001 -4.30505052209E-002 +1.55811626464E-002 +4.76962611629E-007 +3.45873704646E-005 +9.60752442479E-002 -5.41971251369E-002 
+9.01000000000E+009 -3.92471075058E-001 -5.58265924454E-001 +1.54199055396E-003 +4.40627001226E-002 -2.29540182772E-005 +9.19434023672E-006 +8.92930552363E-002 -6.83224797249E-002 
+9.21000000000E+009 -4.03261393309E-001 -5.55154800415E-001 +4.02589216828E-002 +1.22649231926E-002 +1.83577849384E-005 +1.24068401419E-005 +7.93641582131E-002 -8.32795351744E-002 
+9.41000000000E+009 -4.13288474083E-001 -5.52132248878E-001 +2.36467253417E-002 -3.34523841739E-002 +2.48322794505E-005 +1.14748618216E-005 +6.68233484030E-002 -9.71667468548E-002 
+9.61000000000E+009 -4.23341512680E-001 -5.48728764057E-001 -2.29173265398E-002 -3.04443612695E-002 -6.43968678560E-006 +3.15200049954E-005 +5.14263436198E-002 -1.09301835299E-001 
+9.81000000000E+009 -4.32479709387E-001 -5.45856952667E-001 -3.43066677451E-002 +1.00667309016E-002 +3.11023200084E-006 +9.83232166618E-006 +3.63272354007E-002 -1.18920437992E-001 
+1.00100000000E+010 -4.41861480474E-001 -5.42414486408E-001 -1.61398353521E-003 +3.44285853207E-002 -1.19071546578E-005 +9.01093983430E-007 +1.92266311496E-002 -1.26920387149E-001 
+1.02100000000E+010 -4.50530856848E-001 -5.38657307625E-001 +2.95116100460E-002 +1.19468113407E-002 +1.28526171466E-005 -2.85583610093E-005 +1.03811349254E-003 -1.34087264538E-001 
+1.04100000000E+010 -4.59253758192E-001 -5.35438895226E-001 +2.07599513233E-002 -2.19718012959E-002 -2.95465470117E-005 -2.49096356129E-005 -1.96399986744E-002 -1.39555230737E-001 
+1.06100000000E+010 -4.67615723610E-001 -5.31891822815E-001 -1.35306920856E-002 -2.55584884435E-002 +3.41750346706E-005 -5.86824353377E-006 -4.17416207492E-002 -1.42419934273E-001 
+1.08100000000E+010 -4.74828988314E-001 -5.29098868370E-001 -2.61140894145E-002 +3.43402964063E-003 -1.70694738699E-006 -3.23747444781E-005 -6.33978396654E-002 -1.41892030835E-001 
+1.10100000000E+010 -4.82462465763E-001 -5.25603890419E-001 -6.38706516474E-003 +2.44516376406E-002 -4.99485104228E-005 +9.77418312686E-006 -8.57309326530E-002 -1.38359695673E-001 
+1.12100000000E+010 -4.89609628916E-001 -5.22959172726E-001 +2.00818777084E-002 +1.32809514180E-002 -1.06766729004E-005 -4.38346660303E-006 -1.09784707427E-001 -1.31746500731E-001 
+1.14100000000E+010 -4.96862471104E-001 -5.19317507744E-001 +1.78552884609E-002 -1.27379419282E-002 -3.49739493686E-005 -1.29116142489E-005 -1.32952407002E-001 -1.21510811150E-001 
+1.16100000000E+010 -5.02620458603E-001 -5.16336321831E-001 -4.83281165361E-003 -2.05900762230E-002 -5.23740845892E-006 -2.10887264984E-005 -1.54924511909E-001 -1.07982710004E-001 
+1.18100000000E+010 -5.09081363678E-001 -5.13150930405E-001 -2.00262162834E-002 -1.65845477022E-003 -1.00839424704E-005 +1.18601283248E-005 -1.74602553248E-001 -9.12399441004E-002 
+1.20100000000E+010 -5.15624403954E-001 -5.09498298168E-001 -8.12288187444E-003 +1.57598275691E-002 -2.24094346777E-005 +1.84062791959E-005 -1.92425727844E-001 -7.17049017549E-002 
+1.22100000000E+010 -5.22152602673E-001 -5.05560100079E-001 +1.09461359680E-002 +1.32362786680E-002 -3.33188586410E-006 +1.08356607598E-005 -2.09964260459E-001 -4.94624152780E-002 
+1.24100000000E+010 -5.27943670750E-001 -5.02152323723E-001 +1.51726314798E-002 -5.48784481362E-003 +1.21920420497E-005 +4.40075018560E-006 -2.24659293890E-001 -2.39597912878E-002 
+1.26100000000E+010 -5.33647596836E-001 -4.98557895422E-001 +8.51486052852E-004 -1.47356558591E-002 +1.93483938347E-005 +2.16863209062E-005 -2.35020637512E-001 +3.89096746221E-003 
+1.28100000000E+010 -5.39096355438E-001 -4.94988173246E-001 -1.29981972277E-002 -6.33121840656E-003 -6.35008063909E-006 -1.73293865373E-005 -2.41606593132E-001 +3.32120023668E-002 
+1.30100000000E+010 -5.44552981853E-001 -4.90817546844E-001 -9.59219317883E-003 +9.40819736570E-003 +4.02314844905E-006 -2.43421545747E-005 -2.45303869247E-001 +6.33531436324E-002 
+1.32100000000E+010 -5.49378275871E-001 -4.87164795399E-001 +4.29988792166E-003 +1.15708149970E-002 +1.09344728116E-005 +1.87104997167E-005 -2.45663389564E-001 +9.53345000744E-002 
+1.34100000000E+010 -5.54282605648E-001 -4.82739031315E-001 +1.21171316132E-002 +4.35364898294E-004 +1.53905875777E-005 +6.07576794209E-006 -2.42329165339E-001 +1.27066060901E-001 
+1.36100000000E+010 -5.57189226151E-001 -4.79084283113E-001 +4.22572996467E-003 -1.04454969987E-002 -1.77599613380E-005 +3.82427288059E-006 -2.34411254525E-001 +1.60313963890E-001 
+1.38100000000E+010 -5.62102973461E-001 -4.75921034813E-001 -7.16261612251E-003 -7.53791444004E-003 +1.86287943507E-005 +2.96232030905E-007 -2.21471071243E-001 +1.92763820291E-001 
+1.40100000000E+010 -5.66727399826E-001 -4.72542285919E-001 -9.57626570016E-003 +3.68505995721E-003 -2.35553598031E-005 -1.56583082571E-005 -2.04864263535E-001 +2.24414214492E-001 
+1.42100000000E+010 -5.71115970612E-001 -4.69328433275E-001 +1.49184197653E-004 +9.53227188438E-003 +1.38998284456E-005 -3.07587038151E-006 -1.84303209186E-001 +2.56006360054E-001 
+1.44100000000E+010 -5.75474619865E-001 -4.65450257063E-001 +8.07992834598E-003 +3.56507976539E-003 -2.37823933276E-005 -1.72635536728E-005 -1.58298715949E-001 +2.85024404526E-001 
+1.46100000000E+010 -5.78998267651E-001 -4.62256371975E-001 +6.30476418883E-003 -6.06922060251E-003 +3.20149752042E-006 +1.83574029506E-005 -1.27460345626E-001 +3.10668766499E-001 
+1.48100000000E+010 -5.82207381725E-001 -4.56708818674E-001 -3.18700331263E-003 -7.45548168197E-003 -1.10818082248E-005 +1.19192982311E-005 -9.45916399360E-002 +3.32841098309E-001 
+1.50100000000E+010 -5.83619356155E-001 -4.55647110939E-001 -7.55619863048E-003 -2.34875580645E-004 -2.24532977882E-005 -4.25900225309E-007 -5.88701777160E-002 +3.52466285229E-001 
+1.52100000000E+010 -5.86318790913E-001 -4.54704493284E-001 -3.04278754629E-003 +6.86171744019E-003 +1.60096369655E-005 -1.00005145214E-005 -1.96307022125E-002 +3.67861986160E-001 
+1.54100000000E+010 -5.89518249035E-001 -4.52423334122E-001 +4.92538185790E-003 +4.92112431675E-003 +4.09127605963E-005 -1.86775760085E-005 +2.30496954173E-002 +3.77933174372E-001 
+1.56100000000E+010 -5.92899203300E-001 -4.49038177729E-001 +6.16531027481E-003 -2.24411278032E-003 +1.20769154819E-005 -1.04132859633E-005 +6.74084872007E-002 +3.82226616144E-001 
+1.58100000000E+010 -5.93937397003E-001 -4.48418825865E-001 +2.10227270145E-004 -6.49976590648E-003 +6.94682682933E-007 -1.49146535477E-006 +1.12013287842E-001 +3.82740378380E-001 
+1.60100000000E+010 -5.96130311489E-001 -4.47369009256E-001 -5.47038344666E-003 -2.36405129544E-003 +2.77722374449E-005 +3.06873916998E-005 +1.57670512795E-001 +3.77824425697E-001 
+1.62100000000E+010 -5.98332822323E-001 -4.45767790079E-001 -4.25257207826E-003 +3.74707696028E-003 +4.02580189984E-005 -3.76656826120E-005 +2.05814331770E-001 +3.67480784655E-001 
+1.64100000000E+010 -6.00374162197E-001 -4.44374501705E-001 +1.86799454968E-003 +5.28490031138E-003 +3.93904747398E-006 -1.92391471501E-005 +2.53181695938E-001 +3.51078301668E-001 
+1.66100000000E+010 -6.03700697422E-001 -4.42818522453E-001 +5.15327975154E-003 +1.82651609066E-004 -1.16216529022E-006 +3.04566983687E-005 +2.97668665648E-001 +3.27639222145E-001 
+1.68100000000E+010 -6.06972992420E-001 -4.40616250038E-001 +2.26109125651E-003 -4.36180643737E-003 -1.60978070198E-005 +2.92929071293E-005 +3.41586291790E-001 +3.00574213266E-001 
+1.70100000000E+010 -6.08565926552E-001 -4.38523977995E-001 -3.15684732050E-003 -3.69427422993E-003 +1.48764520418E-005 +7.29097746444E-006 +3.82287830114E-001 +2.69197463989E-001 
+1.72100000000E+010 -6.11076354980E-001 -4.36707347631E-001 -4.25326591358E-003 +1.42585230060E-003 -4.08030537074E-005 +1.70443581737E-006 +4.20427590609E-001 +2.30424687266E-001 
+1.74100000000E+010 -6.14330470562E-001 -4.35062736273E-001 -5.35898900125E-004 +4.28622961044E-003 -1.33745888888E-005 -2.06980639632E-005 +4.54165101051E-001 +1.87190830708E-001 
+1.76100000000E+010 -6.17399692535E-001 -4.33106154203E-001 +3.70958889835E-003 +2.01806984842E-003 -2.77352887679E-006 -3.90515378967E-005 +4.82289224863E-001 +1.40837371349E-001 
+1.78100000000E+010 -6.20605587959E-001 -4.30932074785E-001 +3.09691112489E-003 -2.43793171830E-003 +1.64021712408E-005 -3.74133765035E-006 +5.06110191345E-001 +9.16898548603E-002 
+1.80100000000E+010 -6.23176574707E-001 -4.28584605455E-001 -8.79439176060E-004 -3.67076764815E-003 -2.57803876593E-005 +1.67352918652E-005 +5.25354027748E-001 +4.00187894702E-002 
+1.82100000000E+010 -6.26349985600E-001 -4.26716804504E-001 -3.67469084449E-003 -5.49328047782E-004 -1.05474800876E-005 +1.41319960676E-005 +5.38013994694E-001 -1.52765996754E-002 
+1.84100000000E+010 -6.29293322563E-001 -4.24980908632E-001 -1.80227053352E-003 +2.97924573533E-003 -7.69393955125E-006 +5.89412547924E-006 +5.44183015823E-001 -7.31700882316E-002 
+1.86100000000E+010 -6.32644951344E-001 -4.22923237085E-001 +1.85680564027E-003 +2.80319899321E-003 +2.54687183769E-005 -2.51147157542E-005 +5.44564604759E-001 -1.30220651627E-001 
+1.88100000000E+010 -6.35338306427E-001 -4.20603394508E-001 +3.26903234236E-003 -5.86209876928E-004 +1.55016932695E-005 -9.98464020086E-006 +5.38914918900E-001 -1.87850400805E-001 
+1.90100000000E+010 -6.37478709221E-001 -4.18671339750E-001 +6.28949084785E-004 -3.03921569139E-003 -3.08327616949E-005 +1.34648626045E-005 +5.27728676796E-001 -2.44759678841E-001 
+1.92100000000E+010 -6.40376627445E-001 -4.17283862829E-001 -2.45728879236E-003 -1.75889220554E-003 -3.75017552869E-005 +2.02980172617E-005 +5.09365022182E-001 -3.03258031607E-001 
+1.94100000000E+010 -6.43379569054E-001 -4.14687663317E-001 -2.52269068733E-003 +1.57140055671E-003 +6.08729067153E-007 +1.14630693133E-005 +4.83873218298E-001 -3.58957827091E-001 
+1.96100000000E+010 -6.44448339939E-001 -4.12393212318E-001 +4.08989348216E-004 +2.73606507108E-003 +1.85769804375E-005 +1.34994616019E-005 +4.53227281570E-001 -4.11524653435E-001 
+1.98100000000E+010 -6.44343197346E-001 -4.09520179033E-001 +2.63017369434E-003 +7.42659729440E-004 -8.49588468554E-006 +1.41023865581E-005 +4.18836146593E-001 -4.59629058838E-001 
+2.00100000000E+010 -6.44228219986E-001 -4.08088713884E-001 +1.64385628887E-003 -2.07042135298E-003 -1.45990406963E-006 -4.75403930977E-006 +3.76778155565E-001 -5.06798028946E-001 
