!;Filter: kein Filter
!auto
!3/21/2019 9:26:39 AM
!3/21/2019 9:26:51 AM
!SP-Measurements Prober G4
!SP-Measurements Prober G4
!01103_448C
!134
!233
!12
!30
!-20
!0.00099996
!1.65
!0.05816927
!0.05816927
# Hz S  RI   R 50
+1.00000000000E+007 +5.35972774029E-001 +4.36126207933E-003 +4.44286987185E-002 -1.69378854334E-002 -1.96586493985E-004 -2.06070501008E-004 +4.65583987534E-003 +9.13513300475E-004 
+2.10000000000E+008 +5.43827414513E-001 -5.18257766962E-002 -3.00527410582E-003 -4.48611378670E-002 -1.05399158201E-005 -4.23771853093E-005 +9.09382011741E-003 -4.28871298209E-003 
+4.10000000000E+008 +5.37833154202E-001 -1.03634797037E-001 -4.23361398280E-002 -1.20214708149E-002 +8.54079989949E-005 -4.17962182837E-005 +1.05408979580E-002 -7.25814234465E-003 
+6.10000000000E+008 +5.27189433575E-001 -1.53816729784E-001 -2.53129582852E-002 +3.51242572069E-002 -1.95955308300E-005 -1.99874812097E-005 +9.34574287385E-003 -1.14742964506E-002 
+8.10000000000E+008 +5.11802434921E-001 -2.01591983438E-001 +2.38076671958E-002 +3.57449911535E-002 -2.13357961911E-005 -1.48855961015E-005 +6.83564506471E-003 -1.52362268418E-002 
+1.01000000000E+009 +4.93779838085E-001 -2.46517077088E-001 +4.19035740197E-002 -9.89862158895E-003 -4.16092043451E-005 +2.50786779361E-005 +2.98661878332E-003 -1.88549552113E-002 
+1.21000000000E+009 +4.73119169474E-001 -2.89279520512E-001 +5.11575536802E-003 -4.25437055528E-002 +2.06368786166E-005 +3.75111062567E-006 -1.73064926639E-003 -2.14576367289E-002 
+1.41000000000E+009 +4.49772447348E-001 -3.29006910324E-001 -3.84683981538E-002 -2.02693603933E-002 -3.80148139811E-006 -4.09435742768E-005 -7.76429288089E-003 -2.45240125805E-002 
+1.61000000000E+009 +4.25818085670E-001 -3.66089731455E-001 -3.29673513770E-002 +3.00394780934E-002 +5.14505018145E-006 +2.38847655964E-006 -1.37075586244E-002 -2.70237177610E-002 
+1.81000000000E+009 +3.99283826351E-001 -4.01072263718E-001 +1.73733457923E-002 +4.10383157432E-002 +3.35788427037E-005 -3.11692315336E-006 -1.78637951612E-002 -2.80706491321E-002 
+2.01000000000E+009 +3.72679561377E-001 -4.32729154825E-001 +4.59499247372E-002 -1.80508894846E-003 +7.11033578682E-007 +4.55428198620E-006 -2.32441257685E-002 -2.71255001426E-002 
+2.21000000000E+009 +3.44751566648E-001 -4.62694019079E-001 +1.38486875221E-002 -4.56047393382E-002 +5.48145089851E-006 +1.72904719875E-007 -2.90695410222E-002 -2.49561928213E-002 
+2.41000000000E+009 +3.15218061209E-001 -4.89816248417E-001 -3.79619710147E-002 -2.80199870467E-002 -7.39510028325E-007 -5.24744382346E-006 -3.56555096805E-002 -2.26015876979E-002 
+2.61000000000E+009 +2.86427795887E-001 -5.13299345970E-001 -4.27998043597E-002 +2.56712883711E-002 +1.13946980491E-005 -1.19272017400E-005 -4.09235246480E-002 -1.96024160832E-002 
+2.81000000000E+009 +2.57919758558E-001 -5.36321222782E-001 +1.31716039032E-002 +5.22520728409E-002 -5.59878099011E-005 -4.15010144934E-005 -4.48858961463E-002 -1.46950148046E-002 
+3.01000000000E+009 +2.27981537580E-001 -5.57117700577E-001 +5.50754480064E-002 +2.83192377537E-003 -5.37625601282E-006 -1.06472580228E-005 -4.87798340619E-002 -8.78390390426E-003 
+3.21000000000E+009 +1.99402660131E-001 -5.75308442116E-001 +2.34577711672E-002 -5.63904717565E-002 -1.95640986931E-005 -3.45451844623E-005 -5.27880862355E-002 -2.35325470567E-003 
+3.41000000000E+009 +1.69582888484E-001 -5.93160092831E-001 -5.13020493090E-002 -3.68133969605E-002 +2.03783220059E-005 +6.94616246619E-005 -5.58293201029E-002 +4.78633400053E-003 
+3.61000000000E+009 +1.40084311366E-001 -6.09344005585E-001 -5.08635379374E-002 +4.47765402496E-002 +2.24589803111E-005 +1.07801060949E-005 -5.76326251030E-002 +1.18459817022E-002 
+3.81000000000E+009 +1.09338372946E-001 -6.24305665493E-001 +4.00834754109E-002 +6.25995695591E-002 +5.99687473368E-006 -3.39163739227E-006 -5.75766451657E-002 +1.94717086852E-002 
+4.01000000000E+009 +7.93677419424E-002 -6.34524762630E-001 +6.75821378827E-002 -1.99629310519E-002 +1.57825325005E-005 -4.35496258433E-005 -5.66304214299E-002 +2.74883061647E-002 
+4.21000000000E+009 +4.78787608445E-002 -6.44184291363E-001 -1.39316907153E-002 -6.94543495774E-002 +1.41606378747E-005 +3.99581267629E-006 -5.47451376915E-002 +3.61931957304E-002 
+4.41000000000E+009 +1.76663510501E-002 -6.50601744652E-001 -6.84715583920E-002 +5.49501180649E-003 -2.57306073763E-005 -1.03233752213E-007 -5.17463684082E-002 +4.44757118821E-002 
+4.61000000000E+009 -8.87975841761E-003 -6.54270052910E-001 -1.31084062159E-002 +5.74680157006E-002 -3.52440220013E-005 +4.19990419687E-006 -4.74080927670E-002 +5.19091300666E-002 
+4.81000000000E+009 -3.49990502000E-002 -6.57146394253E-001 +4.47377935052E-002 +2.28892471641E-002 +1.57259582920E-005 -9.91833258013E-006 -4.08823713660E-002 +5.91738373041E-002 
+5.01000000000E+009 -6.07412718236E-002 -6.60202503204E-001 +3.07167805731E-002 -4.10778075457E-002 -1.42397193486E-005 -1.79691278390E-006 -3.42069491744E-002 +6.58664479852E-002 
+5.21000000000E+009 -8.35661217570E-002 -6.61025941372E-001 -2.67262142152E-002 -2.57709119469E-002 -2.22635808313E-005 +1.44456171256E-005 -2.67529953271E-002 +7.19850361347E-002 
+5.41000000000E+009 -1.05349168181E-001 -6.63781881332E-001 -3.20398025215E-002 +6.58397562802E-003 -3.03532724502E-005 -1.74796678039E-005 -1.77135299891E-002 +7.69612640142E-002 
+5.61000000000E+009 -1.28744006157E-001 -6.64852917194E-001 +1.85944954865E-003 +3.48564237356E-002 -1.02661797428E-005 +1.78862967459E-006 -7.78391910717E-003 +8.02844613791E-002 
+5.81000000000E+009 -1.48990020156E-001 -6.64795577526E-001 +2.25508660078E-002 +4.29568951949E-003 +1.69769682543E-005 -3.66226288406E-007 +2.80012213625E-003 +8.13680812716E-002 
+6.01000000000E+009 -1.69302538037E-001 -6.65437519550E-001 +1.60664524883E-002 -1.49130234495E-002 -9.18004752748E-006 -9.35908065003E-006 +1.41571871936E-002 +8.29679667950E-002 
+6.21000000000E+009 -1.89917817712E-001 -6.64444386959E-001 -1.25045627356E-002 -1.92485842854E-002 +4.61319723399E-005 +9.28207191464E-006 +2.52856463194E-002 +8.25895369053E-002 
+6.41000000000E+009 -2.08425283432E-001 -6.63170695305E-001 -1.50827644393E-002 +4.02520690113E-003 -1.30145926960E-005 +6.07053407293E-005 +3.66956181824E-002 +8.06611329317E-002 
+6.61000000000E+009 -2.27437302470E-001 -6.61918997765E-001 -5.33185992390E-003 +1.45501503721E-002 -9.98226823867E-006 +2.84248244498E-006 +4.80169951916E-002 +7.58877396584E-002 
+6.81000000000E+009 -2.45739161968E-001 -6.59657835960E-001 +1.35536519811E-002 +8.17996263504E-003 +2.58331638179E-005 +1.85538865480E-005 +5.91093003750E-002 +7.03098177910E-002 
+7.01000000000E+009 -2.62830376625E-001 -6.57428383827E-001 +8.85027088225E-003 -6.93436618894E-003 -2.84178222500E-005 -1.55689267558E-005 +6.93721473217E-002 +6.37243539095E-002 
+7.21000000000E+009 -2.79890865088E-001 -6.54826581478E-001 -9.29868721869E-004 -1.14599782974E-002 -5.72362023377E-006 +1.81476309535E-006 +7.84927606583E-002 +5.52665665746E-002 
+7.41000000000E+009 -2.96085953712E-001 -6.51901841164E-001 -1.14173218608E-002 -1.53401936404E-003 -1.97969075089E-005 +4.57355781691E-006 +8.74831601977E-002 +4.50373478234E-002 
+7.61000000000E+009 -3.11150580645E-001 -6.48507058620E-001 -4.23442618921E-003 +7.35677732155E-003 +1.65011824720E-005 +1.70502844412E-005 +9.41769257188E-002 +3.30173745751E-002 
+7.81000000000E+009 -3.26715797186E-001 -6.44639730453E-001 +4.10802662373E-003 +7.71993072703E-003 -5.63887851968E-006 +1.15765760711E-005 +9.95275601745E-002 +2.03129183501E-002 
+8.01000000000E+009 -3.41087251902E-001 -6.40363633633E-001 +8.42929258943E-003 -2.27977591567E-003 +1.74675442395E-005 -2.25562107516E-005 +1.03105522692E-001 +6.65868958458E-003 
+8.21000000000E+009 -3.54905128479E-001 -6.35979056358E-001 +9.80840297416E-004 -6.54730340466E-003 +2.27231848839E-005 +1.48718700075E-005 +1.05538778007E-001 -7.74735771120E-003 
+8.41000000000E+009 -3.68286430836E-001 -6.31208240986E-001 -5.31043577939E-003 -4.33759391308E-003 -1.55282705236E-005 -1.45592102854E-005 +1.05017058551E-001 -2.30089500546E-002 
+8.61000000000E+009 -3.81319642067E-001 -6.26755714417E-001 -5.43158408254E-003 +4.05625207350E-003 +1.22846358863E-005 +1.81126290499E-006 +1.01645216346E-001 -3.86398322880E-002 
+8.81000000000E+009 -3.93686264753E-001 -6.22187197208E-001 +1.15877925418E-003 +5.16908941790E-003 -5.27948031959E-005 -1.49974039232E-005 +9.62340086699E-002 -5.44720031321E-002 
+9.01000000000E+009 -4.05640661716E-001 -6.17297947407E-001 +5.28308097273E-003 +1.63893320132E-003 +6.82038171362E-006 +1.18867192214E-005 +8.94407108426E-002 -6.85933306813E-002 
+9.21000000000E+009 -4.17209297419E-001 -6.12318634987E-001 +2.86755198613E-003 -4.63233515620E-003 -4.17542833020E-005 +1.24629877973E-005 +7.94558450580E-002 -8.36137011647E-002 
+9.41000000000E+009 -4.27902072668E-001 -6.07546687126E-001 -2.37252656370E-003 -3.65478987806E-003 +1.42114831760E-005 +9.64492210187E-006 +6.68826997280E-002 -9.74619984627E-002 
+9.61000000000E+009 -4.38470184803E-001 -6.02424204350E-001 -4.49156668037E-003 +4.18080744566E-004 +5.48135858480E-006 -2.03186682484E-005 +5.14073856175E-002 -1.09659008682E-001 
+9.81000000000E+009 -4.48130279779E-001 -5.97927629948E-001 -7.60837632697E-004 +4.33981977403E-003 -2.26074753300E-005 +1.13327814688E-005 +3.62478233874E-002 -1.19272843003E-001 
+1.00100000000E+010 -4.57942605019E-001 -5.92867732048E-001 +2.91328248568E-003 +2.11972719990E-003 -1.88981885003E-005 -1.90674181795E-005 +1.91693622619E-002 -1.27280846238E-001 
+1.02100000000E+010 -4.66974884272E-001 -5.87641537189E-001 +3.33695230074E-003 -1.65561388712E-003 +2.89623385470E-005 +2.91851774818E-005 +9.01005696505E-004 -1.34382352233E-001 
+1.04100000000E+010 -4.76034998894E-001 -5.82774937153E-001 -6.15177210420E-004 -3.57208959758E-003 +3.19909304380E-005 +3.72893623535E-006 -1.98030844331E-002 -1.39858111739E-001 
+1.06100000000E+010 -4.84728902578E-001 -5.77858924866E-001 -2.94853188097E-003 -7.61480710935E-004 -2.56313451246E-005 +2.49081458605E-005 -4.19661663473E-002 -1.42709225416E-001 
+1.08100000000E+010 -4.92219150066E-001 -5.73623836040E-001 -2.06492794678E-003 +2.29468918405E-003 -1.20789127322E-005 +1.40405954880E-005 -6.36795088649E-002 -1.42191469669E-001 
+1.10100000000E+010 -5.00057578087E-001 -5.68702816963E-001 +1.55238551088E-003 +2.56809731945E-003 -1.21732900880E-005 +7.99021563580E-006 -8.60577300191E-002 -1.38629168272E-001 
+1.12100000000E+010 -5.07365405560E-001 -5.64797997475E-001 +2.55185691640E-003 -2.39582324866E-004 +1.66772297234E-005 +3.43296269421E-005 -1.10163234174E-001 -1.31958693266E-001 
+1.14100000000E+010 -5.14755547047E-001 -5.59914052486E-001 +9.57334297709E-004 -2.47844937257E-003 +2.44544480665E-005 -5.01653539686E-006 -1.33374914527E-001 -1.21639072895E-001 
+1.16100000000E+010 -5.20625829697E-001 -5.55711925030E-001 -1.98582140729E-003 -1.58051471226E-003 +7.40755194784E-006 -3.05238208966E-005 -1.55376136303E-001 -1.08022704720E-001 
+1.18100000000E+010 -5.27233541012E-001 -5.51443397999E-001 -1.99397210963E-003 +9.68660577200E-004 -2.98623835988E-005 -2.61549685092E-005 -1.75046429038E-001 -9.12388339639E-002 
+1.20100000000E+010 -5.33771812916E-001 -5.46584784985E-001 -3.78164077119E-005 +2.22597853281E-003 +2.33186074183E-005 -3.10045143124E-005 -1.92851200700E-001 -7.16711729765E-002 
+1.22100000000E+010 -5.40443062782E-001 -5.41469871998E-001 +2.08655255847E-003 +6.70370180160E-004 -3.02226671920E-005 -1.47638620547E-005 -2.10469052196E-001 -4.93417903781E-002 
+1.24100000000E+010 -5.46260237694E-001 -5.37017226219E-001 +1.28729047719E-003 -1.35535176378E-003 +1.45315143527E-005 +7.17056855137E-006 -2.25124984980E-001 -2.37571951002E-002 
+1.26100000000E+010 -5.51940381527E-001 -5.32377779484E-001 -7.07087747287E-004 -1.77503505256E-003 -3.33947059517E-006 +8.57425857248E-006 -2.35450029373E-001 +4.17006528005E-003 
+1.28100000000E+010 -5.57341456413E-001 -5.27739107609E-001 -1.78623723332E-003 +1.18942662084E-004 +1.56932073878E-005 +2.18024961214E-005 -2.41999000311E-001 +3.35537903011E-002 
+1.30100000000E+010 -5.62767863274E-001 -5.22598743439E-001 -6.03725609835E-004 +1.49861571845E-003 -1.19394708236E-005 +2.60383731074E-005 -2.45658397675E-001 +6.37290403247E-002 
+1.32100000000E+010 -5.67468225956E-001 -5.17985641956E-001 +1.07435812242E-003 +1.19254831225E-003 +6.76468062011E-007 +3.01299533021E-005 -2.45987176895E-001 +9.57605540752E-002 
+1.34100000000E+010 -5.72478055954E-001 -5.12622714043E-001 +1.45596673246E-003 -6.01220119279E-004 +2.63285146502E-005 +5.13407030667E-005 -2.42598697543E-001 +1.27524152398E-001 
+1.36100000000E+010 -5.75278043747E-001 -5.08008003235E-001 +7.36265719752E-005 -1.39900448266E-003 -5.93153299633E-006 +1.00853931144E-005 -2.34520316124E-001 +1.60819217563E-001 
+1.38100000000E+010 -5.80082476139E-001 -5.04003703594E-001 -1.26497715246E-003 -6.64095685352E-004 -3.58426427738E-006 +1.36810785989E-005 -2.21541747451E-001 +1.93334951997E-001 
+1.40100000000E+010 -5.84479391575E-001 -4.99693095684E-001 -1.03942421265E-003 +8.95430915989E-004 +1.64135853993E-005 -6.19884258413E-006 -2.04902544618E-001 +2.25015252829E-001 
+1.42100000000E+010 -5.88676333427E-001 -4.95782643557E-001 +3.29930364387E-004 +1.16067612544E-003 -1.37102142617E-006 +3.25876499119E-005 -1.84222802520E-001 +2.56531417370E-001 
+1.44100000000E+010 -5.92963933945E-001 -4.91091609001E-001 +1.19961379096E-003 +1.68493235833E-004 +1.04457558336E-006 -9.46168165683E-006 -1.58222571015E-001 +2.85592645407E-001 
+1.46100000000E+010 -5.96318244934E-001 -4.87241268158E-001 +5.67168171983E-004 -1.01152784191E-003 -2.48863289016E-005 +2.54382456433E-007 -1.27247810364E-001 +3.11232745647E-001 
+1.48100000000E+010 -5.99402546883E-001 -4.80761349201E-001 -6.46469125059E-004 -8.54786485434E-004 +2.61442419287E-005 +3.85935481972E-006 -9.42621454597E-002 +3.33352953196E-001 
+1.50100000000E+010 -6.00547730923E-001 -4.79021638632E-001 -9.98379662633E-004 +2.13961859117E-004 +6.37374569123E-006 -4.77696949019E-006 -5.85191883147E-002 +3.52922439575E-001 
+1.52100000000E+010 -6.03023469448E-001 -4.77432399988E-001 -1.62396085216E-004 +1.03534001391E-003 +8.12359576230E-006 +8.38205505715E-006 -1.91897843033E-002 +3.68265211582E-001 
+1.54100000000E+010 -6.06144845486E-001 -4.74606901407E-001 +7.80506641604E-004 +5.36454608664E-004 +4.32575870946E-006 +2.31807262026E-005 +2.35364288092E-002 +3.78328412771E-001 
+1.56100000000E+010 -6.09302401543E-001 -4.70515757799E-001 +7.63019314036E-004 -4.99259098433E-004 +1.48888113927E-006 -4.50889456260E-006 +6.80266544223E-002 +3.82550656796E-001 
+1.58100000000E+010 -6.10117614269E-001 -4.69452917576E-001 -1.26459563035E-004 -8.86745692696E-004 -3.51834478352E-006 +8.44842634251E-006 +1.12650126219E-001 +3.82963210344E-001 
+1.60100000000E+010 -6.12084865570E-001 -4.67780500650E-001 -8.09842313174E-004 -1.63374788826E-004 +1.59482660820E-005 -4.17822120653E-005 +1.58393561840E-001 +3.77911359072E-001 
+1.62100000000E+010 -6.14059805870E-001 -4.65744107962E-001 -4.77424124256E-004 +6.60480640363E-004 +6.32197225059E-006 +1.55146844918E-005 +2.06572979689E-001 +3.67413669825E-001 
+1.64100000000E+010 -6.15961015224E-001 -4.63773429394E-001 +4.10875247326E-004 +7.47152371332E-004 -1.61517291417E-005 -9.58319901656E-007 +2.53908067942E-001 +3.50994259119E-001 
+1.66100000000E+010 -6.19189143181E-001 -4.61730450392E-001 +7.45269935578E-004 -5.34046594112E-005 +4.81170172861E-006 -4.26971491834E-005 +2.98411846161E-001 +3.27455759048E-001 
+1.68100000000E+010 -6.22237503529E-001 -4.58932727575E-001 +2.31981961406E-004 -6.87037943862E-004 +7.01833560015E-005 +3.16361183650E-005 +3.42171251774E-001 +3.00245940685E-001 
+1.70100000000E+010 -6.23649179935E-001 -4.56328064203E-001 -5.37977786735E-004 -4.67348232633E-004 +3.71315873053E-005 +3.56698874384E-005 +3.82897555828E-001 +2.68817365170E-001 
+1.72100000000E+010 -6.25898540020E-001 -4.54279720783E-001 -6.25924672931E-004 +2.94973229757E-004 -3.21001170960E-005 -1.10345727080E-005 +4.20966178179E-001 +2.29937478900E-001 
+1.74100000000E+010 -6.29055619240E-001 -4.52199548483E-001 +3.67045613530E-005 +6.31170754787E-004 -5.64370839129E-006 -1.61185507750E-005 +4.54654663801E-001 +1.86617657542E-001 
+1.76100000000E+010 -6.31885826588E-001 -4.49811458588E-001 +6.46563596092E-004 +2.52645753790E-004 +3.39858561347E-005 +3.40895189765E-006 +4.82721388340E-001 +1.40202000737E-001 
+1.78100000000E+010 -6.35007143021E-001 -4.47103351355E-001 +3.98998672608E-004 -3.94066184526E-004 +8.20861714601E-007 +5.55266778974E-005 +5.06369829178E-001 +9.09715890884E-002 
+1.80100000000E+010 -6.37416422367E-001 -4.44464325905E-001 -2.04625059268E-004 -5.68432267755E-004 -2.66634160653E-005 +2.20250913117E-005 +5.25618016720E-001 +3.92001979053E-002 
+1.82100000000E+010 -6.40380024910E-001 -4.42099928856E-001 -5.25236246176E-004 +3.24793218169E-005 -3.02450080198E-005 +6.62833099341E-006 +5.38047730923E-001 -1.60527359694E-002 
+1.84100000000E+010 -6.43182218075E-001 -4.40034151077E-001 -2.64827744104E-004 +5.18985616509E-004 -1.42091303132E-005 +3.67127213394E-005 +5.44234097004E-001 -7.40369334817E-002 
+1.86100000000E+010 -6.46222412586E-001 -4.37582552433E-001 +2.79907253571E-004 +3.89134162106E-004 -1.97646804736E-005 +2.19214962272E-005 +5.44495165348E-001 -1.31044268608E-001 
+1.88100000000E+010 -6.48847401142E-001 -4.35016810894E-001 +4.77335066535E-004 -1.43643803312E-004 +5.76955926590E-006 -2.54332826444E-005 +5.38775265217E-001 -1.88625708222E-001 
+1.90100000000E+010 -6.50880217552E-001 -4.32723701000E-001 +7.25758363842E-005 -4.72236832138E-004 -2.00791728275E-005 +1.98681209440E-005 +5.27428448200E-001 -2.45579719543E-001 
+1.92100000000E+010 -6.53638184071E-001 -4.30970370770E-001 -4.19522577431E-004 -2.36920779571E-004 +1.53140899783E-005 +2.65564158326E-005 +5.08937299252E-001 -3.04039925337E-001 
+1.94100000000E+010 -6.56544268131E-001 -4.28107470274E-001 -4.02432255214E-004 +2.78176448774E-004 -2.46165382123E-005 +2.84954894596E-005 +4.83407258987E-001 -3.59694242477E-001 
+1.96100000000E+010 -6.57281160355E-001 -4.25450414419E-001 +6.58778080833E-005 +4.20217053033E-004 +5.98315164098E-005 -2.62538633251E-005 +4.52544361353E-001 -4.12093073130E-001 
+1.98100000000E+010 -6.57020151615E-001 -4.22103643417E-001 +4.12325869547E-004 +9.72725247266E-005 -1.65897818079E-005 -1.53497319388E-006 +4.18148875237E-001 -4.60135877132E-001 
+2.00100000000E+010 -6.56710803509E-001 -4.20480102301E-001 +1.91277737031E-004 -3.25325818267E-004 +2.44663056037E-006 -1.22383917187E-005 +3.75962287188E-001 -5.07201254368E-001 
