!;Filter: kein Filter
!auto
!3/21/2019 9:26:39 AM
!3/21/2019 9:26:51 AM
!SP-Measurements Prober G4
!SP-Measurements Prober G4
!01103_448C
!134
!235
!12
!30
!-20
!0.00099996
!1.65
!0.05816927
!0.05816927
# Hz S  RI   R 50
+1.00000000000E+007 +4.89276051521E-001 +3.97975090891E-003 +4.91461642087E-002 -1.92903298885E-002 +2.80743261101E-004 -6.02682295721E-004 +5.07546914741E-003 +7.46341422200E-004 
+2.10000000000E+008 +4.97054040432E-001 -5.09183555841E-002 -4.02319151908E-003 -4.99226339161E-002 -6.39977151877E-005 -4.56524612673E-005 +9.06680524349E-003 -4.40649222583E-003 
+4.10000000000E+008 +4.90615069866E-001 -1.01384922862E-001 -4.64104376733E-002 -1.25975767151E-002 +4.24018508056E-005 -3.02479420498E-005 +1.05411745608E-002 -7.18148145825E-003 
+6.10000000000E+008 +4.79982227087E-001 -1.48701757193E-001 -2.73997280747E-002 +3.92391122878E-002 -2.32605252677E-005 +5.90427334828E-005 +9.40953008831E-003 -1.14621594548E-002 
+8.10000000000E+008 +4.65337455273E-001 -1.94109573960E-001 +2.75975558907E-002 +3.93923036754E-002 +9.21644641494E-006 -5.06987635163E-005 +6.87815155834E-003 -1.52446944267E-002 
+1.01000000000E+009 +4.48544949293E-001 -2.37025305629E-001 +4.67535853386E-002 -1.28505527973E-002 +1.24829484776E-005 -9.47212902247E-006 +2.99037829973E-003 -1.88367664814E-002 
+1.21000000000E+009 +4.28847968578E-001 -2.77793675661E-001 +4.25996584818E-003 -4.87032979727E-002 -1.91882409126E-005 -4.64092991024E-005 -1.72337307595E-003 -2.14248523116E-002 
+1.41000000000E+009 +4.08371239901E-001 -3.16693991423E-001 -4.77599054575E-002 -1.92627497017E-002 +1.42738244904E-005 -8.90312730917E-006 -7.73672666401E-003 -2.45487391949E-002 
+1.61000000000E+009 +3.84471863508E-001 -3.53240907192E-001 -3.41280065477E-002 +3.82338836789E-002 +1.94334716070E-005 +2.36268033404E-006 -1.37016149238E-002 -2.69814096391E-002 
+1.81000000000E+009 +3.58654052019E-001 -3.86569410563E-001 +2.41966247559E-002 +4.57820780575E-002 +3.59419864253E-005 -6.84524320604E-006 -1.78331695497E-002 -2.81279738992E-002 
+2.01000000000E+009 +3.33966702223E-001 -4.17585790157E-001 +5.50981722772E-002 -9.55132581294E-003 -1.86186334759E-005 -2.02979954338E-005 -2.32480727136E-002 -2.71098557860E-002 
+2.21000000000E+009 +3.07769805193E-001 -4.46114420891E-001 +9.81084257364E-003 -5.97069635987E-002 -2.59644966718E-005 -2.34043909586E-005 -2.90632285178E-002 -2.49765049666E-002 
+2.41000000000E+009 +2.80219346285E-001 -4.71392065287E-001 -5.49538247287E-002 -3.30957397819E-002 +2.58886461779E-006 +1.36609451147E-005 -3.57047952712E-002 -2.25592888892E-002 
+2.61000000000E+009 +2.53895044327E-001 -4.99847412109E-001 -4.36044298112E-002 +5.76956234872E-002 -8.48136369314E-006 +1.37229335451E-005 -4.08175922930E-002 -1.95926073939E-002 
+2.81000000000E+009 +2.24815800786E-001 -5.22871434689E-001 +4.57450188696E-002 +5.99110275507E-002 -1.83036663657E-005 -1.56724454428E-005 -4.48784232140E-002 -1.47125339136E-002 
+3.01000000000E+009 +1.95212915540E-001 -5.49429178238E-001 +7.48410224915E-002 -5.46373352408E-002 -1.53907822096E-005 +2.88909795927E-005 -4.87321913242E-002 -8.83674807847E-003 
+3.21000000000E+009 +1.58071771264E-001 -5.68891048431E-001 -5.23803085089E-002 -6.88832104206E-002 -2.40856079472E-005 +7.55260498408E-006 -5.27617000043E-002 -2.39686109126E-003 
+3.41000000000E+009 +1.27578139305E-001 -5.81184685230E-001 -7.39723443985E-002 +2.64826267958E-002 +3.57322060154E-005 +3.27832240146E-005 -5.58532513678E-002 +4.78633400053E-003 
+3.61000000000E+009 +9.49109867215E-002 -5.93107223511E-001 +2.04890370369E-002 +7.40340873599E-002 +3.37006827067E-006 -3.81411628041E-005 -5.76686039567E-002 +1.18416221812E-002 
+3.81000000000E+009 +6.64282590151E-002 -5.98819434643E-001 +5.55775575340E-002 -2.61193234473E-003 -7.70218048274E-006 +4.97140888456E-008 -5.75503073633E-002 +1.94488335401E-002 
+4.01000000000E+009 +3.96580472589E-002 -6.07170641422E-001 +1.15080401301E-002 -5.12990355492E-002 -1.31563947434E-005 +4.73541376778E-006 -5.66294863820E-002 +2.74995807558E-002 
+4.21000000000E+009 +1.33881056681E-002 -6.13698363304E-001 -4.28382456303E-002 -2.11469996721E-002 +4.63500327896E-006 +4.61660602014E-005 -5.48274032772E-002 +3.61815989017E-002 
+4.41000000000E+009 -1.13113028929E-002 -6.18445932865E-001 -2.26817429066E-002 +3.03912200034E-002 -2.65700964519E-005 -4.18291674578E-005 -5.17091415823E-002 +4.44931238890E-002 
+4.61000000000E+009 -3.47892828286E-002 -6.23871445656E-001 +1.57859437168E-002 +2.60778907686E-002 -2.21840628001E-006 -1.52877200890E-005 -4.73931171000E-002 +5.19148223102E-002 
+4.81000000000E+009 -5.86257204413E-002 -6.28664672375E-001 +2.83690299839E-002 -4.27951663733E-003 -3.37496785505E-005 -1.66517493199E-005 -4.08819653094E-002 +5.91823831201E-002 
+5.01000000000E+009 -8.14516395330E-002 -6.32332146168E-001 +1.70224485919E-003 -2.43999697268E-002 +4.50171974080E-005 +6.74468992656E-007 -3.42086404562E-002 +6.58739656210E-002 
+5.21000000000E+009 -1.03186607361E-001 -6.36033058167E-001 -1.67781524360E-002 -9.42990556359E-003 +4.82787654619E-005 +1.11765602924E-005 -2.67404410988E-002 +7.19857066870E-002 
+5.41000000000E+009 -1.24906919897E-001 -6.38742864132E-001 -1.46911637858E-002 +1.07706654817E-002 -1.64311732078E-005 +2.87207294605E-005 -1.77123360336E-002 +7.69460797310E-002 
+5.61000000000E+009 -1.46500200033E-001 -6.40732228756E-001 +5.45033207163E-003 +1.49436481297E-002 +4.75489068776E-005 -9.36878132052E-006 -7.74955796078E-003 +8.03186446428E-002 
+5.81000000000E+009 -1.66858777404E-001 -6.41981303692E-001 +1.32540762424E-002 +1.23159587383E-003 -1.01491536952E-006 -2.38154989347E-005 +2.74412613362E-003 +8.13799127936E-002 
+6.01000000000E+009 -1.86699405313E-001 -6.42415285110E-001 +6.11576437950E-003 -1.10583705828E-002 -1.02697613329E-005 +3.40740480169E-005 +1.41600314528E-002 +8.30263122916E-002 
+6.21000000000E+009 -2.06122532487E-001 -6.42207205296E-001 -7.48790008947E-003 -8.19570478052E-003 +5.37311916560E-006 -3.68965011148E-005 +2.52065006644E-002 +8.25829431415E-002 
+6.41000000000E+009 -2.24651977420E-001 -6.41573667526E-001 -9.19350609183E-003 +2.89591378532E-003 +1.32484665301E-005 -2.99893645206E-006 +3.67146693170E-002 +8.06409567595E-002 
+6.61000000000E+009 -2.43059948087E-001 -6.40411019325E-001 -1.05167191941E-003 +8.99932440370E-003 -2.04858770303E-005 +1.02634776340E-005 +4.80427145958E-002 +7.58904293180E-002 
+6.81000000000E+009 -2.60631203651E-001 -6.38824164867E-001 +7.39303464070E-003 +3.77177866176E-003 -2.84505276795E-005 +5.88346165387E-006 +5.90988658369E-002 +7.02833160758E-002 
+7.01000000000E+009 -2.77456253767E-001 -6.37031733990E-001 +5.71318063885E-003 -4.61575482041E-003 +6.86646308168E-006 +7.70280803408E-006 +6.93956464529E-002 +6.37622997165E-002 
+7.21000000000E+009 -2.94027566910E-001 -6.34615600109E-001 -1.80278473999E-003 -6.80257240310E-003 +6.98099620422E-006 +1.09927705125E-005 +7.84750208259E-002 +5.52509389818E-002 
+7.41000000000E+009 -3.09670805931E-001 -6.32281780243E-001 -6.50305300951E-003 -6.48822286166E-004 +7.99468944024E-006 -2.07168741326E-005 +8.74560028315E-002 +4.50239479542E-002 
+7.61000000000E+009 -3.24458658695E-001 -6.29317581654E-001 -2.74493359029E-003 +5.12164272368E-003 -3.14135795634E-005 +4.36748678112E-006 +9.41726416349E-002 +3.29498536885E-002 
+7.81000000000E+009 -3.39520126581E-001 -6.25765144825E-001 +3.28362174332E-003 +4.33929916471E-003 +4.70502300232E-006 -3.88766929973E-005 +9.95257124305E-002 +2.02871933579E-002 
+8.01000000000E+009 -3.53512316942E-001 -6.22069478035E-001 +4.91085881367E-003 -1.46274850704E-003 +1.32203467729E-005 -9.66906827671E-006 +1.03097558022E-001 +6.68905163184E-003 
+8.21000000000E+009 -3.67016971111E-001 -6.18058443069E-001 +5.01097354572E-004 -4.57797246054E-003 +2.11979531741E-005 +4.21058539359E-005 +1.05516307056E-001 -7.70229613408E-003 
+8.41000000000E+009 -3.80067169666E-001 -6.13757431507E-001 -3.73783498071E-003 -2.28752195835E-003 -1.48906283357E-005 -2.53176185652E-005 +1.04993388057E-001 -2.29196641594E-002 
+8.61000000000E+009 -3.92893612385E-001 -6.09687566757E-001 -3.34198377095E-003 +2.51846038736E-003 +2.77113595075E-005 -2.56441453530E-005 +1.01642370224E-001 -3.86602059007E-002 
+8.81000000000E+009 -4.05017971992E-001 -6.05533719063E-001 +9.67433967162E-004 +3.64396721125E-003 -2.79139640043E-005 +2.36580690398E-005 +9.62553471327E-002 -5.44518642128E-002 
+9.01000000000E+009 -4.16810810566E-001 -6.01007103920E-001 +3.47171886824E-003 +6.25986664090E-004 -2.68358453468E-005 -6.60848353817E-009 +8.94334912300E-002 -6.86007142067E-002 
+9.21000000000E+009 -4.28182005882E-001 -5.96521317959E-001 +1.79537828080E-003 -2.88282823749E-003 +2.83236004179E-005 -2.09766076296E-005 +7.94823691249E-002 -8.35800245404E-002 
+9.41000000000E+009 -4.38731700182E-001 -5.92185080051E-001 -1.82601716369E-003 -2.49513285235E-003 -3.80530509574E-005 +7.20192883819E-006 +6.68641105294E-002 -9.75253209472E-002 
+9.61000000000E+009 -4.49199229479E-001 -5.87418258190E-001 -2.82063824125E-003 +5.45012822840E-004 +2.12411250686E-005 -1.82560161193E-005 +5.14103583992E-002 -1.09648309648E-001 
+9.81000000000E+009 -4.58795040846E-001 -5.83268404007E-001 -5.47966395970E-004 +2.78149009682E-003 -3.31280498358E-005 -5.89990941080E-006 +3.63019481301E-002 -1.19232758880E-001 
+1.00100000000E+010 -4.68585997820E-001 -5.78602075577E-001 +2.13952851482E-003 +1.36168289464E-003 -1.62422347785E-005 -1.06797151602E-005 +1.91339552402E-002 -1.27227857709E-001 
+1.02100000000E+010 -4.77720439434E-001 -5.73727250099E-001 +2.03095003963E-003 -1.27331982367E-003 +7.19802410458E-005 +1.83613210538E-005 +8.73114855494E-004 -1.34425207973E-001 
+1.04100000000E+010 -4.86765354872E-001 -5.69228351116E-001 -3.78733238904E-004 -2.31114425696E-003 -1.97740373551E-005 -5.27719676029E-005 -1.97921246290E-002 -1.39826133847E-001 
+1.06100000000E+010 -4.95378226042E-001 -5.64466238022E-001 -2.07043020055E-003 -4.50415973319E-004 +5.71482360101E-006 -4.15972644987E-005 -4.19785901904E-002 -1.42739519477E-001 
+1.08100000000E+010 -5.02791643143E-001 -5.60441613197E-001 -1.23887218069E-003 +1.59991637338E-003 +4.26341011917E-006 -1.27536068248E-005 -6.37318342924E-002 -1.42127782106E-001 
+1.10100000000E+010 -5.10682761669E-001 -5.55905520916E-001 +9.96667193249E-004 +1.72984739766E-003 +3.27424095303E-005 -4.38612951257E-005 -8.60525667667E-002 -1.38560175896E-001 
+1.12100000000E+010 -5.18022835255E-001 -5.52245378494E-001 +1.73527980223E-003 -2.59922497207E-004 -4.60410010419E-005 +1.47170912896E-005 -1.10165052116E-001 -1.31916716695E-001 
+1.14100000000E+010 -5.25391340256E-001 -5.47617673874E-001 +5.22595073562E-004 -1.60092371516E-003 -8.48826311994E-006 +5.63602679904E-006 -1.33367657661E-001 -1.21605247259E-001 
+1.16100000000E+010 -5.31304717064E-001 -5.43671727180E-001 -1.31538533606E-003 -1.08152383473E-003 -5.07654613102E-006 -1.61352272698E-005 -1.55372738838E-001 -1.08033627272E-001 
+1.18100000000E+010 -5.37915825844E-001 -5.39599001408E-001 -1.29887310322E-003 +7.61716975830E-004 -2.46029139817E-005 +3.99779537474E-006 -1.74993574619E-001 -9.13135111332E-002 
+1.20100000000E+010 -5.44640004635E-001 -5.35130143166E-001 +5.77273895033E-005 +1.47048186045E-003 +4.59339162262E-006 +3.52576527973E-008 -1.92888185382E-001 -7.16574043036E-002 
+1.22100000000E+010 -5.51296114922E-001 -5.30263960361E-001 +1.38935761061E-003 +4.80617745779E-004 -3.52638671757E-005 -2.81267657556E-005 -2.10438922048E-001 -4.93124909699E-002 
+1.24100000000E+010 -5.57228088379E-001 -5.25975942612E-001 +8.70349351317E-004 -9.95551818050E-004 -4.35503825429E-005 +1.81264749699E-005 -2.25127190351E-001 -2.37367786467E-002 
+1.26100000000E+010 -5.63124716282E-001 -5.21645903587E-001 -4.72100451589E-004 -1.16002722643E-003 +1.60274939844E-005 +1.62591641129E-005 -2.35491052270E-001 +4.17963229120E-003 
+1.28100000000E+010 -5.68649828434E-001 -5.17314851284E-001 -1.28893135116E-003 +3.33689094987E-005 +6.24313270237E-006 +2.43056456384E-005 -2.42026835680E-001 +3.35504077375E-002 
+1.30100000000E+010 -5.74282288551E-001 -5.12329280376E-001 -4.11871034885E-004 +1.09778484330E-003 +2.05858414120E-005 +2.56117937170E-006 -2.45632484555E-001 +6.37588202953E-002 
+1.32100000000E+010 -5.79361498356E-001 -5.07897078991E-001 +7.45142111555E-004 +8.07030941360E-004 -2.40901354118E-005 -2.97241876979E-005 -2.45923355222E-001 +9.57561805844E-002 
+1.34100000000E+010 -5.84636509418E-001 -5.02832174301E-001 +9.98738105409E-004 -3.50726622855E-004 -1.17920371849E-005 +1.15371931315E-005 -2.42566198111E-001 +1.27541989088E-001 
+1.36100000000E+010 -5.87578415871E-001 -4.98244166374E-001 +3.63959725291E-006 -1.01768912282E-003 +3.66624844901E-005 +3.19111277349E-005 -2.34581306577E-001 +1.60792529583E-001 
+1.38100000000E+010 -5.92642545700E-001 -4.94327962399E-001 -8.39628162794E-004 -4.64942306280E-004 +1.20212116599E-005 +1.12900033855E-005 -2.21550554037E-001 +1.93263620138E-001 
+1.40100000000E+010 -5.97477018833E-001 -4.90274727345E-001 -7.42238422390E-004 +6.71476125717E-004 -1.58390703291E-005 -1.98189900402E-005 -2.04842463136E-001 +2.25010663271E-001 
+1.42100000000E+010 -6.02016210556E-001 -4.86364394426E-001 +2.98437371384E-004 +7.87774508353E-004 +1.73172441009E-006 -8.79175058799E-006 -1.84211596847E-001 +2.56536573172E-001 
+1.44100000000E+010 -6.06792271137E-001 -4.81710851192E-001 +8.33762751427E-004 +9.50498433667E-005 -4.99606085214E-006 -7.30124884285E-006 -1.58142954111E-001 +2.85561203957E-001 
+1.46100000000E+010 -6.10590577126E-001 -4.77869719267E-001 +3.97461903049E-004 -7.55176180974E-004 -6.53177767163E-006 +1.74265187525E-005 -1.27217084169E-001 +3.11195015907E-001 
+1.48100000000E+010 -6.14242255688E-001 -4.71163809299E-001 -4.88040444907E-004 -5.90771960560E-004 +3.31467017531E-005 -1.32176655825E-005 -9.42328944802E-002 +3.33349972963E-001 
+1.50100000000E+010 -6.15650415421E-001 -4.69312101603E-001 -7.24355399143E-004 +1.62795578944E-004 +6.92773255651E-006 -8.70212079462E-006 -5.84632642567E-002 +3.52842986584E-001 
+1.52100000000E+010 -6.18603229523E-001 -4.67652648687E-001 -1.22732628370E-004 +7.22242752090E-004 +2.23577853831E-006 +3.89600336348E-006 -1.91535484046E-002 +3.68223637342E-001 
+1.54100000000E+010 -6.22163534164E-001 -4.64454680681E-001 +5.73647208512E-004 +3.58678924385E-004 +4.94007417728E-006 +4.53816392110E-005 +2.35813986510E-002 +3.78316372633E-001 
+1.56100000000E+010 -6.25749468803E-001 -4.60051655769E-001 +5.30910270754E-004 -3.51213238901E-004 -1.73043315499E-006 -3.47018726643E-006 +6.80020824075E-002 +3.82497370243E-001 
+1.58100000000E+010 -6.26759350300E-001 -4.58414494991E-001 -1.42971985042E-004 -5.99116843659E-004 -3.44675499946E-005 +1.41580903801E-005 +1.12660028040E-001 +3.82966160774E-001 
+1.60100000000E+010 -6.29017353058E-001 -4.56343203783E-001 -5.57798193768E-004 -1.23730758787E-004 +1.26575614559E-005 -3.82705984521E-005 +1.58407360315E-001 +3.77878844738E-001 
+1.62100000000E+010 -6.31311655045E-001 -4.53839868307E-001 -3.36715456797E-004 +4.57579822978E-004 +2.40857443714E-005 +2.01225684577E-005 +2.06483960152E-001 +3.67441058159E-001 
+1.64100000000E+010 -6.33410155773E-001 -4.51342493296E-001 +2.78733758023E-004 +5.13491802849E-004 +3.88037324228E-006 +3.17536687362E-005 +2.53938138485E-001 +3.50941181183E-001 
+1.66100000000E+010 -6.36718392372E-001 -4.48631465435E-001 +4.77464054711E-004 -6.46409753244E-005 +9.93346293399E-006 -2.46404870268E-005 +2.98391491175E-001 +3.27366322279E-001 
+1.68100000000E+010 -6.39702379704E-001 -4.45372313261E-001 +1.30398781039E-004 -4.99950547237E-004 +1.94621793526E-006 -7.12401515557E-006 +3.42203289270E-001 +3.00218224525E-001 
+1.70100000000E+010 -6.41266047955E-001 -4.42276448011E-001 -3.75540024834E-004 -3.48409666913E-004 -8.42295921757E-005 -2.95955542242E-005 +3.82872074842E-001 +2.68742114305E-001 
+1.72100000000E+010 -6.43385052681E-001 -4.39462929964E-001 -4.53246611869E-004 +2.31420708587E-004 +2.33783503063E-005 +6.48509694656E-006 +4.21003431082E-001 +2.29935228825E-001 
+1.74100000000E+010 -6.46358311176E-001 -4.36777949333E-001 +6.96566121405E-006 +4.56220936030E-004 -4.98467561556E-005 -2.58031536760E-006 +4.54671949148E-001 +1.86559006572E-001 
+1.76100000000E+010 -6.48977637291E-001 -4.33777153492E-001 +4.51704458101E-004 +1.60091920407E-004 -2.48281367021E-006 -2.90203070108E-006 +4.82686579227E-001 +1.40143424273E-001 
+1.78100000000E+010 -6.51826739311E-001 -4.30712878704E-001 +3.21024068398E-004 -3.04428918753E-004 -5.49328433408E-005 +5.20618414157E-005 +5.06388485432E-001 +9.09401848912E-002 
+1.80100000000E+010 -6.53928875923E-001 -4.27451878786E-001 -1.43805955304E-004 -4.04135120334E-004 -3.65256782970E-005 -2.17854831135E-005 +5.25604426861E-001 +3.91923449934E-002 
+1.82100000000E+010 -6.56449377537E-001 -4.24779057503E-001 -3.86142957723E-004 -7.79728452471E-006 +9.17980105442E-006 +5.66671478737E-005 +5.37994027138E-001 -1.60787347704E-002 
+1.84100000000E+010 -6.58960521221E-001 -4.22514915466E-001 -7.74534346419E-005 +3.03280830849E-004 -2.77035051113E-005 +2.96520852316E-006 +5.44160544872E-001 -7.40588754416E-002 
+1.86100000000E+010 -6.61683619022E-001 -4.19656127691E-001 +2.49548436841E-004 +2.54523503827E-004 -3.45375083270E-005 +1.33653957164E-005 +5.44383168221E-001 -1.30973175168E-001 
+1.88100000000E+010 -6.63898408413E-001 -4.16782736778E-001 +3.26253881212E-004 -8.76507401699E-005 +1.11532099254E-005 -5.17483431395E-006 +5.38659989834E-001 -1.88620671630E-001 
+1.90100000000E+010 -6.65534794331E-001 -4.14299905300E-001 -1.91526341951E-005 -3.74006689526E-004 +1.56946389325E-005 -2.14156007132E-005 +5.27357518673E-001 -2.45568826795E-001 
+1.92100000000E+010 -6.67925357819E-001 -4.12406206131E-001 -2.94050929369E-004 -1.72935964656E-004 +6.68947759550E-005 -2.31082412938E-005 +5.08796811104E-001 -3.04031759501E-001 
+1.94100000000E+010 -6.70419692993E-001 -4.09261256456E-001 -2.53740727203E-004 +2.06772689126E-004 -1.66858171724E-005 +5.37414962309E-006 +4.83237773180E-001 -3.59690129757E-001 
+1.96100000000E+010 -6.70915782452E-001 -4.06035572290E-001 +6.93308465998E-005 +3.21388040902E-004 -5.89184719502E-006 +3.37519122695E-005 +4.52451139688E-001 -4.12001311779E-001 
+1.98100000000E+010 -6.69820249081E-001 -4.02563691139E-001 +2.60937755229E-004 +4.30795480497E-005 +5.21485708305E-005 -6.10537745160E-006 +4.17926043272E-001 -4.60066348314E-001 
+2.00100000000E+010 -6.68771207333E-001 -4.01402562857E-001 +1.50141670019E-004 -2.30215548072E-004 +3.71450805687E-005 +8.22921992949E-006 +3.75930100679E-001 -5.07033109665E-001 
