!;Filter: kein Filter
!auto
!3/21/2019 9:26:52 AM
!3/21/2019 9:27:07 AM
!SP-Measurements Prober G4
!SP-Measurements Prober G4
!01103_448C
!134
!237
!12
!30
!-20
!0.00199954
!1.75
!0.22129449
!0.22129449
# Hz S  RI   R 50
+1.00000000000E+007 +3.28800439835E-001 +7.82929547131E-003 +6.36720731854E-002 -2.61347182095E-002 +6.35897158645E-004 -3.22557199979E-004 +5.46288164333E-003 +2.50866549322E-004 
+2.10000000000E+008 +3.38085800409E-001 -3.72951030731E-002 -2.95680994168E-003 -6.64815455675E-002 -9.00824015844E-005 -1.79122962436E-005 +9.04964935035E-003 -4.35272511095E-003 
+4.10000000000E+008 +3.35273474455E-001 -7.63975903392E-002 -6.32499903440E-002 -1.95216555148E-002 -4.98894514749E-005 -3.19304058394E-006 +1.04797100648E-002 -7.18053942546E-003 
+6.10000000000E+008 +3.30377936363E-001 -1.14486984909E-001 -3.92881631851E-002 +5.35460524261E-002 +4.47696147603E-005 +2.88889023068E-005 +9.41372569650E-003 -1.14248078316E-002 
+8.10000000000E+008 +3.21607917547E-001 -1.53127551079E-001 +3.71496640146E-002 +5.38188740611E-002 +1.87211317098E-005 -1.61622556334E-005 +6.82338420302E-003 -1.52179757133E-002 
+1.01000000000E+009 +3.08696478605E-001 -1.89624071121E-001 +6.26321136951E-002 -1.47745562717E-002 -1.15591992653E-005 +7.87648968981E-006 +2.97848205082E-003 -1.88237540424E-002 
+1.21000000000E+009 +2.95474499464E-001 -2.25567549467E-001 +4.41795215011E-003 -6.26122653484E-002 +4.35325273429E-006 +7.60052262194E-006 -1.69857509900E-003 -2.14066691697E-002 
+1.41000000000E+009 +2.77036398649E-001 -2.59412497282E-001 -5.35619072616E-002 -2.62778438628E-002 +1.33759731398E-005 -1.49023599079E-005 -7.75663368404E-003 -2.45443116874E-002 
+1.61000000000E+009 +2.58703708649E-001 -2.88667619228E-001 -4.74695339799E-002 +3.93005125225E-002 -1.59430840085E-006 -3.31687406288E-005 -1.36930095032E-002 -2.69696004689E-002 
+1.81000000000E+009 +2.39445611835E-001 -3.18563967943E-001 +2.22883224487E-002 +5.53591027856E-002 -9.80858749244E-006 -2.16983371502E-005 -1.78390946239E-002 -2.80656907707E-002 
+2.01000000000E+009 +2.18524158001E-001 -3.44690829515E-001 +5.90995699167E-002 +2.44275922887E-003 -2.27709933824E-005 +1.21093871712E-005 -2.31990180910E-002 -2.70538739860E-002 
+2.21000000000E+009 +1.98788315058E-001 -3.68069887161E-001 +2.94867977500E-002 -6.01737760007E-002 -1.49621737364E-005 -2.14865503949E-005 -2.90480460972E-002 -2.49270964414E-002 
+2.41000000000E+009 +1.76359906793E-001 -3.92925530672E-001 -4.64038923383E-002 -4.19066958129E-002 +1.55345296662E-005 +2.55733402810E-006 -3.57151329517E-002 -2.25736685097E-002 
+2.61000000000E+009 +1.53871119022E-001 -4.13193464279E-001 -5.79280890524E-002 +2.46181525290E-002 -1.33227904371E-005 -2.43384838541E-005 -4.08746600151E-002 -1.95540990680E-002 
+2.81000000000E+009 +1.33770808578E-001 -4.32117104530E-001 +3.71696404181E-003 +7.58971497416E-002 -2.35103798332E-005 -1.05718654595E-005 -4.48246225715E-002 -1.46767469123E-002 
+3.01000000000E+009 +1.09548024833E-001 -4.51263189316E-001 +6.63826316595E-002 +1.67815517634E-002 -2.44147977355E-005 +2.59050266322E-005 -4.86956909299E-002 -8.82033631206E-003 
+3.21000000000E+009 +8.68822634220E-002 -4.66375827789E-001 +4.65353354812E-002 -5.41217289865E-002 -9.59385715760E-007 +4.08456844525E-006 -5.27580752969E-002 -2.39970651455E-003 
+3.41000000000E+009 +6.77128061652E-002 -4.82385158539E-001 -5.19324503839E-002 -7.74988532066E-002 -5.08939956489E-006 +8.03266811999E-006 -5.57670854032E-002 +4.75709419698E-003 
+3.61000000000E+009 +4.29040007293E-002 -4.97000485659E-001 -7.72661045194E-002 +2.49327514321E-002 +2.67358918791E-005 +1.16533656183E-005 -5.76065443456E-002 +1.18787093088E-002 
+3.81000000000E+009 +2.13808566332E-002 -5.08222162724E-001 -1.35292205960E-002 +8.90795513988E-002 -1.78698483069E-005 +1.67089783645E-005 -5.75284399092E-002 +1.94281283766E-002 
+4.01000000000E+009 +1.17213174235E-003 -5.24267017841E-001 +1.17529653013E-001 +2.69656963646E-002 +5.92028391111E-006 -1.20807608255E-005 -5.65867945552E-002 +2.74319797754E-002 
+4.21000000000E+009 -2.39912141114E-002 -5.33052504063E-001 +5.06460778415E-002 -8.58293101192E-002 +4.32485558122E-006 -1.94687413568E-006 -5.47010451555E-002 +3.61656695604E-002 
+4.41000000000E+009 -4.45412732661E-002 -5.43239831924E-001 -7.78092220426E-002 -9.19729322195E-002 -1.02438343674E-005 +1.74545530172E-005 -5.16921393573E-002 +4.44597527385E-002 
+4.61000000000E+009 -7.20105171204E-002 -5.54851889610E-001 -8.55556130409E-002 +1.02939866483E-001 +4.48539094577E-006 +6.75568162478E-006 -4.73348833621E-002 +5.18337637186E-002 
+4.81000000000E+009 -9.31025594473E-002 -5.57799160480E-001 +4.41777370870E-002 +9.72198247910E-002 +4.97394512422E-006 -2.82502378468E-006 -4.08667959273E-002 +5.91351613402E-002 
+5.01000000000E+009 -1.15809284151E-001 -5.64752578735E-001 +1.19834676385E-001 -3.36296260357E-002 -1.23205891214E-005 -1.87000514416E-005 -3.42187918723E-002 +6.58129304647E-002 
+5.21000000000E+009 -1.39524042606E-001 -5.64936459064E-001 -4.41478602588E-002 -8.67803767323E-002 +5.97161897531E-006 -1.07320311145E-005 -2.67048962414E-002 +7.19194412231E-002 
+5.41000000000E+009 -1.55948266387E-001 -5.68702459335E-001 -7.94898718596E-002 -1.63413509727E-002 -2.17023080040E-006 +1.59748524311E-005 -1.77079252899E-002 +7.68911316991E-002 
+5.61000000000E+009 -1.76892682910E-001 -5.71642041206E-001 -2.99994889647E-002 +8.78580510616E-002 -1.04793243736E-005 +1.63375116244E-005 -7.81213259324E-003 +8.02333578467E-002 
+5.81000000000E+009 -1.93567603827E-001 -5.71206092834E-001 +5.46673089266E-002 +2.21988260746E-002 +7.18805176803E-006 -2.52252152677E-006 +2.73982691579E-003 +8.13301131129E-002 
+6.01000000000E+009 -2.09957107902E-001 -5.73963701725E-001 +4.76192496717E-002 -2.57249735296E-002 +2.88583687507E-005 +8.28500287753E-006 +1.41285164282E-002 +8.29399377108E-002 
+6.21000000000E+009 -2.27817207575E-001 -5.74653625488E-001 -2.03422978520E-002 -5.58598972857E-002 +1.38536661325E-005 +1.22328046928E-005 +2.51914933324E-002 +8.25020149350E-002 
+6.41000000000E+009 -2.42796912789E-001 -5.74792325497E-001 -3.79406772554E-002 +4.57036122680E-003 -1.72581512743E-005 -2.50672146649E-005 +3.66882979870E-002 +8.05938169360E-002 
+6.61000000000E+009 -2.58833080530E-001 -5.75763404369E-001 -1.83768980205E-002 +3.18786762655E-002 +8.60845648276E-006 -4.10457369071E-006 +4.79500293732E-002 +7.58152678609E-002 
+6.81000000000E+009 -2.74662494659E-001 -5.75460374355E-001 +2.97504104674E-002 +2.51647830009E-002 +2.07930334000E-005 +1.52043212438E-005 +5.90194463730E-002 +7.02259466052E-002 
+7.01000000000E+009 -2.88992881775E-001 -5.75217843056E-001 +2.26986426860E-002 -1.39774000272E-002 -1.80335666755E-006 +1.50431278598E-005 +6.92766681314E-002 +6.37028291821E-002 
+7.21000000000E+009 -3.03750306368E-001 -5.74817240238E-001 +1.22126750648E-003 -2.65341289341E-002 -7.29413670797E-007 -3.07302912006E-006 +7.83908441663E-002 +5.52146211267E-002 
+7.41000000000E+009 -3.17855834961E-001 -5.73921442032E-001 -2.64766514301E-002 -6.70308852568E-003 +2.57853225776E-005 -7.94622610556E-006 +8.73602256179E-002 +4.49863672256E-002 
+7.61000000000E+009 -3.30816984177E-001 -5.72702825069E-001 -1.12490234897E-002 +1.62914153188E-002 +3.23760855281E-006 +1.63667809829E-005 +9.40186902881E-002 +3.29460762441E-002 
+7.81000000000E+009 -3.44463974237E-001 -5.71037590504E-001 +7.73598859087E-003 +1.82791110128E-002 -8.93608466868E-006 +8.34333877719E-006 +9.93942618370E-002 +2.02876925468E-002 
+8.01000000000E+009 -3.57119470835E-001 -5.68937540054E-001 +1.97287630290E-002 -3.32536385395E-003 +2.02091414394E-005 +1.90278842638E-006 +1.03015154600E-001 +6.67514186352E-003 
+8.21000000000E+009 -3.69324535131E-001 -5.66699445248E-001 +3.10662970878E-003 -1.48002877831E-002 +7.44361113902E-006 +2.99130024359E-005 +1.05371817946E-001 -7.68542150036E-003 
+8.41000000000E+009 -3.81329804659E-001 -5.64194023609E-001 -1.10776666552E-002 -1.04720694944E-002 +3.09412280330E-005 -4.05071587011E-005 +1.04910150170E-001 -2.29224264622E-002 
+8.61000000000E+009 -3.93123328686E-001 -5.61775684357E-001 -1.29145234823E-002 +8.09914618731E-003 +1.18628440759E-006 -1.74134311237E-005 +1.01586095989E-001 -3.85634154081E-002 
+8.81000000000E+009 -4.04286623001E-001 -5.59285879135E-001 +2.03122082166E-003 +1.17400465533E-002 +1.23572808661E-005 -5.78265007789E-006 +9.61988568306E-002 -5.43779209256E-002 
+9.01000000000E+009 -4.15299087763E-001 -5.56424975395E-001 +1.12994620577E-002 +4.20290743932E-003 -1.65017281688E-005 +1.89354032045E-005 +8.93482491374E-002 -6.84992894530E-002 
+9.21000000000E+009 -4.25885260105E-001 -5.53507566452E-001 +6.99248583987E-003 -9.67439822853E-003 -6.30681051916E-006 +1.11344188554E-005 +7.94425010681E-002 -8.34497064352E-002 
+9.41000000000E+009 -4.35776829720E-001 -5.50794661045E-001 -4.98062698171E-003 -8.14848858863E-003 -3.64645211448E-006 -3.65342675650E-005 +6.68436363339E-002 -9.73466709256E-002 
+9.61000000000E+009 -4.45691823959E-001 -5.47600209713E-001 -9.66557022184E-003 +3.27463145368E-004 +1.78889131348E-005 -1.01883715615E-005 +5.13752959669E-002 -1.09476789832E-001 
+9.81000000000E+009 -4.54736948013E-001 -5.44962823391E-001 -2.42058094591E-003 +9.25218593329E-003 -8.21165485831E-006 +1.19295864351E-005 +3.62470261753E-002 -1.19106173515E-001 
+1.00100000000E+010 -4.64004099369E-001 -5.41766345501E-001 +6.16432633251E-003 +4.80437837541E-003 +8.00262205303E-006 -1.05554772745E-005 +1.91979594529E-002 -1.27085939050E-001 
+1.02100000000E+010 -4.72758769989E-001 -5.38363277912E-001 +7.30391871184E-003 -3.13453585841E-003 +1.85330754903E-005 -3.83845900842E-007 +9.61575715337E-004 -1.34235739708E-001 
+1.04100000000E+010 -4.81511831284E-001 -5.35224497318E-001 -8.90656199772E-004 -7.76981748641E-003 +2.71350177172E-006 +5.96164909439E-006 -1.97530221194E-002 -1.39712691307E-001 
+1.06100000000E+010 -4.89890933037E-001 -5.31852662563E-001 -6.26812595874E-003 -1.86705531087E-003 -1.23805966723E-005 -1.45852582136E-005 -4.19186577201E-002 -1.42589733005E-001 
+1.08100000000E+010 -4.97090041637E-001 -5.29106914997E-001 -4.66049648821E-003 +4.63445903733E-003 -1.38425566547E-005 -4.20692049374E-006 -6.35918304324E-002 -1.42039835453E-001 
+1.10100000000E+010 -5.04734337330E-001 -5.25743782520E-001 +2.99119413830E-003 +5.77063858509E-003 -1.61168300110E-005 -2.22425478569E-006 -8.59246775508E-002 -1.38467684388E-001 
+1.12100000000E+010 -5.11871397495E-001 -5.23309111595E-001 +5.48694469035E-003 -3.69623448933E-004 -1.00620245576E-005 -7.35266394258E-006 -1.10016509891E-001 -1.31773903966E-001 
+1.14100000000E+010 -5.19096612930E-001 -5.19953072071E-001 +2.24781525321E-003 -5.08341239765E-003 -8.26081702598E-007 +2.53872276517E-005 -1.33202239871E-001 -1.21554687619E-001 
+1.16100000000E+010 -5.24905920029E-001 -5.17084121704E-001 -4.04145428911E-003 -3.64496465772E-003 -3.00355568470E-005 -2.41015914071E-006 -1.55170276761E-001 -1.07973210514E-001 
+1.18100000000E+010 -5.31448900700E-001 -5.14181017876E-001 -4.26511606202E-003 +1.93047209177E-003 -1.57326703629E-005 -1.95118373085E-005 -1.74810394645E-001 -9.11998450756E-002 
+1.20100000000E+010 -5.38046956062E-001 -5.10667145252E-001 -2.05668504350E-004 +4.70210053027E-003 +1.14310296340E-005 +3.51098606188E-005 -1.92670807242E-001 -7.17055127025E-002 
+1.22100000000E+010 -5.44577598572E-001 -5.06925523281E-001 +4.32877615094E-003 +1.66765647009E-003 -2.27249038289E-005 +2.16969983740E-005 -2.10230425000E-001 -4.93787154555E-002 
+1.24100000000E+010 -5.50479114056E-001 -5.03753006458E-001 +2.83143925481E-003 -2.86688678898E-003 -3.71121768694E-006 -9.79300148174E-006 -2.24951162934E-001 -2.38027181476E-002 
+1.26100000000E+010 -5.56388974190E-001 -5.00539541245E-001 -1.27551390324E-003 -3.80738382228E-003 -1.54106714945E-006 +1.17551744552E-005 -2.35229015350E-001 +4.12928499281E-003 
+1.28100000000E+010 -5.61934709549E-001 -4.97061938047E-001 -3.95979965106E-003 -1.00599754660E-004 -3.32651943609E-005 -1.73915796040E-005 -2.41827115417E-001 +3.34502309561E-002 
+1.30100000000E+010 -5.67633628845E-001 -4.93195652962E-001 -1.43438472878E-003 +3.14886914566E-003 -4.98180042996E-006 +2.35261700254E-006 -2.45459407568E-001 +6.36368319392E-002 
+1.32100000000E+010 -5.72809219360E-001 -4.89772975445E-001 +2.17243796214E-003 +2.68667377532E-003 +1.39641235819E-006 +1.46715569826E-006 -2.45752245188E-001 +9.56126004457E-002 
+1.34100000000E+010 -5.78120648861E-001 -4.85604226589E-001 +3.22703365237E-003 -1.08745240141E-003 -1.06628749563E-005 +1.81309333129E-005 -2.42438092828E-001 +1.27338275313E-001 
+1.36100000000E+010 -5.81273555756E-001 -4.81838285923E-001 +2.18209534069E-004 -3.03172739223E-003 -1.59651826834E-005 +4.70925942864E-006 -2.34427735209E-001 +1.60634905100E-001 
+1.38100000000E+010 -5.86498856544E-001 -4.78814214468E-001 -2.58180894889E-003 -1.54122151434E-003 +1.40811316669E-005 +2.03600757231E-005 -2.21447750926E-001 +1.93017929792E-001 
+1.40100000000E+010 -5.91499507427E-001 -4.75501924753E-001 -2.29862052947E-003 +1.87194917817E-003 -8.66285427037E-006 -2.86901376967E-005 -2.04768985510E-001 +2.24740371108E-001 
+1.42100000000E+010 -5.96199333668E-001 -4.72428023815E-001 +7.71560939029E-004 +2.51104263589E-003 +1.48952194650E-005 +2.31979925047E-006 -1.84170678258E-001 +2.56292194128E-001 
+1.44100000000E+010 -6.01033091545E-001 -4.68703418970E-001 +2.56580486894E-003 +4.39462222857E-004 +2.06969471037E-005 -2.81151869785E-006 -1.58127233386E-001 +2.85293191671E-001 
+1.46100000000E+010 -6.05030655861E-001 -4.65572118759E-001 +1.30916980561E-003 -2.22235452384E-003 -1.42757971844E-005 -1.26406357595E-005 -1.27200096846E-001 +3.10947924852E-001 
+1.48100000000E+010 -6.09104990959E-001 -4.59982037544E-001 -1.38749601319E-003 -1.87426246703E-003 -1.34358861033E-005 -1.96758810489E-005 -9.42837074399E-002 +3.33064526320E-001 
+1.50100000000E+010 -6.10875308514E-001 -4.58545416594E-001 -2.23366240971E-003 +3.89715569327E-004 +2.31968806474E-005 -1.63128806889E-005 -5.85332512856E-002 +3.52603614330E-001 
+1.52100000000E+010 -6.14081323147E-001 -4.57413822412E-001 -4.12928260630E-004 +2.23102490418E-003 +1.69134625594E-006 +2.45698561230E-006 -1.92982573062E-002 +3.68040055037E-001 
+1.54100000000E+010 -6.17868423462E-001 -4.54894721508E-001 +1.73527072184E-003 +1.13238382619E-003 -2.28596127272E-006 +5.32465855940E-006 +2.34480965883E-002 +3.78051817417E-001 
+1.56100000000E+010 -6.21741116047E-001 -4.51161593199E-001 +1.71473273076E-003 -1.00748625118E-003 +6.08291111348E-006 +1.00053512142E-005 +6.78620710969E-002 +3.82306456566E-001 
+1.58100000000E+010 -6.23117983341E-001 -4.49917018414E-001 -3.18615027936E-004 -1.93879927974E-003 +8.66132177180E-006 -1.39639760164E-005 +1.12508483231E-001 +3.82743984461E-001 
+1.60100000000E+010 -6.25527799129E-001 -4.48328703642E-001 -1.74961565062E-003 -4.12002118537E-004 -1.01824207377E-005 +4.43520548288E-005 +1.58163100481E-001 +3.77725303173E-001 
+1.62100000000E+010 -6.28084242344E-001 -4.46334302425E-001 -1.08888978139E-003 +1.35621428490E-003 +4.06140497944E-005 -1.25161213873E-005 +2.06300884485E-001 +3.67320835590E-001 
+1.64100000000E+010 -6.30417704582E-001 -4.44337278605E-001 +8.41510249302E-004 +1.51937641203E-003 -2.31295007325E-006 -2.15229538298E-005 +2.53634512424E-001 +3.50861519575E-001 
+1.66100000000E+010 -6.33925616741E-001 -4.41968530416E-001 +1.61152333021E-003 -2.09841717151E-004 +3.18647871609E-005 -1.72440668393E-005 +2.98040300608E-001 +3.27336639166E-001 
+1.68100000000E+010 -6.37086987495E-001 -4.39164042473E-001 +5.09906851221E-004 -1.44779402763E-003 +1.34105030156E-005 +4.92143735755E-005 +3.41898620129E-001 +3.00214827061E-001 
+1.70100000000E+010 -6.38855397701E-001 -4.36499267817E-001 -1.17383478209E-003 -1.02496682666E-003 +3.09714869218E-006 +9.39940218814E-006 +3.82594585419E-001 +2.68837571144E-001 
+1.72100000000E+010 -6.41301572323E-001 -4.34158831835E-001 -1.29378319252E-003 +6.37493794784E-004 -1.80488370916E-006 -8.76385547599E-006 +4.20702129602E-001 +2.29995578527E-001 
+1.74100000000E+010 -6.44462406635E-001 -4.31927710772E-001 +2.05876517612E-006 +1.37011229526E-003 +3.47054956364E-005 -2.30406512856E-005 +4.54414874315E-001 +1.86630249023E-001 
+1.76100000000E+010 -6.47252380848E-001 -4.29243534803E-001 +1.25689676497E-003 +5.16296480782E-004 -9.98587620415E-006 +2.80406820821E-005 +4.82394695282E-001 +1.40233099461E-001 
+1.78100000000E+010 -6.50234222412E-001 -4.26611721516E-001 +9.00433515199E-004 -9.35429940000E-004 +1.35653681355E-006 +2.45991413976E-005 +5.06137311459E-001 +9.11497399211E-002 
+1.80100000000E+010 -6.52536213398E-001 -4.23782080412E-001 -4.17907576775E-004 -1.14019331522E-003 -7.49135324440E-006 -1.49666348079E-005 +5.25356709957E-001 +3.93806658685E-002 
+1.82100000000E+010 -6.55273199081E-001 -4.21367406845E-001 -1.19124294724E-003 -3.89130182157E-005 -2.04327461688E-005 -7.33370234229E-006 +5.37826538086E-001 -1.59011073411E-002 
+1.84100000000E+010 -6.57821238041E-001 -4.19333249331E-001 -4.84491523821E-004 +1.03029957972E-003 -8.51127936130E-007 -4.82489440401E-007 +5.43947339058E-001 -7.37835839391E-002 
+1.86100000000E+010 -6.60806655884E-001 -4.16989058256E-001 +6.91190653015E-004 +7.95829691924E-004 -4.43796125182E-006 +2.22534908971E-005 +5.44254899025E-001 -1.30768924952E-001 
+1.88100000000E+010 -6.63146615028E-001 -4.14522618055E-001 +1.06150063220E-003 -3.17270169035E-004 -4.44094666818E-006 +4.68110840757E-007 +5.38645505905E-001 -1.88371941447E-001 
+1.90100000000E+010 -6.65012717247E-001 -4.12365436554E-001 +8.39046551846E-005 -1.04025634937E-003 -1.61655807460E-005 +6.17055866314E-006 +5.27318179607E-001 -2.45312273502E-001 
+1.92100000000E+010 -6.67545974255E-001 -4.10787791014E-001 -8.42176435981E-004 -5.15312363859E-004 -2.11920250877E-005 -8.55069447425E-006 +5.08832633495E-001 -3.03829580545E-001 
+1.94100000000E+010 -6.70323908329E-001 -4.08056765795E-001 -8.01005051471E-004 +5.97309845034E-004 -4.29033643741E-005 +4.80007256556E-005 +4.83244985342E-001 -3.59357923269E-001 
+1.96100000000E+010 -6.71062886715E-001 -4.05028849840E-001 +2.47851916356E-004 +9.26150241867E-004 -8.60027193994E-006 +4.07610195907E-006 +4.52452331781E-001 -4.11783337593E-001 
+1.98100000000E+010 -6.70179009438E-001 -4.01637941599E-001 +8.90639901627E-004 +1.50152991409E-004 -3.89836095565E-005 +2.17902470467E-005 +4.18007642031E-001 -4.59784418344E-001 
+2.00100000000E+010 -6.68932676315E-001 -4.00844275951E-001 +4.84187563416E-004 -6.78883807268E-004 -3.19917744491E-005 +1.16397441161E-005 +3.75970453024E-001 -5.06884634495E-001 
