!;Filter: kein Filter
!auto
!3/21/2019 9:27:07 AM
!3/21/2019 9:27:22 AM
!SP-Measurements Prober G4
!SP-Measurements Prober G4
!01103_448C
!134
!237
!12
!30
!-20
!0.00299959
!1.83
!0.38139174
!0.38139174
# Hz S  RI   R 50
+1.00000000000E+007 +2.61566430330E-001 +1.36725874618E-002 +6.81929364800E-002 -2.85265166312E-002 -8.51231045090E-004 +7.89010518929E-005 +4.85512940213E-003 -5.49968644918E-005 
+2.10000000000E+008 +2.77879446745E-001 -3.19629982114E-002 -2.76590813883E-003 -7.03735798597E-002 +3.61164929927E-005 -7.78147586971E-005 +9.11395344883E-003 -4.38774889335E-003 
+4.10000000000E+008 +2.75955229998E-001 -6.83643445373E-002 -6.59570991993E-002 -2.20219250768E-002 +5.54230573471E-005 -2.38137236011E-005 +1.05303321034E-002 -7.21465144306E-003 
+6.10000000000E+008 +2.70828038454E-001 -1.03676535189E-001 -4.35132794082E-002 +5.36427982152E-002 -5.64964720979E-005 -4.61853924207E-005 +9.41865053028E-003 -1.14693520591E-002 
+8.10000000000E+008 +2.62494295835E-001 -1.37845769525E-001 +3.44573929906E-002 +5.94391077757E-002 -4.13257657783E-006 -5.95094252276E-006 +6.83571724221E-003 -1.52269955724E-002 
+1.01000000000E+009 +2.52553313971E-001 -1.70300841331E-001 +6.79840445518E-002 -1.10654691234E-002 +2.36674914049E-005 +5.35185881745E-006 +2.96287541278E-003 -1.88160669059E-002 
+1.21000000000E+009 +2.40452080965E-001 -2.01644361019E-001 +1.33506841958E-002 -6.71833530068E-002 -1.91533786165E-006 +8.90497722139E-006 -1.71492749359E-003 -2.13921368122E-002 
+1.41000000000E+009 +2.26580783725E-001 -2.31943964958E-001 -5.82758933306E-002 -3.61639112234E-002 -3.62324062735E-005 +2.77670750393E-007 -7.75832636282E-003 -2.44952905923E-002 
+1.61000000000E+009 +2.11583003402E-001 -2.61065483093E-001 -5.43396584690E-002 +4.08503748477E-002 +1.78144291567E-005 -1.28897036120E-005 -1.37248821557E-002 -2.69346423447E-002 
+1.81000000000E+009 +1.94855064154E-001 -2.87972718477E-001 +1.96567047387E-002 +6.49577304721E-002 +3.69811800738E-006 +1.07393298094E-005 -1.77990719676E-002 -2.80344486237E-002 
+2.01000000000E+009 +1.77568241954E-001 -3.13898235559E-001 +6.65407329798E-002 +4.55182418227E-003 +1.88319809240E-005 +1.39180338010E-005 -2.31719203293E-002 -2.70433463156E-002 
+2.21000000000E+009 +1.58589571714E-001 -3.37284266949E-001 +3.16653996706E-002 -6.06585368514E-002 +2.23218557949E-005 +9.08521087695E-006 -2.90432907641E-002 -2.49219574034E-002 
+2.41000000000E+009 +1.39357209206E-001 -3.59762609005E-001 -4.65965308249E-002 -4.89960499108E-002 +1.62865453603E-005 -2.60601045738E-005 -3.56702916324E-002 -2.25186310709E-002 
+2.61000000000E+009 +1.19310207665E-001 -3.80031883717E-001 -6.25900030136E-002 +2.36022584140E-002 +1.50595951709E-005 +3.47903619513E-006 -4.08352166414E-002 -1.95331145078E-002 
+2.81000000000E+009 +9.98772308230E-002 -3.98346334696E-001 -1.49152043741E-003 +7.23791718483E-002 -2.83168337774E-005 -5.86592068430E-005 -4.47796955705E-002 -1.46706430241E-002 
+3.01000000000E+009 +7.90663734078E-002 -4.16331708431E-001 +6.56521841884E-002 +2.36642975360E-002 +1.19578578506E-006 -1.53667515406E-005 -4.86580282450E-002 -8.77785775810E-003 
+3.21000000000E+009 +5.82272447646E-002 -4.31883543730E-001 +4.84423078597E-002 -5.08951842785E-002 -4.46624108008E-006 +1.11251192720E-005 -5.26658110321E-002 -2.40189163014E-003 
+3.41000000000E+009 +3.88050153852E-002 -4.46552097797E-001 -3.46215553582E-002 -6.98137581348E-002 +1.05958106360E-005 +2.90009902528E-005 -5.57280145586E-002 +4.78798476979E-003 
+3.61000000000E+009 +1.78651027381E-002 -4.60480928421E-001 -7.37477466464E-002 +9.90950129926E-003 +2.28818571486E-005 -1.19182559501E-005 -5.75389564037E-002 +1.18634114042E-002 
+3.81000000000E+009 -2.62360065244E-003 -4.72096294165E-001 -2.20920145512E-002 +7.35041648149E-002 +9.23337847780E-006 -5.02008015246E-006 -5.74970133603E-002 +1.93878915161E-002 
+4.01000000000E+009 -2.17200927436E-002 -4.83897298574E-001 +7.19946995378E-002 +4.98133599758E-002 -4.22047414759E-005 -1.84859727597E-005 -5.65510354936E-002 +2.74322349578E-002 
+4.21000000000E+009 -4.25696447492E-002 -4.94199752808E-001 +6.58430457115E-002 -5.00053316355E-002 -1.45143185364E-005 +2.23614260904E-005 -5.46983145177E-002 +3.60993854702E-002 
+4.41000000000E+009 -6.19228370488E-002 -5.02721726894E-001 -1.89545992762E-002 -8.55528861284E-002 +1.06576035250E-005 -1.05661611087E-005 -5.16527593136E-002 +4.44254390895E-002 
+4.61000000000E+009 -8.07781144977E-002 -5.12215435505E-001 -1.03481866419E-001 -3.06638539769E-003 -2.15920263145E-005 -1.37179029025E-006 -4.73359860480E-002 +5.17791956663E-002 
+4.81000000000E+009 -1.01465575397E-001 -5.19348561764E-001 -3.08248754591E-002 +9.00122970343E-002 +5.27940210304E-006 +2.55688228208E-005 -4.08356264234E-002 +5.90744949877E-002 
+5.01000000000E+009 -1.19648441672E-001 -5.25995135307E-001 +7.69606828690E-002 +7.17181190848E-002 -8.90527260822E-008 -5.63514868190E-006 -3.41942682862E-002 +6.57277107239E-002 
+5.21000000000E+009 -1.38857468963E-001 -5.34369349480E-001 +9.47193428874E-002 -8.14089626074E-002 -2.59166063188E-005 +5.17941043654E-006 -2.67243608832E-002 +7.18354731798E-002 
+5.41000000000E+009 -1.58275321126E-001 -5.38149178028E-001 -4.15417291224E-002 -9.87512767315E-002 -3.81425024898E-006 +1.09131303816E-006 -1.77443195134E-002 +7.68126249313E-002 
+5.61000000000E+009 -1.76266387105E-001 -5.43458640575E-001 -1.24746710062E-001 +5.15724858269E-003 +1.63251861522E-005 +1.79826474778E-005 -7.82935973257E-003 +8.01394879818E-002 
+5.81000000000E+009 -1.96698918939E-001 -5.47361910343E-001 +8.78437142819E-003 +1.28226459026E-001 -2.38148750213E-005 +1.94344593183E-005 +2.71872826852E-003 +8.12325552106E-002 
+6.01000000000E+009 -2.13129505515E-001 -5.48283040524E-001 +9.93008539081E-002 +3.38360778987E-002 -1.20024242278E-005 +1.00607567219E-005 +1.40871750191E-002 +8.28340798616E-002 
+6.21000000000E+009 -2.30550989509E-001 -5.50860881805E-001 +6.77229315042E-002 -1.00311040878E-001 +2.39144628722E-006 +1.03376587504E-005 +2.51277424395E-002 +8.24572741985E-002 
+6.41000000000E+009 -2.47522711754E-001 -5.50193130970E-001 -8.24321508408E-002 -5.59667199850E-002 +3.59183031833E-005 -3.46220781466E-006 +3.65749485791E-002 +8.05361345410E-002 
+6.61000000000E+009 -2.62138217688E-001 -5.50782203674E-001 -7.38099142909E-002 +3.86194586754E-002 -1.66330846696E-005 +1.81626819540E-005 +4.78797517717E-002 +7.57965818048E-002 
+6.81000000000E+009 -2.77788788080E-001 -5.51209092140E-001 +2.25551631302E-002 +8.79011079669E-002 -1.14829645099E-005 +8.81406504050E-006 +5.89564330876E-002 +7.01838955283E-002 
+7.01000000000E+009 -2.91683048010E-001 -5.50387978554E-001 +6.74005597830E-002 -6.20142742991E-003 -3.80724281968E-006 +1.90428636415E-005 +6.92157819867E-002 +6.36916905642E-002 
+7.21000000000E+009 -3.05359780788E-001 -5.50413191319E-001 +2.50943228602E-002 -5.46685457230E-002 +8.16129249870E-006 -1.25588567244E-005 +7.82461687922E-002 +5.52107766271E-002 
+7.41000000000E+009 -3.18977952003E-001 -5.50053060055E-001 -4.88000847399E-002 -3.88930067420E-002 -1.54807603394E-005 -5.85130828767E-006 +8.72680917382E-002 +4.50245067477E-002 
+7.61000000000E+009 -3.31188797951E-001 -5.48960268497E-001 -3.81883047521E-002 +2.80059501529E-002 -7.63080970501E-006 -3.40670953847E-006 +9.39352288842E-002 +3.30046787858E-002 
+7.81000000000E+009 -3.44119489193E-001 -5.47913491726E-001 +5.18035888672E-003 +4.34538722038E-002 +9.02965894056E-006 +2.35618540501E-006 +9.93069559336E-002 +2.03338209540E-002 
+8.01000000000E+009 -3.56302171946E-001 -5.46354234219E-001 +4.37201820314E-002 +6.31109718233E-003 -7.19421180406E-008 -1.49007371419E-006 +1.02924421430E-001 +6.69359648600E-003 
+8.21000000000E+009 -3.67897808552E-001 -5.44525563717E-001 +1.49166462943E-002 -3.14251519740E-002 +2.15922445932E-005 +4.62042180516E-006 +1.05295069516E-001 -7.58319953457E-003 
+8.41000000000E+009 -3.79420638084E-001 -5.42714893818E-001 -1.83026958257E-002 -2.65380199999E-002 +1.28041147036E-005 -7.91351612861E-006 +1.04806922376E-001 -2.28291861713E-002 
+8.61000000000E+009 -3.90835016966E-001 -5.40858924389E-001 -3.05683314800E-002 +9.90056991577E-003 -1.25139895317E-005 -1.25011647469E-005 +1.01489506662E-001 -3.84629927576E-002 
+8.81000000000E+009 -4.01532471180E-001 -5.38847923279E-001 -1.09317433089E-003 +2.60352566838E-002 -1.51625874878E-006 +6.82753079673E-006 +9.61200669408E-002 -5.42429797351E-002 
+9.01000000000E+009 -4.12175416946E-001 -5.36683082581E-001 +2.14756038040E-002 +1.28374844790E-002 +2.33636856137E-005 +8.43991074362E-006 +8.93231406808E-002 -6.83666765690E-002 
+9.21000000000E+009 -4.22487765551E-001 -5.34286618233E-001 +1.83863621205E-002 -1.66146717966E-002 -2.22588350880E-005 +8.23387745186E-006 +7.93681070209E-002 -8.33238139749E-002 
+9.41000000000E+009 -4.32015478611E-001 -5.32090067863E-001 -7.33022950590E-003 -1.92370004952E-002 +2.78946117760E-005 -3.25918663293E-005 +6.68312683702E-002 -9.71997231245E-002 
+9.61000000000E+009 -4.41686362028E-001 -5.29449105263E-001 -1.98010355234E-002 -2.29642796330E-003 +2.20121037273E-005 +9.09681421035E-006 +5.14133945107E-002 -1.09382994473E-001 
+9.81000000000E+009 -4.50532704592E-001 -5.27348816395E-001 -8.12768563628E-003 +1.78283322603E-002 +3.62751939065E-006 +2.01812417799E-005 +3.62795554101E-002 -1.18974983692E-001 
+1.00100000000E+010 -4.59612697363E-001 -5.24650335312E-001 +1.14304581657E-002 +1.20099158958E-002 -2.81770626316E-005 -1.35591299113E-005 +1.92144159228E-002 -1.26929983497E-001 
+1.02100000000E+010 -4.68078017235E-001 -5.21740734577E-001 +1.54895111918E-002 -4.59550600499E-003 +1.82332405529E-005 -1.94943404495E-005 +1.01267977152E-003 -1.34116277099E-001 
+1.04100000000E+010 -4.76758569479E-001 -5.19128143787E-001 +4.69772261567E-004 -1.58291272819E-002 +1.43874631249E-005 +3.63973435924E-006 -1.96289476007E-002 -1.39571264386E-001 
+1.06100000000E+010 -4.84943807125E-001 -5.16196072102E-001 -1.24546317384E-002 -5.50594320521E-003 -5.46936053070E-006 +1.78673235496E-005 -4.17880900204E-002 -1.42471432686E-001 
+1.08100000000E+010 -4.92037475109E-001 -5.13973772526E-001 -1.02638024837E-002 +8.43509566039E-003 -8.10824167274E-006 +1.30791540869E-005 -6.34675249457E-002 -1.41918480396E-001 
+1.10100000000E+010 -4.99515473843E-001 -5.11042118073E-001 +4.56775398925E-003 +1.21348192915E-002 +9.54979987000E-006 +2.22449034482E-006 -8.57659131289E-002 -1.38365387917E-001 
+1.12100000000E+010 -5.06522178650E-001 -5.09055256844E-001 +1.12874489278E-002 +3.82415193599E-004 +7.32313492335E-006 -2.14578989244E-007 -1.09845817089E-001 -1.31749421358E-001 
+1.14100000000E+010 -5.13690650463E-001 -5.06100773811E-001 +5.21156238392E-003 -9.67443734407E-003 -9.63072307059E-006 +6.43654402666E-006 -1.33022263646E-001 -1.21512733400E-001 
+1.16100000000E+010 -5.19423782825E-001 -5.03623902798E-001 -7.20774428919E-003 -7.92169664055E-003 +3.52091547029E-006 +2.02396167879E-005 -1.55008912086E-001 -1.07951417565E-001 
+1.18100000000E+010 -5.25881290436E-001 -5.01125991344E-001 -8.88805463910E-003 +3.15090408549E-003 -9.56783424044E-006 -3.37748642778E-005 -1.74636945128E-001 -9.12021920085E-002 
+1.20100000000E+010 -5.32411038876E-001 -4.97947245836E-001 -1.02818489540E-003 +9.17808525264E-003 -7.10553104000E-006 +3.34064825438E-005 -1.92473933101E-001 -7.17404633760E-002 
+1.22100000000E+010 -5.38917601109E-001 -4.94596511126E-001 +8.04285705090E-003 +3.99719551206E-003 -2.45494375122E-005 -9.24283540371E-006 -2.10042536259E-001 -4.94570545852E-002 
+1.24100000000E+010 -5.44811189175E-001 -4.91830557585E-001 +6.03833002970E-003 -5.23258280009E-003 -1.07284213300E-005 -4.55384724773E-006 -2.24774807692E-001 -2.38815788180E-002 
+1.26100000000E+010 -5.50646901131E-001 -4.88919466734E-001 -2.02669855207E-003 -7.50661827624E-003 +2.04594234674E-005 +7.04606691215E-006 -2.35081374645E-001 +3.99335520342E-003 
+1.28100000000E+010 -5.56212902069E-001 -4.85843092203E-001 -7.55796115845E-003 -7.13238434400E-004 +1.73290991370E-005 +5.29599037691E-006 -2.41632938385E-001 +3.33215072751E-002 
+1.30100000000E+010 -5.61887145042E-001 -4.82280403376E-001 -3.20363882929E-003 +6.00381800905E-003 +3.08951393890E-006 -2.51287224273E-006 -2.45316281915E-001 +6.34390115738E-002 
+1.32100000000E+010 -5.67060709000E-001 -4.79141563177E-001 +3.94396670163E-003 +5.36330882460E-003 +3.51305425283E-006 +6.75079900248E-006 -2.45659068227E-001 +9.54096987844E-002 
+1.34100000000E+010 -5.72433531284E-001 -4.75294709206E-001 +6.22599339113E-003 -1.77034491207E-003 +2.88354713120E-005 +1.76237390406E-005 -2.42340937257E-001 +1.27167642117E-001 
+1.36100000000E+010 -5.75599968433E-001 -4.71866101027E-001 +7.13179411832E-004 -5.81929599866E-003 +2.43877657340E-005 -1.78487334779E-005 -2.34355151653E-001 +1.60373494029E-001 
+1.38100000000E+010 -5.80796897411E-001 -4.69173520803E-001 -4.80123050511E-003 -3.05885728449E-003 +2.33056816796E-005 -1.47860564539E-005 -2.21437066793E-001 +1.92858457565E-001 
+1.40100000000E+010 -5.85836887360E-001 -4.66144084930E-001 -4.47627250105E-003 +3.31746158190E-003 +1.95130050997E-005 +1.19204350995E-005 -2.04786553979E-001 +2.24499478936E-001 
+1.42100000000E+010 -5.90560197830E-001 -4.63288694620E-001 +1.18452077731E-003 +4.94884932414E-003 -4.40954827354E-005 -3.06946494675E-005 -1.84217467904E-001 +2.56093084812E-001 
+1.44100000000E+010 -5.95387220383E-001 -4.59809690714E-001 +4.82302810997E-003 +1.01541669574E-003 -4.03922458645E-005 -2.61287314061E-005 -1.58223032951E-001 +2.85079061985E-001 
+1.46100000000E+010 -5.99416851997E-001 -4.56931054592E-001 +2.65150121413E-003 -4.08254982904E-003 -8.77802358445E-006 -1.19134278975E-006 -1.27323597670E-001 +3.10761392117E-001 
+1.48100000000E+010 -6.03506386280E-001 -4.51613456011E-001 -2.49778851867E-003 -3.64686688408E-003 +1.92009065358E-005 +3.06568631459E-006 -9.44210290909E-002 +3.32875162363E-001 
+1.50100000000E+010 -6.05334758759E-001 -4.50477808714E-001 -4.23478102311E-003 +6.36415497866E-004 +1.84689561138E-005 +7.23506855138E-006 -5.87300173938E-002 +3.52421134710E-001 
+1.52100000000E+010 -6.08646333218E-001 -4.49581623077E-001 -9.58304153755E-004 +4.05570166185E-003 +1.38025434353E-005 -2.51806750384E-006 -1.95248126984E-002 +3.67836654186E-001 
+1.54100000000E+010 -6.12441956997E-001 -4.47262674570E-001 +3.15541494638E-003 +2.26506497711E-003 -1.33753046612E-005 +1.04369166820E-006 +2.31921114028E-002 +3.77946943045E-001 
+1.56100000000E+010 -6.16424322128E-001 -4.43719387054E-001 +3.26233822852E-003 -1.83342548553E-003 -1.75823970494E-005 -4.36414666183E-006 +6.75894767046E-002 +3.82231891155E-001 
+1.58100000000E+010 -6.17843806744E-001 -4.42693829536E-001 -4.55629837234E-004 -3.66900395602E-003 +3.55150477844E-005 +8.85012468643E-006 +1.12206570804E-001 +3.82691264153E-001 
+1.60100000000E+010 -6.20414316654E-001 -4.41273242235E-001 -3.29503905959E-003 -9.05778317247E-004 -1.18764119179E-005 +2.73736077361E-005 +1.57872140408E-001 +3.77722501755E-001 
+1.62100000000E+010 -6.22842848301E-001 -4.39432770014E-001 -2.14147055522E-003 +2.51321680844E-003 +2.13339208130E-005 -7.28688701201E-006 +2.06016868353E-001 +3.67328733206E-001 
+1.64100000000E+010 -6.25310957432E-001 -4.37618285418E-001 +1.46635831334E-003 +2.87438672967E-003 +5.30496799911E-006 +9.04327407625E-006 +2.53324329853E-001 +3.50961595774E-001 
+1.66100000000E+010 -6.28835201263E-001 -4.35519367456E-001 +2.98974663019E-003 -2.37001921050E-004 +1.78251084435E-005 +2.25513467740E-005 +2.97735601664E-001 +3.27438652515E-001 
+1.68100000000E+010 -6.32041573524E-001 -4.32797819376E-001 +1.04561971966E-003 -2.71984864958E-003 -3.00763840642E-005 +2.11870647036E-005 +3.41595441103E-001 +3.00339192152E-001 
+1.70100000000E+010 -6.33826375008E-001 -4.30305182934E-001 -2.11365125142E-003 -1.96903129108E-003 +5.21651418239E-006 +8.63091918291E-006 +3.82288098335E-001 +2.68983066082E-001 
+1.72100000000E+010 -6.36333525181E-001 -4.28147614002E-001 -2.45353742503E-003 +1.08506146353E-003 +2.17822653212E-005 +1.08509429992E-005 +4.20463204384E-001 +2.30243593454E-001 
+1.74100000000E+010 -6.39528036118E-001 -4.26014721394E-001 -6.34582174825E-005 +2.65635852702E-003 +3.96886098315E-005 -2.82364562736E-005 +4.54244256020E-001 +1.86956211925E-001 
+1.76100000000E+010 -6.42384052277E-001 -4.23517972231E-001 +2.35872576013E-003 +1.06618995778E-003 -1.88157355296E-005 +1.07142159322E-005 +4.82226997614E-001 +1.40529319644E-001 
+1.78100000000E+010 -6.45439505577E-001 -4.20937329531E-001 +1.75089330878E-003 -1.66344817262E-003 +3.82120470022E-006 -2.77825220110E-005 +5.05986094475E-001 +9.13936197758E-002 
+1.80100000000E+010 -6.47807180882E-001 -4.18358862400E-001 -7.81822425779E-004 -2.17050523497E-003 +2.83023036900E-005 -2.29446595768E-006 +5.25296747684E-001 +3.97819615901E-002 
+1.82100000000E+010 -6.50530636311E-001 -4.16073918343E-001 -2.28581670672E-003 -1.40415751957E-004 +7.80722530180E-007 -2.28967910516E-005 +5.37842810154E-001 -1.55253335834E-002 
+1.84100000000E+010 -6.53187155724E-001 -4.14182156324E-001 -8.92649171874E-004 +1.93244777620E-003 -4.22467019234E-005 +1.05798117147E-005 +5.43994724751E-001 -7.34385102987E-002 
+1.86100000000E+010 -6.56209170818E-001 -4.11907047033E-001 +1.30801624618E-003 +1.59064109903E-003 +9.83389054454E-006 +1.66650897881E-005 +5.44373512268E-001 -1.30426466465E-001 
+1.88100000000E+010 -6.58563137054E-001 -4.09521222115E-001 +1.96089968085E-003 -5.33790269401E-004 -2.37912754528E-005 -6.86131124894E-006 +5.38730800152E-001 -1.88041672111E-001 
+1.90100000000E+010 -6.60470902920E-001 -4.07499104738E-001 +1.94980850210E-004 -1.92457577214E-003 +5.27391557625E-006 +4.06479966841E-006 +5.27477502823E-001 -2.44992986321E-001 
+1.92100000000E+010 -6.63153767586E-001 -4.06050533056E-001 -1.60751177464E-003 -9.42853570450E-004 +1.09304828584E-005 +2.91888936772E-005 +5.09015202522E-001 -3.03511232138E-001 
+1.94100000000E+010 -6.65969908237E-001 -4.03419315815E-001 -1.50427606422E-003 +1.04369409382E-003 +3.05423636746E-005 +3.79429457098E-006 +4.83559906483E-001 -3.59129846096E-001 
+1.96100000000E+010 -6.66718244553E-001 -4.00481313467E-001 +4.44476638222E-004 +1.66420545429E-003 +7.68911286286E-006 -2.13745770452E-005 +4.52789634466E-001 -4.11598801613E-001 
+1.98100000000E+010 -6.65990233421E-001 -3.97241383791E-001 +1.62962707691E-003 +3.28247959260E-004 +1.98855332201E-006 -2.27662949328E-005 +4.18457537889E-001 -4.59539175034E-001 
+2.00100000000E+010 -6.64745330811E-001 -3.96547228098E-001 +9.50116082095E-004 -1.35223590769E-003 +2.09131976590E-005 +5.94700031797E-006 +3.76412838697E-001 -5.06754696369E-001 
