!;Filter: kein Filter
!auto
!3/21/2019 9:27:54 AM
!3/21/2019 9:28:10 AM
!SP-Measurements Prober G4
!SP-Measurements Prober G4
!01103_448C
!134
!237
!12
!30
!-20
!0.00599970
!2.02
!0.74959551
!0.74959551
# Hz S  RI   R 50
+1.00000000000E+007 +1.26739636064E-001 +1.04650547728E-002 +6.17963932455E-002 -2.43286509067E-002 +2.21613008762E-004 +2.04141484573E-004 +4.92665031925E-003 -3.49502370227E-004 
+2.10000000000E+008 +1.50092601776E-001 -2.13005337864E-002 +3.37460332958E-005 -6.51514381170E-002 -7.50220669943E-006 +2.29056167882E-005 +9.02836490422E-003 -4.32460429147E-003 
+4.10000000000E+008 +1.50985449553E-001 -5.06821721792E-002 -6.07439577579E-002 -2.41718553007E-002 +1.06186712401E-006 +2.06845015782E-005 +1.04877250269E-002 -7.21897231415E-003 
+6.10000000000E+008 +1.48410931230E-001 -7.89638534188E-002 -4.47108261287E-002 +4.84968014061E-002 +1.84503023775E-005 -1.50916239363E-005 +9.33819450438E-003 -1.13902091980E-002 
+8.10000000000E+008 +1.43353432417E-001 -1.06966286898E-001 +2.87977084517E-002 +5.94748295844E-002 +1.53077598952E-005 +1.15268157970E-005 +6.77959155291E-003 -1.51913138106E-002 
+1.01000000000E+009 +1.36493608356E-001 -1.33379921317E-001 +6.82038366795E-002 -5.57311018929E-003 -4.83613439428E-006 +1.35447480716E-005 +2.92115635239E-003 -1.87685340643E-002 
+1.21000000000E+009 +1.28395706415E-001 -1.59192547202E-001 +1.78317353129E-002 -6.49287775159E-002 +1.52867778525E-006 -1.20345011965E-005 -1.74147239886E-003 -2.13286187500E-002 
+1.41000000000E+009 +1.18510611355E-001 -1.84539943933E-001 -5.40915057063E-002 -4.00219000876E-002 +1.24918788060E-005 +9.93673165794E-006 -7.76979606599E-003 -2.44524180889E-002 
+1.61000000000E+009 +1.08003839850E-001 -2.08704501390E-001 -5.68109042943E-002 +3.74922603369E-002 +6.00849807597E-006 -1.04645905594E-005 -1.36494906619E-002 -2.68840249628E-002 
+1.81000000000E+009 +9.57846939564E-002 -2.31654033065E-001 +1.41582768410E-002 +6.54533952475E-002 +3.07220252580E-005 +2.30312962231E-005 -1.77830196917E-002 -2.79882438481E-002 
+2.01000000000E+009 +8.33123028278E-002 -2.53611057997E-001 +6.62138685584E-002 +1.07015576214E-002 -5.01828208144E-006 -2.63843753601E-006 -2.31676865369E-002 -2.69350036979E-002 
+2.21000000000E+009 +6.95228129625E-002 -2.74744182825E-001 +3.28101702034E-002 -5.86135387421E-002 -2.24865766540E-006 +1.09955153675E-005 -2.89799831808E-002 -2.48688142747E-002 
+2.41000000000E+009 +5.48588559031E-002 -2.94217377901E-001 -4.21103462577E-002 -5.14611490071E-002 +1.52682478074E-005 +1.30848309254E-006 -3.56072112918E-002 -2.24533639848E-002 
+2.61000000000E+009 +3.99633906782E-002 -3.12587231398E-001 -6.35718628764E-002 +2.07678396255E-002 +7.79607580625E-006 +2.57345673162E-005 -4.07589711249E-002 -1.94933563471E-002 
+2.81000000000E+009 +2.44141370058E-002 -3.29823225737E-001 -2.83876550384E-003 +6.63823336363E-002 -1.11696390377E-005 +1.22146275316E-005 -4.47027273476E-002 -1.46438637748E-002 
+3.01000000000E+009 +8.34309495986E-003 -3.45735400915E-001 +6.04009181261E-002 +2.68531944603E-002 +6.00334396950E-006 -2.41412385549E-006 -4.85548488796E-002 -8.78810789436E-003 
+3.21000000000E+009 -7.89678934962E-003 -3.60643982887E-001 +4.70221377909E-002 -4.69269156456E-002 -1.59562496265E-005 +1.49850188791E-006 -5.25972656906E-002 -2.37602135167E-003 
+3.41000000000E+009 -2.40469519049E-002 -3.74464213848E-001 -2.69573368132E-002 -6.05148114264E-002 -1.66349982464E-005 +3.40621090800E-006 -5.56266866624E-002 +4.76869288832E-003 
+3.61000000000E+009 -4.03651073575E-002 -3.87367933989E-001 -6.60233795643E-002 +3.06615396403E-003 +1.63144195540E-005 -3.73813668375E-006 -5.73919154704E-002 +1.18041606620E-002 
+3.81000000000E+009 -5.70395663381E-002 -3.99093747139E-001 -2.11500469595E-002 +6.29385188222E-002 -9.36185824685E-006 -3.83329934266E-005 -5.73776252568E-002 +1.93208139390E-002 
+4.01000000000E+009 -7.32781887054E-002 -4.10171002150E-001 +5.13445697725E-002 +4.23929393291E-002 +1.30716921376E-006 +2.93179600703E-005 -5.64484596252E-002 +2.73331571370E-002 
+4.21000000000E+009 -8.96576493979E-002 -4.20055180788E-001 +5.81606291234E-002 -3.24163064361E-002 +1.85871849681E-005 -1.60305535246E-005 -5.46164214611E-002 +3.60482372344E-002 
+4.41000000000E+009 -1.05878517032E-001 -4.29182380438E-001 -9.08683892339E-003 -6.64283260703E-002 -9.80913955573E-006 +1.06517081804E-005 -5.15676587820E-002 +4.42893393338E-002 
+4.61000000000E+009 -1.22004926205E-001 -4.37554210424E-001 -6.59524351358E-002 -1.53846498579E-002 +2.67317482212E-005 +1.73230328073E-005 -4.72757145762E-002 +5.16706146300E-002 
+4.81000000000E+009 -1.38200819492E-001 -4.45143312216E-001 -3.83060388267E-002 +5.62338866293E-002 +1.45877338582E-005 +4.22862694904E-006 -4.08047921956E-002 +5.88883124292E-002 
+5.01000000000E+009 -1.53842344880E-001 -4.52324837446E-001 +3.89457084239E-002 +5.69323524833E-002 +2.95462791655E-006 -1.32301602207E-005 -3.41612510383E-002 +6.55742064118E-002 
+5.21000000000E+009 -1.69211596251E-001 -4.59097951651E-001 +6.84033036232E-002 -1.68397985399E-002 -8.48245053930E-006 +2.17491706280E-005 -2.67260652035E-002 +7.17027634382E-002 
+5.41000000000E+009 -1.84482499957E-001 -4.64844465256E-001 +8.39808024466E-003 -7.04744458199E-002 -7.63771822676E-006 +1.31025644805E-005 -1.77544653416E-002 +7.66500532627E-002 
+5.61000000000E+009 -1.99909254909E-001 -4.70278441906E-001 -6.41022697091E-002 -3.38887646794E-002 +1.30701837406E-005 -1.67721773323E-005 -7.84982461482E-003 +7.99863785505E-002 
+5.81000000000E+009 -2.14591652155E-001 -4.74900454283E-001 -5.50626106560E-002 +5.03129400313E-002 +1.48292283484E-005 -3.01385375678E-006 +2.61682970449E-003 +8.10705721378E-002 
+6.01000000000E+009 -2.28844970465E-001 -4.78781610727E-001 +2.86887045950E-002 +6.93866312504E-002 -1.39627582030E-005 +4.94627840908E-007 +1.39883132651E-002 +8.26988071203E-002 
+6.21000000000E+009 -2.43165954947E-001 -4.82233315706E-001 +7.71196186543E-002 -2.62484350242E-003 +9.05467061330E-007 -3.19706814480E-005 +2.49942298979E-002 +8.23128372431E-002 
+6.41000000000E+009 -2.56890237331E-001 -4.85167473555E-001 +2.26396676153E-002 -7.63529166579E-002 +2.37869389821E-005 -2.63266520051E-006 +3.64255681634E-002 +8.03878307343E-002 
+6.61000000000E+009 -2.70713508129E-001 -4.87558156252E-001 -6.46270588040E-002 -4.63768765330E-002 +7.93200797489E-006 -2.32937618421E-005 +4.76771742105E-002 +7.56475403905E-002 
+6.81000000000E+009 -2.84038424492E-001 -4.89707946777E-001 -6.72580525279E-002 +4.64981831610E-002 +1.59213668667E-005 +1.30235121105E-005 +5.87410405278E-002 +7.01013505459E-002 
+7.01000000000E+009 -2.96991825104E-001 -4.91591155529E-001 +2.52895243466E-002 +7.97071531415E-002 +9.45044121181E-006 +5.34493392479E-006 +6.89722299576E-002 +6.35853260756E-002 
+7.21000000000E+009 -3.09751868248E-001 -4.92760986090E-001 +8.22997093201E-002 +1.24019174837E-003 -8.82131371327E-006 -1.80902898137E-005 +7.80545398593E-002 +5.51842488348E-002 
+7.41000000000E+009 -3.21937292814E-001 -4.93986040354E-001 +2.81287897378E-002 -7.93681517243E-002 -4.05220225730E-006 +1.13259056889E-005 +8.70218575001E-002 +4.49869371951E-002 
+7.61000000000E+009 -3.33541125059E-001 -4.94587481022E-001 -6.89614117146E-002 -4.82030510902E-002 -4.39153427578E-006 -8.31469969853E-006 +9.36477109790E-002 +3.29941622913E-002 
+7.81000000000E+009 -3.45523923635E-001 -4.94547158480E-001 -6.42968565226E-002 +4.80825565755E-002 +1.01664898011E-006 +1.78167229024E-005 +9.90158095956E-002 +2.04013288021E-002 
+8.01000000000E+009 -3.56659263372E-001 -4.94467139244E-001 +2.61444542557E-002 +7.64895901084E-002 +1.27517832880E-005 -6.72455234962E-006 +1.02668844163E-001 +6.88685663044E-003 
+8.21000000000E+009 -3.67621898651E-001 -4.93886709213E-001 +7.78866186738E-002 -4.41957591102E-003 +4.24799582106E-005 -2.73257319350E-005 +1.05050466955E-001 -7.43147311732E-003 
+8.41000000000E+009 -3.78191083670E-001 -4.92991507053E-001 +1.62411928177E-002 -7.23221525550E-002 -1.90964851754E-006 +7.34902005206E-006 +1.04573927820E-001 -2.26742625237E-002 
+8.61000000000E+009 -3.88722628355E-001 -4.92417395115E-001 -5.89992478490E-002 -3.57472710311E-002 +9.93945377559E-006 -7.58555233915E-006 +1.01290456951E-001 -3.82249653339E-002 
+8.81000000000E+009 -3.98708760738E-001 -4.91522908211E-001 -4.76715900004E-002 +4.21288311481E-002 +6.82548579789E-006 +2.08869278140E-005 +9.59453955293E-002 -5.40079884231E-002 
+9.01000000000E+009 -4.08469527960E-001 -4.90331768990E-001 +2.09445934743E-002 +5.48964701593E-002 +1.90398588984E-006 -1.77456749952E-005 +8.91853943467E-002 -6.81045576930E-002 
+9.21000000000E+009 -4.18037205935E-001 -4.89142775536E-001 +5.64314052463E-002 -2.01950967312E-003 -1.04331265902E-005 +9.53863400355E-006 +7.92846307158E-002 -8.30329060555E-002 
+9.41000000000E+009 -4.26979601383E-001 -4.88022178411E-001 +1.41010433435E-002 -4.93796318769E-002 -3.98909969590E-006 +1.75705208676E-005 +6.67458772659E-002 -9.68764200807E-002 
+9.61000000000E+009 -4.35888290405E-001 -4.86418157816E-001 -3.75089384615E-002 -2.88212429732E-002 -1.91071721929E-005 +1.30132484628E-005 +5.13432845473E-002 -1.08986102045E-001 
+9.81000000000E+009 -4.44169759750E-001 -4.85474228859E-001 -3.79298180342E-002 +2.44542341679E-002 -6.97579707776E-006 -4.96624238622E-007 +3.63219417632E-002 -1.18588410318E-001 
+1.00100000000E+010 -4.52664077282E-001 -4.83817249537E-001 +9.52730979770E-003 +3.98199111223E-002 +1.19690480460E-006 +2.50881839747E-005 +1.93054806441E-002 -1.26588523388E-001 
+1.02100000000E+010 -4.60754692554E-001 -4.81933712959E-001 +3.75408492982E-002 +5.89142180979E-003 -2.23993520194E-005 +2.64009304374E-005 +1.16465054452E-003 -1.33765175939E-001 
+1.04100000000E+010 -4.68863666058E-001 -4.80341494083E-001 +1.76137052476E-002 -3.16457748413E-002 +2.62988633040E-005 -6.88678483129E-006 -1.94891728461E-002 -1.39258787036E-001 
+1.06100000000E+010 -4.76628690958E-001 -4.78405892849E-001 -2.14873384684E-002 -2.49696727842E-002 -2.03622821573E-005 -9.41796372445E-007 -4.15676757693E-002 -1.42141565681E-001 
+1.08100000000E+010 -4.83368784189E-001 -4.77147519588E-001 -2.92868521065E-002 +9.41827800125E-003 -7.87724911788E-006 +1.73688422365E-005 -6.31901398301E-002 -1.41628026962E-001 
+1.10100000000E+010 -4.90534275770E-001 -4.75166618824E-001 -1.42814638093E-003 +2.93143503368E-002 +3.19644495903E-005 +7.78753746999E-006 -8.54790210724E-002 -1.38127028942E-001 
+1.12100000000E+010 -4.97213691473E-001 -4.74089145660E-001 +2.44751926512E-002 +1.08013264835E-002 +5.42873249287E-006 +1.42971111927E-005 -1.09496727586E-001 -1.31531983614E-001 
+1.14100000000E+010 -5.04046201706E-001 -4.72080260515E-001 +1.83888431638E-002 -1.70806515962E-002 +4.75372462461E-006 +4.11619403167E-005 -1.32627248764E-001 -1.21345371008E-001 
+1.16100000000E+010 -5.09549558163E-001 -4.70502614975E-001 -8.92770476639E-003 -2.23534014076E-002 -7.24453684597E-006 -7.26895996195E-006 -1.54534548521E-001 -1.07839576900E-001 
+1.18100000000E+010 -5.15783011913E-001 -4.68769758940E-001 -2.20955461264E-002 +1.45385667565E-004 +1.37591496241E-005 -3.57659591828E-005 -1.74193724990E-001 -9.11698266864E-002 
+1.20100000000E+010 -5.22063970566E-001 -4.66463744640E-001 -8.12328606844E-003 +1.92005820572E-002 -2.41062170971E-005 +5.16580439580E-006 -1.92011043429E-001 -7.17529654503E-002 
+1.22100000000E+010 -5.28394281864E-001 -4.63958710432E-001 +1.42731536180E-002 +1.40167940408E-002 -7.94755942479E-006 +8.39515723783E-006 -2.09570035338E-001 -4.95452545583E-002 
+1.24100000000E+010 -5.34087717533E-001 -4.61971789598E-001 +1.69192664325E-002 -7.46422633529E-003 -4.84714610138E-006 +7.74474210630E-006 -2.24254637957E-001 -2.40516122431E-002 
+1.26100000000E+010 -5.39804816246E-001 -4.59791243076E-001 -1.50045016198E-004 -1.76134407520E-002 -3.25844916915E-006 -6.56028078083E-006 -2.34608292580E-001 +3.74910817482E-003 
+1.28100000000E+010 -5.45249938965E-001 -4.57490742207E-001 -1.57018639147E-002 -6.10473612323E-003 -2.38982738665E-005 +5.31961950401E-006 -2.41245210171E-001 +3.30230109394E-002 
+1.30100000000E+010 -5.50804316998E-001 -4.54652041197E-001 -1.07201067731E-002 +1.14048551768E-002 +1.16766796054E-005 -5.70671318201E-006 -2.44907170534E-001 +6.30706921220E-002 
+1.32100000000E+010 -5.55866062641E-001 -4.52321022749E-001 +5.89501205832E-003 +1.36762494221E-002 +4.28519661000E-006 +2.14873707591E-005 -2.45362997055E-001 +9.49579253793E-002 
+1.34100000000E+010 -5.61072289944E-001 -4.49164420366E-001 +1.42739228904E-002 -4.30356478319E-004 +4.56984844277E-006 -9.77022318693E-006 -2.42057353258E-001 +1.26640915871E-001 
+1.36100000000E+010 -5.64214766026E-001 -4.46445524693E-001 +4.67520207167E-003 -1.24643556774E-002 +7.77297282184E-006 +2.47975140155E-006 -2.34192714095E-001 +1.59841477871E-001 
+1.38100000000E+010 -5.69415211678E-001 -4.44398075342E-001 -9.10535175353E-003 -8.78997985274E-003 +1.93860905711E-005 -1.46982156366E-005 -2.21318677068E-001 +1.92267552018E-001 
+1.40100000000E+010 -5.74341177940E-001 -4.41986739635E-001 -1.11689139158E-002 +4.94897970930E-003 -6.16326360614E-006 -2.60890865320E-005 -2.04755738378E-001 +2.23954632878E-001 
+1.42100000000E+010 -5.79096555710E-001 -4.39755260944E-001 +3.34822718287E-004 +1.14115998149E-002 +5.83911469221E-006 +1.47185292008E-005 -1.84267520905E-001 +2.55476742983E-001 
+1.44100000000E+010 -5.83888649940E-001 -4.36854809523E-001 +1.00595308468E-002 +4.03709197417E-003 +1.82114636118E-005 -2.42538280872E-005 -1.58373937011E-001 +2.84538716078E-001 
+1.46100000000E+010 -5.87914049625E-001 -4.34581249952E-001 +7.26086366922E-003 -7.52489641309E-003 -2.18371656047E-006 +2.27793352678E-005 -1.27522394061E-001 +3.10176461935E-001 
+1.48100000000E+010 -5.91999053955E-001 -4.29924815893E-001 -3.92568856478E-003 -9.01626143605E-003 -9.55056475505E-006 +2.14546071220E-005 -9.46976915002E-002 +3.32299292088E-001 
+1.50100000000E+010 -5.93945145607E-001 -4.29318219423E-001 -9.36618074775E-003 -5.60017761018E-005 +6.83630833009E-006 -2.03039371627E-006 -5.91018721461E-002 +3.51906538010E-001 
+1.52100000000E+010 -5.97233355045E-001 -4.28882092237E-001 -3.50885139778E-003 +8.32243636250E-003 +3.17170929520E-006 -5.28120835952E-006 -2.00031995773E-002 +3.67400497198E-001 
+1.54100000000E+010 -6.01090729237E-001 -4.27102565765E-001 +5.96906617284E-003 +6.01658970118E-003 +3.72550653083E-006 +3.04754830722E-005 +2.26355772465E-002 +3.77580851316E-001 
+1.56100000000E+010 -6.05127751827E-001 -4.24129813910E-001 +7.60371889919E-003 -2.88040726446E-003 -1.74534034159E-005 -6.23844880465E-006 +6.69964477420E-002 +3.81923139095E-001 
+1.58100000000E+010 -6.06589555740E-001 -4.23623055220E-001 +2.09700694541E-004 -7.84243457019E-003 -2.67795530817E-005 -1.63962558872E-005 +1.11571006477E-001 +3.82480889559E-001 
+1.60100000000E+010 -6.09183847904E-001 -4.22607272863E-001 -6.78381836042E-003 -2.99029308371E-003 +3.26677036355E-005 -3.17020094371E-005 +1.57158523798E-001 +3.77622902393E-001 
+1.62100000000E+010 -6.11775696278E-001 -4.21206742525E-001 -5.28744887561E-003 +4.73898602650E-003 +1.00644207635E-007 +1.06587012851E-005 +2.05318316817E-001 +3.67302536964E-001 
+1.64100000000E+010 -6.14245474339E-001 -4.19802308083E-001 +2.26505496539E-003 +6.53047207743E-003 -2.54651308751E-006 +1.02186477307E-005 +2.52632647753E-001 +3.50946813822E-001 
+1.66100000000E+010 -6.17889821529E-001 -4.18083071709E-001 +6.50332355872E-003 +3.55808530003E-004 -2.39160617639E-005 -2.01863549592E-005 +2.97021299601E-001 +3.27587842941E-001 
+1.68100000000E+010 -6.21167123318E-001 -4.15781140327E-001 +2.84012011252E-003 -5.54368132725E-003 -2.38409538724E-005 +1.17302042781E-005 +3.40899020433E-001 +3.00638079643E-001 
+1.70100000000E+010 -6.22968792915E-001 -4.13732945919E-001 -3.93107812852E-003 -4.64262906462E-003 +3.74673959413E-006 -3.70715952158E-006 +3.81692707539E-001 +2.69386619329E-001 
+1.72100000000E+010 -6.25548303127E-001 -4.11957651377E-001 -5.43647492304E-003 +1.75496854354E-003 +2.14326973946E-005 +4.91613172926E-005 +4.19906020164E-001 +2.30678647757E-001 
+1.74100000000E+010 -6.28890037537E-001 -4.10137414932E-001 -6.09942246228E-004 +5.43521903455E-003 +4.12723275076E-005 +1.60251984198E-005 +4.53730851412E-001 +1.87496125698E-001 
+1.76100000000E+010 -6.31810426712E-001 -4.08029586077E-001 +4.65858820826E-003 +2.56718811579E-003 +2.07121865969E-005 -1.98900361283E-005 +4.81809139252E-001 +1.41197994351E-001 
+1.78100000000E+010 -6.34862065315E-001 -4.05813336372E-001 +3.94955882803E-003 -3.12636047602E-003 -1.15916154755E-005 +3.36851803695E-006 +5.05674540997E-001 +9.21224728227E-002 
+1.80100000000E+010 -6.37329101563E-001 -4.03610676527E-001 -1.22837687377E-003 -4.67597506940E-003 +1.22844548969E-005 +5.12934911967E-006 +5.25004804134E-001 +4.05044257641E-002 
+1.82100000000E+010 -6.40197634697E-001 -4.01688367128E-001 -4.68442589045E-003 -7.11688830052E-004 -1.40965339597E-005 -3.89131346310E-005 +5.37665545940E-001 -1.47659908980E-002 
+1.84100000000E+010 -6.42967700958E-001 -4.00096684694E-001 -2.30625714175E-003 +3.80658335052E-003 +6.32544606560E-006 +1.79552116606E-005 +5.43923556805E-001 -7.25982934237E-002 
+1.86100000000E+010 -6.45990908146E-001 -3.98123443127E-001 +2.45188083500E-003 +3.50230978802E-003 -6.12764270045E-005 -3.64208972314E-005 +5.44407069683E-001 -1.29572451115E-001 
+1.88100000000E+010 -6.48474812508E-001 -3.96107673645E-001 +4.12513641641E-003 -8.43468122184E-004 -1.25487995319E-005 -1.04295668280E-005 +5.38941025734E-001 -1.87178179622E-001 
+1.90100000000E+010 -6.50456607342E-001 -3.94391804934E-001 +8.08400509413E-004 -3.88965685852E-003 -8.45420345286E-006 +8.50610922498E-006 +5.27793943882E-001 -2.44182020426E-001 
+1.92100000000E+010 -6.53251647949E-001 -3.93163412809E-001 -3.09474533424E-003 -2.20846221782E-003 -3.68758946934E-006 +5.92630249230E-006 +5.09452998638E-001 -3.02714973688E-001 
+1.94100000000E+010 -6.56093299389E-001 -3.90830695629E-001 -3.17578599788E-003 +1.94162258413E-003 +7.33379965823E-006 +2.89506169793E-005 +4.84069436789E-001 -3.58386814594E-001 
+1.96100000000E+010 -6.57014131546E-001 -3.88284295797E-001 +5.45051123481E-004 +3.50948306732E-003 +2.22339713218E-005 -3.22374253301E-005 +4.53509479761E-001 -4.10904169083E-001 
+1.98100000000E+010 -6.56332612038E-001 -3.85333627462E-001 +3.30779701471E-003 +9.50030284002E-004 +1.90148330148E-005 +1.62182022905E-005 +4.19213235378E-001 -4.59042221308E-001 
+2.00100000000E+010 -6.55228614807E-001 -3.84917140007E-001 +2.10539065301E-003 -2.60884175077E-003 -2.25055755436E-005 -1.38744135256E-005 +3.77210199833E-001 -5.06264925003E-001 
