!;Filter: kein Filter
!auto
!3/21/2019 9:27:07 AM
!3/21/2019 9:27:22 AM
!SP-Measurements Prober G4
!SP-Measurements Prober G4
!01103_448C
!134
!233
!12
!30
!-20
!0.00299959
!1.83
!0.38139174
!0.38139174
# Hz S  RI   R 50
+1.00000000000E+007 +3.71571958065E-001 +9.86333843321E-003 +4.99372333288E-002 -1.94542109966E-002 +1.38094546855E-004 -2.10236554267E-004 +5.17042865977E-003 -4.83172589156E-005 
+2.10000000000E+008 +3.92765790224E-001 -3.51565927267E-002 -1.87793350779E-003 -5.08742183447E-002 +2.63158763119E-005 +4.33121349488E-005 +9.10317711532E-003 -4.37588151544E-003 
+4.10000000000E+008 +3.91478091478E-001 -7.74965509772E-002 -4.76916655898E-002 -1.66569091380E-002 +1.44006826304E-005 +7.78136018198E-006 +1.05382977054E-002 -7.28732487187E-003 
+6.10000000000E+008 +3.85488152504E-001 -1.18753835559E-001 -3.16376760602E-002 +3.77503819764E-002 -2.36554496951E-005 +4.99408015457E-005 +9.42846667022E-003 -1.14373117685E-002 
+8.10000000000E+008 +3.75390589237E-001 -1.58130645752E-001 +2.35190074891E-002 +4.33986894786E-002 -2.34565777646E-005 -1.49720935951E-005 +6.84220856056E-003 -1.52420941740E-002 
+1.01000000000E+009 +3.63041371107E-001 -1.95651531219E-001 +4.98654209077E-002 -6.84610661119E-003 +1.99978894670E-005 +2.35268144024E-005 +2.97113810666E-003 -1.88127849251E-002 
+1.21000000000E+009 +3.48187834024E-001 -2.31390491128E-001 +1.09290732071E-002 -4.84344102442E-002 -7.99721419753E-006 +3.24113498209E-005 -1.72881747130E-003 -2.13823392987E-002 
+1.41000000000E+009 +3.31366032362E-001 -2.65546113253E-001 -4.16636355221E-002 -2.75497734547E-002 -5.57889006814E-006 +5.33175443707E-006 -7.76423653588E-003 -2.44964007288E-002 
+1.61000000000E+009 +3.13758730888E-001 -2.97885209322E-001 -4.06587943435E-002 +2.99131739885E-002 -3.29899580720E-006 +1.90028749785E-005 -1.36743439361E-002 -2.69728824496E-002 
+1.81000000000E+009 +2.93805003166E-001 -3.28147470951E-001 +1.40412738547E-002 +4.79470267892E-002 +6.39010386294E-006 +1.10155633593E-005 -1.78600307554E-002 -2.80680973083E-002 
+2.01000000000E+009 +2.73567438126E-001 -3.56771975756E-001 +4.93170581758E-002 +3.28934448771E-003 +6.29283613307E-006 -1.91753879335E-005 -2.32088286430E-002 -2.70258057863E-002 
+2.21000000000E+009 +2.51836746931E-001 -3.83837610483E-001 +2.02377866954E-002 -4.47649061680E-002 +9.13421172299E-006 +3.49324764102E-005 -2.90369465947E-002 -2.49009933323E-002 
+2.41000000000E+009 +2.28779092431E-001 -4.08453553915E-001 -3.43382135034E-002 -3.37012372911E-002 +1.79556500370E-005 +1.13839200822E-006 -3.56166921556E-002 -2.25542113185E-002 
+2.61000000000E+009 +2.05602362752E-001 -4.31178212166E-001 -4.28656563163E-002 +1.94146987051E-002 -5.90965464653E-006 -2.75877009699E-005 -4.08282130957E-002 -1.95596106350E-002 
+2.81000000000E+009 +1.81825622916E-001 -4.52126026154E-001 +2.50899302773E-003 +4.68285903335E-002 +1.40751008075E-005 +3.45597732121E-006 -4.48190830648E-002 -1.46649098024E-002 
+3.01000000000E+009 +1.57472491264E-001 -4.71034586430E-001 +4.38195094466E-002 +1.38013334945E-002 -3.31005030603E-005 +9.59990120464E-006 -4.86912131310E-002 -8.80268123001E-003 
+3.21000000000E+009 +1.33160606027E-001 -4.88268911839E-001 +2.86577604711E-002 -3.49604114890E-002 -3.30470829795E-005 +2.85355999949E-005 -5.27084805071E-002 -2.37768795341E-003 
+3.41000000000E+009 +1.09207749367E-001 -5.03903806210E-001 -2.21112482250E-002 -3.97744812071E-002 +1.02077347037E-005 +1.06560150925E-006 -5.57621754706E-002 +4.76847030222E-003 
+3.61000000000E+009 +8.51674228907E-002 -5.18039882183E-001 -4.42544184625E-002 +6.66852248833E-003 +7.80313257565E-006 -3.36302728101E-005 -5.75595796108E-002 +1.18485242128E-002 
+3.81000000000E+009 +6.10820315778E-002 -5.30557692051E-001 -1.05779534206E-002 +4.30801324546E-002 -1.97435952032E-006 -2.63546610313E-007 -5.74815832078E-002 +1.94112174213E-002 
+4.01000000000E+009 +3.77453267574E-002 -5.41938722134E-001 +3.70181202888E-002 +2.59648282081E-002 +2.06132535823E-005 -2.89535691991E-005 -5.65731637180E-002 +2.74574868381E-002 
+4.21000000000E+009 +1.44286770374E-002 -5.51861822605E-001 +3.65154333413E-002 -2.51007527113E-002 +7.45730767449E-006 -1.25158103401E-005 -5.47091513872E-002 +3.61195094883E-002 
+4.41000000000E+009 -8.37099831551E-003 -5.60519635677E-001 -9.13160387427E-003 -4.34539727867E-002 +8.98411144590E-006 +1.67562814113E-006 -5.17086349428E-002 +4.44295778871E-002 
+4.61000000000E+009 -3.07721048594E-002 -5.68276047707E-001 -4.51744534075E-002 -7.05904792994E-003 +8.53555320646E-006 -1.34397314469E-005 -4.73613999784E-002 +5.18068633974E-002 
+4.81000000000E+009 -5.31011484563E-002 -5.74922502041E-001 -2.18892935663E-002 +3.90320084989E-002 -1.69739143985E-006 +6.01492502028E-006 -4.08352091908E-002 +5.90922571719E-002 
+5.01000000000E+009 -7.45117291808E-002 -5.80894172192E-001 +2.80011203140E-002 +3.56292054057E-002 -2.18022851186E-005 -1.02251015051E-005 -3.41982692480E-002 +6.57470077276E-002 
+5.21000000000E+009 -9.52964723110E-002 -5.86353719234E-001 +4.47368510067E-002 -1.46317500621E-002 +2.36665746343E-005 -1.63561035151E-005 -2.67503727227E-002 +7.18607157469E-002 
+5.41000000000E+009 -1.15798689425E-001 -5.90440869331E-001 +1.67528656311E-003 -4.58937995136E-002 +1.41026321216E-005 +1.91093331523E-005 -1.77376829088E-002 +7.68337398767E-002 
+5.61000000000E+009 -1.36127427220E-001 -5.94138920307E-001 -4.27757874131E-002 -1.94658227265E-002 +2.50602283813E-006 +3.56611008101E-006 -7.82796181738E-003 +8.01768526435E-002 
+5.81000000000E+009 -1.55560448766E-001 -5.96907258034E-001 -3.37918885052E-002 +3.57143245637E-002 -8.86302132130E-006 -2.40130302700E-005 +2.71102064289E-003 +8.12729224563E-002 
+6.01000000000E+009 -1.74316361547E-001 -5.98792672157E-001 +2.13348995894E-002 +4.25726845860E-002 -1.07411706267E-005 -1.96285309357E-005 +1.40796685591E-002 +8.28592553735E-002 
+6.21000000000E+009 -1.92821249366E-001 -6.00063443184E-001 +4.91703078151E-002 -3.86542174965E-003 -4.63892092739E-006 -1.27453286041E-005 +2.51324381679E-002 +8.25353041291E-002 
+6.41000000000E+009 -2.10513338447E-001 -6.00900173187E-001 +1.15780550987E-002 -5.03646768630E-002 -1.28333713292E-005 +2.20161928155E-006 +3.66050228477E-002 +8.05919989944E-002 
+6.61000000000E+009 -2.28091627359E-001 -6.00975453854E-001 -4.17309738696E-002 -2.69698482007E-002 +5.67955066799E-006 +1.39065095937E-005 +4.78938035667E-002 +7.58068487048E-002 
+6.81000000000E+009 -2.44846567512E-001 -6.00732564926E-001 -4.19384501874E-002 +3.05575858802E-002 +1.68131430200E-006 -2.42296428041E-005 +5.89759685099E-002 +7.02189132571E-002 
+7.01000000000E+009 -2.61191904545E-001 -6.00266993046E-001 +1.87429245561E-002 +5.04202656448E-002 +8.87382066139E-006 -1.67728067026E-005 +6.92017748952E-002 +6.37243390083E-002 
+7.21000000000E+009 -2.77101248503E-001 -5.98986446857E-001 +5.09466864169E-002 -4.23387740739E-004 -1.02885041997E-005 +9.77984836936E-006 +7.82858878374E-002 +5.52859157324E-002 
+7.41000000000E+009 -2.92126327753E-001 -5.97887694836E-001 +1.78903583437E-002 -5.03084622324E-002 -4.02710938943E-005 -1.00252345874E-005 +8.72946232557E-002 +4.50536459684E-002 
+7.61000000000E+009 -3.06579083204E-001 -5.95967233181E-001 -4.47974726558E-002 -2.95474529266E-002 +2.70144155365E-005 -1.09389775389E-005 +9.39709171653E-002 +3.30489389598E-002 
+7.81000000000E+009 -3.21079790592E-001 -5.93351185322E-001 -4.04519550502E-002 +2.95251216739E-002 -1.57267368195E-005 +1.46471265907E-005 +9.93497669697E-002 +2.03682668507E-002 
+8.01000000000E+009 -3.34554463625E-001 -5.90744018555E-001 +1.56099861488E-002 +4.97939884663E-002 -1.66078643815E-005 -7.42088059269E-006 +1.02935217321E-001 +6.76127290353E-003 
+8.21000000000E+009 -3.47777456045E-001 -5.87595164776E-001 +4.96938377619E-002 -3.70114203542E-003 +1.29554582600E-005 +1.08591996195E-006 +1.05373017490E-001 -7.58301606402E-003 
+8.41000000000E+009 -3.60333323479E-001 -5.84225833416E-001 +1.35369114578E-002 -4.40459474921E-002 +1.10976670840E-005 +1.35635946208E-005 +1.04858256876E-001 -2.28416062891E-002 
+8.61000000000E+009 -3.72725337744E-001 -5.81121981144E-001 -3.85289043188E-002 -2.70452126861E-002 -5.22673917658E-006 -1.20130187042E-006 +1.01484119892E-001 -3.84812243283E-002 
+8.81000000000E+009 -3.84513676167E-001 -5.77743411064E-001 -3.24425213039E-002 +2.80143134296E-002 -1.76470130100E-005 +1.71149240487E-005 +9.61607769132E-002 -5.42482808232E-002 
+9.01000000000E+009 -3.95804584026E-001 -5.74153900146E-001 +1.25718461350E-002 +3.75342629850E-002 +1.45062438150E-006 +5.42145198779E-006 +8.93626585603E-002 -6.83967396617E-002 
+9.21000000000E+009 -4.06820923090E-001 -5.70509374142E-001 +3.95231731236E-002 -4.01021214202E-004 -2.50738085015E-005 -2.26438464779E-006 +7.94087797403E-002 -8.33524465561E-002 
+9.41000000000E+009 -4.16987419128E-001 -5.66945970058E-001 +9.36397351325E-003 -3.37384939194E-002 -6.49529101793E-006 +2.84769466816E-005 +6.68541043997E-002 -9.72456708550E-002 
+9.61000000000E+009 -4.27080959082E-001 -5.63044011593E-001 -2.54268590361E-002 -2.02029272914E-002 +1.69618397194E-005 -4.97052269566E-007 +5.14350049198E-002 -1.09395213425E-001 
+9.81000000000E+009 -4.36364024878E-001 -5.59707462788E-001 -2.66363397241E-002 +1.74190700054E-002 -1.93544346985E-005 -7.07993740434E-006 +3.63022536039E-002 -1.19037799537E-001 
+1.00100000000E+010 -4.45861339569E-001 -5.55834770203E-001 +7.25250504911E-003 +2.70758233964E-002 -8.88187969394E-006 +7.59170461606E-006 +1.92343853414E-002 -1.27041265368E-001 
+1.02100000000E+010 -4.54529374838E-001 -5.51762461662E-001 +2.58744154125E-002 +3.89557192102E-003 +1.66614681802E-005 -4.97751398143E-006 +9.95083595626E-004 -1.34179323912E-001 
+1.04100000000E+010 -4.63357359171E-001 -5.48110425472E-001 +1.17468917742E-002 -2.25261244923E-002 +4.16901930294E-005 +2.39156615862E-005 -1.96518041193E-002 -1.39613509178E-001 
+1.06100000000E+010 -4.71778452396E-001 -5.44175386429E-001 -1.53009286150E-002 -1.64422728121E-002 +2.82599721686E-005 +2.54106980719E-005 -4.18074876070E-002 -1.42520874739E-001 
+1.08100000000E+010 -4.79021131992E-001 -5.41007697582E-001 -1.99485886842E-002 +6.94324355572E-003 -6.46823900752E-006 -1.57309532369E-005 -6.34777098894E-002 -1.41968846321E-001 
+1.10100000000E+010 -4.86726552248E-001 -5.37175476551E-001 -1.27332343254E-004 +2.03849002719E-002 -3.53521427314E-005 -1.30504695335E-005 -8.57754573226E-002 -1.38446986675E-001 
+1.12100000000E+010 -4.93928998709E-001 -5.34202039242E-001 +1.69722586870E-002 +6.49768486619E-003 -2.40473036683E-005 +7.18228193364E-006 -1.09885111451E-001 -1.31850898266E-001 
+1.14100000000E+010 -5.01206755638E-001 -5.30307352543E-001 +1.20972087607E-002 -1.21730370447E-002 -4.26607812187E-006 -3.69482540918E-006 -1.33073538542E-001 -1.21615089476E-001 
+1.16100000000E+010 -5.07019519806E-001 -5.26936888695E-001 -6.95445062593E-003 -1.49400541559E-002 -2.45144692599E-005 +2.14760402741E-005 -1.55087560415E-001 -1.08020521700E-001 
+1.18100000000E+010 -5.13435304165E-001 -5.23522198200E-001 -1.48674538359E-002 +9.98101313598E-004 -4.24881945946E-005 -1.61288789968E-005 -1.74703210592E-001 -9.12381932139E-002 
+1.20100000000E+010 -5.20064353943E-001 -5.19583940506E-001 -4.81063313782E-003 +1.32153816521E-002 -1.35309869620E-006 +2.79948690149E-005 -1.92554131150E-001 -7.17522576451E-002 
+1.22100000000E+010 -5.26629865170E-001 -5.15364527702E-001 +1.02604441345E-002 +8.83953366429E-003 +2.26419033424E-005 +2.07979173865E-005 -2.10086718202E-001 -4.95216399431E-002 
+1.24100000000E+010 -5.32439112663E-001 -5.11658191681E-001 +1.08322268352E-002 -5.69666596130E-003 -1.20391428027E-006 -9.62012836681E-006 -2.24816501141E-001 -2.39333920181E-002 
+1.26100000000E+010 -5.38205981255E-001 -5.07867515087E-001 -7.56032124627E-004 -1.16397766396E-002 -2.32220281760E-005 -1.06042452899E-005 -2.35148146749E-001 +3.93558433279E-003 
+1.28100000000E+010 -5.43576538563E-001 -5.03951132298E-001 -1.06727154925E-002 -3.33443144336E-003 +1.07319574454E-005 -4.58510430690E-006 -2.41738975048E-001 +3.32987643778E-002 
+1.30100000000E+010 -5.49035966396E-001 -4.99554604292E-001 -6.48498255759E-003 +7.88750685751E-003 -9.26275151869E-006 +1.96066212084E-005 -2.45455190539E-001 +6.34344592690E-002 
+1.32100000000E+010 -5.53819060326E-001 -4.95615750551E-001 +4.31857397780E-003 +8.73273052275E-003 -2.25309668167E-005 +1.28971787490E-005 -2.45789736509E-001 +9.54469889402E-002 
+1.34100000000E+010 -5.58780014515E-001 -4.91011649370E-001 +9.36318002641E-003 -8.23823735118E-004 +1.36442749863E-005 +7.70087262936E-006 -2.42448806763E-001 +1.27178490162E-001 
+1.36100000000E+010 -5.61660110950E-001 -4.87100422382E-001 +2.55528697744E-003 -8.25017970055E-003 +4.43805674877E-006 -2.65146336460E-005 -2.34479278326E-001 +1.60421252251E-001 
+1.38100000000E+010 -5.66536068916E-001 -4.83685672283E-001 -6.16055913270E-003 -5.43406186625E-003 +2.04443222174E-005 -6.41498331788E-007 -2.21542790532E-001 +1.92885026336E-001 
+1.40100000000E+010 -5.71176528931E-001 -4.80024576187E-001 -7.09565356374E-003 +3.61304054968E-003 -2.42833029915E-005 -5.14145040142E-006 -2.04883888364E-001 +2.24553272128E-001 
+1.42100000000E+010 -5.75426340103E-001 -4.76642429829E-001 +6.30574591924E-004 +7.31145124882E-003 -1.22141427710E-005 +2.32571323977E-006 -1.84278711677E-001 +2.56126433611E-001 
+1.44100000000E+010 -5.79816043377E-001 -4.72550988197E-001 +6.63583306596E-003 +2.33178003691E-003 +2.14906340261E-005 +7.20975958757E-006 -1.58387959003E-001 +2.85159856081E-001 
+1.46100000000E+010 -5.83308100700E-001 -4.69193905592E-001 +4.43152710795E-003 -5.14463195577E-003 +5.87925296713E-006 +2.05200249184E-005 -1.27497673035E-001 +3.10803622007E-001 
+1.48100000000E+010 -5.86511075497E-001 -4.63400244713E-001 -2.83289211802E-003 -5.63561869785E-003 -7.99299687060E-006 +1.41321888805E-005 -9.45944786072E-002 +3.33033621311E-001 
+1.50100000000E+010 -5.87876141071E-001 -4.62242841721E-001 -6.00422406569E-003 +2.34392166021E-004 +3.81962945539E-006 +1.46706634041E-005 -5.88404200971E-002 +3.52607727051E-001 
+1.52100000000E+010 -5.90502142906E-001 -4.61102247238E-001 -1.96399190463E-003 +5.48213114962E-003 +1.60207182489E-005 -1.66283753060E-005 -1.95617917925E-002 +3.67995589972E-001 
+1.54100000000E+010 -5.93763351440E-001 -4.58706527948E-001 +4.00968734175E-003 +3.62127413973E-003 +3.95404731535E-006 +6.36006780041E-006 +2.31021326035E-002 +3.78038913012E-001 
+1.56100000000E+010 -5.97009122372E-001 -4.55172985792E-001 +4.75240824744E-003 -2.10558995605E-003 -9.48570141190E-006 +2.43293216045E-005 +6.74994066358E-002 +3.82376819849E-001 
+1.58100000000E+010 -5.98004162312E-001 -4.54407781363E-001 -1.50755644427E-004 -5.04097761586E-003 -1.74589240487E-005 +2.30541063502E-005 +1.12140439451E-001 +3.82839709520E-001 
+1.60100000000E+010 -6.00105464458E-001 -4.53144282103E-001 -4.38323011622E-003 -1.71572470572E-003 +4.71743419439E-007 +1.37483993967E-005 +1.57866001129E-001 +3.77917885780E-001 
+1.62100000000E+010 -6.02268397808E-001 -4.51491802931E-001 -3.24455555528E-003 +3.14655015245E-003 +1.67742891790E-005 -9.04246348910E-007 +2.05989331007E-001 +3.67508113384E-001 
+1.64100000000E+010 -6.04274749756E-001 -4.49921190739E-001 +1.64319865871E-003 +4.04515676200E-003 -3.99335385737E-006 -5.11934786118E-006 +2.53400057554E-001 +3.51177483797E-001 
+1.66100000000E+010 -6.07643902302E-001 -4.48301792145E-001 +4.12409100682E-003 +2.02537576115E-005 -4.30982026955E-006 +1.92120023712E-006 +2.97859013081E-001 +3.27675431967E-001 
+1.68100000000E+010 -6.10871553421E-001 -4.45843547583E-001 +1.67704629712E-003 -3.58035671525E-003 -3.70540110453E-005 -1.56890182552E-005 +3.41750353575E-001 +3.00547748804E-001 
+1.70100000000E+010 -6.12444639206E-001 -4.43609356880E-001 -2.59431474842E-003 -2.84651946276E-003 +1.86217257578E-005 +2.69768643193E-005 +3.82455855608E-001 +2.69188493490E-001 
+1.72100000000E+010 -6.14827632904E-001 -4.41734611988E-001 -3.42041975819E-003 +1.25718454365E-003 +1.85632907233E-005 +4.32382730651E-005 +4.20557528734E-001 +2.30391129851E-001 
+1.74100000000E+010 -6.18103086948E-001 -4.39971715212E-001 -2.34992738115E-004 +3.46012343653E-003 -2.69842785201E-005 -4.66765095553E-006 +4.54333633184E-001 +1.87164530158E-001 
+1.76100000000E+010 -6.21122539043E-001 -4.37900900841E-001 +3.01685696468E-003 +1.51394493878E-003 -1.86693978321E-005 +1.89989950741E-005 +4.82440054417E-001 +1.40714943409E-001 
+1.78100000000E+010 -6.24299764633E-001 -4.35557007790E-001 +2.43315403350E-003 -2.05976376310E-003 +4.09580570704E-005 -4.17308086753E-007 +5.06181597710E-001 +9.15354862809E-002 
+1.80100000000E+010 -6.26880824566E-001 -4.33222591877E-001 -8.56779864989E-004 -2.94620753266E-003 +1.58981420100E-005 +1.61389525601E-005 +5.25471389294E-001 +3.98390367627E-002 
+1.82100000000E+010 -6.29912197590E-001 -4.31186974049E-001 -2.97925295308E-003 -3.39498277754E-004 +3.18554739351E-005 -1.08816875581E-005 +5.38030803204E-001 -1.55183356255E-002 
+1.84100000000E+010 -6.32854461670E-001 -4.29412722588E-001 -1.39366905205E-003 +2.47375760227E-003 +7.71467875893E-006 -3.81852405553E-005 +5.44231712818E-001 -7.34670981765E-002 
+1.86100000000E+010 -6.36124968529E-001 -4.27159041166E-001 +1.60681176931E-003 +2.18792818487E-003 -1.18481966638E-005 -1.69104732777E-005 +5.44578194618E-001 -1.30454450846E-001 
+1.88100000000E+010 -6.38818800449E-001 -4.24772083759E-001 +2.55526253022E-003 -6.41949241981E-004 +5.66079791042E-007 +6.42978511678E-006 +5.38931906223E-001 -1.88009321690E-001 
+1.90100000000E+010 -6.40946209431E-001 -4.22760009766E-001 +4.00303135393E-004 -2.47043045238E-003 +8.55884991324E-006 +5.87494787396E-006 +5.27663767338E-001 -2.44935557246E-001 
+1.92100000000E+010 -6.43770039082E-001 -4.21347796917E-001 -1.99388014153E-003 -1.30989216268E-003 +8.31996658235E-006 +1.01773439383E-005 +5.09317338467E-001 -3.03428202868E-001 
+1.94100000000E+010 -6.46788537502E-001 -4.18725401163E-001 -1.98956951499E-003 +1.37463957071E-003 +2.21479567699E-005 +1.39573212437E-005 +4.83830451965E-001 -3.59140008688E-001 
+1.96100000000E+010 -6.47731065750E-001 -4.16271865368E-001 +4.08213702030E-004 +2.23004235886E-003 +2.18142613448E-005 +3.34714386554E-005 +4.53089773655E-001 -4.11662340164E-001 
+1.98100000000E+010 -6.47674798965E-001 -4.13221478462E-001 +2.08999658935E-003 +4.91943326779E-004 -1.02145859273E-005 -4.44816105301E-005 +4.18645411730E-001 -4.59797680378E-001 
+2.00100000000E+010 -6.47461771965E-001 -4.11731719971E-001 +1.26152927987E-003 -1.71095516998E-003 -1.61992920766E-005 -3.76574935217E-005 +3.76542776823E-001 -5.06980955601E-001 
