!;Filter: kein Filter
!auto
!3/21/2019 9:27:39 AM
!3/21/2019 9:27:53 AM
!SP-Measurements Prober G4
!SP-Measurements Prober G4
!01103_448C
!134
!235
!12
!30
!-20
!0.00499992
!1.96
!0.64375220
!0.64375220
# Hz S  RI   R 50
+1.00000000000E+007 +2.17347100377E-001 +9.85938683152E-003 +5.66121190786E-002 -2.21983697265E-002 +8.61898151925E-005 +2.40483877860E-005 +5.16359787434E-003 -1.22076438856E-004 
+2.10000000000E+008 +2.42138549685E-001 -2.33860164881E-002 -1.43859849777E-003 -5.93663789332E-002 +7.36405418138E-005 -1.86205106729E-005 +9.03142616153E-003 -4.33631101623E-003 
+4.10000000000E+008 +2.44245424867E-001 -5.68871982396E-002 -5.58072887361E-002 -2.00623907149E-002 +5.64877882425E-005 -4.10040011047E-005 +1.05174928904E-002 -7.24357785657E-003 
+6.10000000000E+008 +2.41828814149E-001 -9.03178751469E-002 -3.77745628357E-002 +4.46891076863E-002 -3.05155117530E-006 -2.93747575597E-006 +9.33095254004E-003 -1.14344619215E-002 
+8.10000000000E+008 +2.35868424177E-001 -1.22802086174E-001 +2.82821226865E-002 +5.09634725749E-002 +1.60095714818E-005 +1.99849509954E-005 +6.80657848716E-003 -1.51933850721E-002 
+1.01000000000E+009 +2.27811723948E-001 -1.54034495354E-001 +5.81763871014E-002 -8.36798269302E-003 +1.08294136680E-006 +4.48606115242E-005 +2.95111094601E-003 -1.87545344234E-002 
+1.21000000000E+009 +2.17443242669E-001 -1.83851212263E-001 +1.23789487407E-002 -5.61770685017E-002 -9.31877275434E-006 +1.61366897373E-005 -1.75494083669E-003 -2.13559996337E-002 
+1.41000000000E+009 +2.05219402909E-001 -2.13006302714E-001 -4.77159395814E-002 -3.15632820129E-002 -1.75032309926E-005 -4.84236352349E-006 -7.75532610714E-003 -2.44721453637E-002 
+1.61000000000E+009 +1.92152544856E-001 -2.40673452616E-001 -4.66492101550E-002 +3.35594229400E-002 -8.94923414307E-006 +2.25892085837E-006 -1.36616723612E-002 -2.68961321563E-002 
+1.81000000000E+009 +1.77310779691E-001 -2.66457676888E-001 +1.46888438612E-002 +5.46240694821E-002 -1.74828182935E-005 +3.00069277728E-005 -1.78182795644E-002 -2.79850419611E-002 
+2.01000000000E+009 +1.61968484521E-001 -2.91268646717E-001 +5.58467097580E-002 +5.96205610782E-003 +5.89753017266E-006 +3.19470677823E-006 -2.31554750353E-002 -2.69750468433E-002 
+2.21000000000E+009 +1.45311474800E-001 -3.14812719822E-001 +2.54433397204E-002 -5.01265227795E-002 -6.04752040090E-006 +1.99918413273E-005 -2.89641208947E-002 -2.48719453812E-002 
+2.41000000000E+009 +1.27633601427E-001 -3.36437195539E-001 -3.72203774750E-002 -4.09812442958E-002 +3.88742919313E-005 +1.98348934646E-005 -3.56234982610E-002 -2.25118156523E-002 
+2.61000000000E+009 +1.09585806727E-001 -3.56798887253E-001 -5.13466149569E-002 +1.95218678564E-002 +1.50552921241E-006 +1.00477045635E-005 -4.08138409257E-002 -1.94952040911E-002 
+2.81000000000E+009 +9.10006090999E-002 -3.75682353973E-001 -1.09847584099E-004 +5.51247037947E-002 -1.31391516334E-005 -2.48987835221E-005 -4.47669513524E-002 -1.46175241098E-002 
+3.01000000000E+009 +7.19113200903E-002 -3.92882078886E-001 +5.06054870784E-002 +1.95486210287E-002 -2.27532254939E-005 -3.49793754140E-006 -4.86289076507E-002 -8.78889020532E-003 
+3.21000000000E+009 +5.25166280568E-002 -4.08932566643E-001 +3.67144234478E-002 -3.96952070296E-002 +3.40755377692E-006 -8.63490458869E-006 -5.26532381773E-002 -2.34683672898E-003 
+3.41000000000E+009 +3.31898406148E-002 -4.23770219088E-001 -2.42186021060E-002 -4.87619750202E-002 +3.04182685795E-005 +6.98378107700E-006 -5.56802824140E-002 +4.76491963491E-003 
+3.61000000000E+009 +1.39316925779E-002 -4.37334299088E-001 -5.33877573907E-002 +5.02683222294E-003 +2.34217441175E-005 -3.87149448215E-005 -5.74875846505E-002 +1.18385199457E-002 
+3.81000000000E+009 -5.59750013053E-003 -4.49513405561E-001 -1.51773914695E-002 +5.16283921897E-002 -1.91222770809E-005 +1.89092963865E-006 -5.74469976127E-002 +1.93796511739E-002 
+4.01000000000E+009 -2.45982967317E-002 -4.60856407881E-001 +4.34416569769E-002 +3.25000137091E-002 +2.50540892921E-007 -3.27292946167E-005 -5.64839988947E-002 +2.73662861437E-002 
+4.21000000000E+009 -4.39863651991E-002 -4.71025377512E-001 +4.53287735581E-002 -2.83503197134E-002 -1.52017792061E-005 +1.11645895231E-005 -5.46521134675E-002 +3.60517911613E-002 
+4.41000000000E+009 -6.28570094705E-002 -4.80147808790E-001 -9.77973826230E-003 -5.30240535736E-002 -6.98516896591E-006 -5.41062263437E-006 -5.16261681914E-002 +4.43482957780E-002 
+4.61000000000E+009 -8.14181268215E-002 -4.88270252943E-001 -5.35422489047E-002 -9.07207094133E-003 -1.26168397401E-005 +2.33021273743E-005 -4.73089888692E-002 +5.16984164715E-002 
+4.81000000000E+009 -1.00207217038E-001 -4.95662987232E-001 -2.73802466691E-002 +4.59597408772E-002 -8.10831625131E-006 -9.76280352916E-006 -4.08181771636E-002 +5.89864328504E-002 
+5.01000000000E+009 -1.18217319250E-001 -5.02477049828E-001 +3.31806987524E-002 +4.26049418747E-002 +5.92164587943E-006 -9.63196907833E-006 -3.41617390513E-002 +6.56356662512E-002 
+5.21000000000E+009 -1.35821670294E-001 -5.08715510368E-001 +5.15065304935E-002 -1.66429840028E-002 -2.66605837851E-007 -2.39650144067E-005 -2.67344620079E-002 +7.17784166336E-002 
+5.41000000000E+009 -1.53139695525E-001 -5.13733088970E-001 +3.23382811621E-003 -5.32781369984E-002 -1.22047958939E-005 +2.56836647168E-005 -1.77797265351E-002 +7.67534747720E-002 
+5.61000000000E+009 -1.70762032270E-001 -5.18689632416E-001 -4.91999797523E-002 -2.25927568972E-002 -3.04217828671E-005 +4.99959196532E-006 -7.83498864621E-003 +8.00495743752E-002 
+5.81000000000E+009 -1.87497973442E-001 -5.22569894791E-001 -3.81672643125E-002 +3.86661142111E-002 +3.54936928488E-005 +7.45248553358E-006 +2.66353227198E-003 +8.11461284757E-002 
+6.01000000000E+009 -2.03543588519E-001 -5.25518000126E-001 +2.20604203641E-002 +4.92795184255E-002 -1.36329681482E-005 +4.71271914648E-006 +1.39736915007E-002 +8.27638432384E-002 
+6.21000000000E+009 -2.19664707780E-001 -5.28085052967E-001 +5.49445487559E-002 -3.22101009078E-003 -3.00727861031E-005 +1.37415700010E-005 +2.50696986914E-002 +8.24086591601E-002 
+6.41000000000E+009 -2.34943658113E-001 -5.30123412609E-001 +1.53312031180E-002 -5.32548353076E-002 -6.80245648255E-006 +1.74655015144E-005 +3.64841185510E-002 +8.04719030857E-002 
+6.61000000000E+009 -2.50219732523E-001 -5.31424105167E-001 -4.41880337894E-002 -3.29752303660E-002 -3.82683310818E-006 -1.30189555421E-005 +4.77876737714E-002 +7.57260024548E-002 
+6.81000000000E+009 -2.65100628138E-001 -5.32678425312E-001 -4.69746440649E-002 +3.06386630982E-002 +1.23932049974E-005 -1.75919576577E-005 +5.88366203010E-002 +7.01192840934E-002 
+7.01000000000E+009 -2.79602378607E-001 -5.33741235733E-001 +1.38103319332E-002 +5.44032044709E-002 -1.10379357920E-006 +2.92158511002E-005 +6.90819323063E-002 +6.36626854539E-002 
+7.21000000000E+009 -2.93673843145E-001 -5.33871531487E-001 +5.53336404264E-002 +5.89146278799E-003 +6.20104356130E-006 +3.73666011910E-006 +7.81161785126E-002 +5.52343577147E-002 
+7.41000000000E+009 -3.06923806667E-001 -5.33894121647E-001 +2.43972130120E-002 -5.07294610143E-002 -1.16101027743E-005 -4.86920407639E-006 +8.71349647641E-002 +4.50404807925E-002 
+7.61000000000E+009 -3.19741338491E-001 -5.33668160439E-001 -4.01306040585E-002 -3.89618054032E-002 +7.09642290531E-006 -1.13154674182E-005 +9.37679558992E-002 +3.30434143543E-002 
+7.81000000000E+009 -3.32788497210E-001 -5.32702207565E-001 -4.97028194368E-002 +2.41415444762E-002 -1.88972335309E-005 +1.12456809802E-005 +9.91833284497E-002 +2.04101130366E-002 
+8.01000000000E+009 -3.45003515482E-001 -5.31531512737E-001 +6.63353642449E-003 +5.52255138755E-002 +2.22228645725E-005 +7.99189911049E-006 +1.02777719498E-001 +6.80975755677E-003 
+8.21000000000E+009 -3.56968104839E-001 -5.30116856098E-001 +5.36504872143E-002 +1.04124620557E-002 +1.74580072780E-005 +3.34848664352E-005 +1.05173848569E-001 -7.50782573596E-003 
+8.41000000000E+009 -3.68520051241E-001 -5.28331816196E-001 +2.70025413483E-002 -4.59331087768E-002 -1.06487550511E-005 -9.52109712671E-006 +1.04724869132E-001 -2.27390583605E-002 
+8.61000000000E+009 -3.79972845316E-001 -5.26749610901E-001 -3.46281304955E-002 -4.00271564722E-002 -8.62665183377E-006 +1.92799743672E-005 +1.01385749876E-001 -3.83271798491E-002 
+8.81000000000E+009 -3.90676796436E-001 -5.24605154991E-001 -4.68855984509E-002 +2.02177185565E-002 +5.37352116226E-006 +1.60881372722E-005 +9.60229188204E-002 -5.41010312736E-002 
+9.01000000000E+009 -4.01191830635E-001 -5.22409200668E-001 +3.35668097250E-003 +4.88685369492E-002 +1.85433727893E-005 -1.72202690010E-005 +8.92518311739E-002 -6.81662485003E-002 
+9.21000000000E+009 -4.11648452282E-001 -5.20481109619E-001 +4.62802425027E-002 +1.21692987159E-002 -2.16644639295E-006 -9.51134279603E-006 +7.93336480856E-002 -8.31548199058E-002 
+9.41000000000E+009 -4.21146810055E-001 -5.18199324608E-001 +2.42821369320E-002 -3.82163263857E-002 +3.40460828738E-005 +2.46108129431E-007 +6.67951330543E-002 -9.70447212458E-002 
+9.61000000000E+009 -4.30912315845E-001 -5.15869498253E-001 -2.61380206794E-002 -3.37006673217E-002 +1.86062675311E-006 +3.67896450371E-006 +5.14292493463E-002 -1.09177626669E-001 
+9.81000000000E+009 -4.40006434917E-001 -5.14139115810E-001 -3.88149432838E-002 +1.30509966984E-002 +4.19788875661E-006 +1.29353429656E-005 +3.63515540957E-002 -1.18756100535E-001 
+1.00100000000E+010 -4.48769807816E-001 -5.11272192001E-001 -5.65268674109E-005 +3.81373018026E-002 +9.41041434999E-006 +1.04961791294E-005 +1.92494746298E-002 -1.26763135195E-001 
+1.02100000000E+010 -4.56776946783E-001 -5.07922649384E-001 +3.33439148962E-002 +1.26531496644E-002 +1.44141959026E-005 +2.55789723269E-006 +1.09699415043E-003 -1.33924499154E-001 
+1.04100000000E+010 -4.65437352657E-001 -5.05589008331E-001 +2.22073104233E-002 -2.59287599474E-002 -8.46523471409E-006 -5.24761617271E-006 -1.95435620844E-002 -1.39404833317E-001 
+1.06100000000E+010 -4.73651409149E-001 -5.02758741379E-001 -1.58617459238E-002 -2.72657498717E-002 -1.02213743958E-005 -5.93604818278E-006 -4.16468568146E-002 -1.42281755805E-001 
+1.08100000000E+010 -4.80793803930E-001 -5.00750660896E-001 -2.90913656354E-002 +4.50706807896E-003 -1.85325334314E-005 +9.14144311537E-006 -6.32778704166E-002 -1.41761139035E-001 
+1.10100000000E+010 -4.88239735365E-001 -4.97959583998E-001 -5.50197670236E-003 +2.73574143648E-002 +6.46130911264E-006 -2.65701191893E-006 -8.55533853173E-002 -1.38258129358E-001 
+1.12100000000E+010 -4.95000422001E-001 -4.95799630880E-001 +2.17810273170E-002 +1.34019348770E-002 -9.64047194429E-006 -4.58453996544E-006 -1.09652258456E-001 -1.31679192185E-001 
+1.14100000000E+010 -5.02126693726E-001 -4.92871612310E-001 +1.92115902901E-002 -1.39347938821E-002 +2.06720505957E-005 -1.47287173604E-005 -1.32838755846E-001 -1.21464081109E-001 
+1.16100000000E+010 -5.08046925068E-001 -4.90752339363E-001 -5.68528799340E-003 -2.18767076731E-002 -9.26492612052E-006 +4.41314841737E-006 -1.54761657119E-001 -1.07940398157E-001 
+1.18100000000E+010 -5.14509379864E-001 -4.88190174103E-001 -2.08262242377E-002 -2.36611976288E-003 -2.14149004023E-005 -2.24897521548E-005 -1.74369230866E-001 -9.12060067058E-002 
+1.20100000000E+010 -5.20760118961E-001 -4.85009998083E-001 -9.56933479756E-003 +1.71638969332E-002 -1.49536735989E-005 -5.19378454555E-006 -1.92182973027E-001 -7.18008428812E-002 
+1.22100000000E+010 -5.27265071869E-001 -4.81606096029E-001 +1.18797058240E-002 +1.45406667143E-002 +2.10812813748E-005 +3.18003412758E-006 -2.09798067808E-001 -4.95533905923E-002 
+1.24100000000E+010 -5.33005714417E-001 -4.78800445795E-001 +1.66308116168E-002 -5.43953292072E-003 +9.17962097446E-006 -6.05568902756E-006 -2.24491298199E-001 -2.40425802767E-002 
+1.26100000000E+010 -5.38866281509E-001 -4.75880503654E-001 +1.48096005432E-003 -1.63416266441E-002 +4.67057634523E-006 -1.04484633994E-005 -2.34881088138E-001 +3.80210694857E-003 
+1.28100000000E+010 -5.44119656086E-001 -4.72631961107E-001 -1.40402941033E-002 -7.14112725109E-003 -1.96922826490E-007 -1.49485313159E-005 -2.41484895349E-001 +3.31001318991E-002 
+1.30100000000E+010 -5.49960434437E-001 -4.69239562750E-001 -1.10406670719E-002 +9.71627980471E-003 +1.34397896545E-005 -1.77956953848E-005 -2.45161667466E-001 +6.32155239582E-002 
+1.32100000000E+010 -5.55362641811E-001 -4.66233551502E-001 +4.26496425644E-003 +1.32642630488E-002 +1.31427286760E-005 -2.77918843494E-005 -2.45542734861E-001 +9.51969996095E-002 
+1.34100000000E+010 -5.60010015965E-001 -4.62016105652E-001 +1.34225226939E-002 +9.14893695153E-004 -1.56521855388E-005 +2.31158696806E-006 -2.42259606719E-001 +1.26884728670E-001 
+1.36100000000E+010 -5.62849104404E-001 -4.58590477705E-001 +5.41671738029E-003 -1.13424090669E-002 +2.99997627735E-005 +4.96207576361E-007 -2.34361648560E-001 +1.60089462996E-001 
+1.38100000000E+010 -5.67640900612E-001 -4.55668449402E-001 -7.84300826490E-003 -8.99771787226E-003 +5.04288036609E-005 +5.51068205823E-006 -2.21441134810E-001 +1.92533150315E-001 
+1.40100000000E+010 -5.73261559010E-001 -4.53173935413E-001 -1.08768315986E-002 +3.81196895614E-003 +2.75037727988E-005 -2.78435563814E-005 -2.04836994410E-001 +2.24163115025E-001 
+1.42100000000E+010 -5.78069329262E-001 -4.50377851725E-001 -4.65338467620E-004 +1.07819708064E-002 +2.05705218832E-005 +1.23813360915E-005 -1.84338063002E-001 +2.55786269903E-001 
+1.44100000000E+010 -5.82259356976E-001 -4.46547925472E-001 +9.17343702167E-003 +4.47148922831E-003 +5.42909674550E-006 +2.08328292501E-005 -1.58432677388E-001 +2.84780204296E-001 
+1.46100000000E+010 -5.86238145828E-001 -4.43687886000E-001 +7.37762451172E-003 -6.52097258717E-003 +3.30253601533E-006 -2.54229234997E-005 -1.27547562122E-001 +3.10477435589E-001 
+1.48100000000E+010 -5.89895844460E-001 -4.38178092241E-001 -3.11196735129E-003 -8.69633816183E-003 -2.16690705201E-006 +1.12680236271E-005 -9.46509614587E-002 +3.32609683275E-001 
+1.50100000000E+010 -5.90927600861E-001 -4.37007576227E-001 -8.77552665770E-003 -6.50501868222E-004 +1.99266723939E-005 -2.62969679170E-005 -5.90326823294E-002 +3.52228045464E-001 
+1.52100000000E+010 -5.94868898392E-001 -4.36633020639E-001 -3.77963157371E-003 +7.65231577680E-003 +3.01510190184E-005 -5.73965462536E-006 -1.98086127639E-002 +3.67645531893E-001 
+1.54100000000E+010 -5.98578333855E-001 -4.34313565493E-001 +5.36150624976E-003 +6.05645962059E-003 -1.52960601554E-005 +2.73288105745E-006 +2.27931253612E-002 +3.77784967422E-001 
+1.56100000000E+010 -6.01768910885E-001 -4.30598109961E-001 +7.32904393226E-003 -2.34031584114E-003 +9.38697940001E-006 +1.16827495731E-005 +6.71784356236E-002 +3.82124096155E-001 
+1.58100000000E+010 -6.03901028633E-001 -4.30078923702E-001 +5.91923657339E-004 -7.42558483034E-003 +2.52323025052E-005 -8.18746229925E-006 +1.11782602966E-001 +3.82663398981E-001 
+1.60100000000E+010 -6.06528103352E-001 -4.28922742605E-001 -6.25238846987E-003 -3.14457248896E-003 -2.19792818825E-005 +1.77817594249E-006 +1.57466098666E-001 +3.77752155066E-001 
+1.62100000000E+010 -6.08266770840E-001 -4.27073299885E-001 -5.16729569063E-003 +4.25669318065E-003 -2.88881637971E-005 -2.07901143767E-006 +2.05606386065E-001 +3.67445558310E-001 
+1.64100000000E+010 -6.11099243164E-001 -4.25493955612E-001 +1.92194571719E-003 +6.24051829800E-003 +5.45594332380E-007 -2.28573480854E-005 +2.52913206816E-001 +3.51094007492E-001 
+1.66100000000E+010 -6.15119636059E-001 -4.23511654139E-001 +6.07639271766E-003 +5.56625833269E-004 -4.99231828144E-005 -3.90741770389E-005 +2.97398269176E-001 +3.27660799026E-001 
+1.68100000000E+010 -6.18546783924E-001 -4.20863300562E-001 +2.83733080141E-003 -5.14535047114E-003 -4.79614470805E-007 +7.80866685091E-006 +3.41257393360E-001 +3.00605744123E-001 
+1.70100000000E+010 -6.20089292526E-001 -4.18476134539E-001 -3.54994623922E-003 -4.43814555183E-003 -2.43990161835E-005 -7.80109348852E-006 +3.81968647242E-001 +2.69359797239E-001 
+1.72100000000E+010 -6.22653961182E-001 -4.16343003511E-001 -5.15831075609E-003 +1.49166246410E-003 +1.15473867481E-005 -9.12416180654E-006 +4.20225411654E-001 +2.30635300279E-001 
+1.74100000000E+010 -6.25904321671E-001 -4.14268165827E-001 -7.06452119630E-004 +5.06552727893E-003 -2.30599016504E-005 -3.32057720698E-006 +4.53936517239E-001 +1.87420114875E-001 
+1.76100000000E+010 -6.28894448280E-001 -4.11867648363E-001 +4.28144447505E-003 +2.50815926120E-003 +2.54465339822E-005 -1.40833731166E-006 +4.82112586498E-001 +1.41036525369E-001 
+1.78100000000E+010 -6.31829798222E-001 -4.09407675266E-001 +3.82977956906E-003 -2.83694942482E-003 +3.10447503580E-005 -1.67041998793E-005 +5.05931258202E-001 +9.19467583299E-002 
+1.80100000000E+010 -6.34146213531E-001 -4.06855762005E-001 -9.83960228041E-004 -4.42239176482E-003 -1.56941478053E-005 +4.77822977700E-005 +5.25242626667E-001 +4.03308235109E-002 
+1.82100000000E+010 -6.36667132378E-001 -4.04809772968E-001 -4.32402687147E-003 -7.26688886061E-004 +4.90903548780E-005 +4.40063377027E-006 +5.37831068039E-001 -1.50108505040E-002 
+1.84100000000E+010 -6.39811336994E-001 -4.02877390385E-001 -2.25825468078E-003 +3.47518012859E-003 +2.46153813350E-005 +1.43918293816E-006 +5.44106900692E-001 -7.29140415788E-002 
+1.86100000000E+010 -6.42946958542E-001 -4.00525182486E-001 +2.17725406401E-003 +3.33399279043E-003 +1.01981622720E-005 -5.09643323312E-005 +5.44558703899E-001 -1.29896357656E-001 
+1.88100000000E+010 -6.45257890224E-001 -3.98151904345E-001 +3.82028683089E-003 -6.90640124958E-004 -1.27938155856E-005 +4.47574439022E-006 +5.38978219032E-001 -1.87494680285E-001 
+1.90100000000E+010 -6.46976053715E-001 -3.96222561598E-001 +8.15370993223E-004 -3.59581760131E-003 +3.87989457522E-005 -1.29111026581E-006 +5.27785718441E-001 -2.44462713599E-001 
+1.92100000000E+010 -6.49728477001E-001 -3.94704490900E-001 -2.89959274232E-003 -2.11412250064E-003 -3.65197411156E-005 -2.58446325461E-005 +5.09407758713E-001 -3.02971482277E-001 
+1.94100000000E+010 -6.52533590794E-001 -3.92017513514E-001 -2.94135767035E-003 +1.76077778451E-003 +2.85839701064E-006 +2.69170359388E-005 +4.84065115452E-001 -3.58667880297E-001 
+1.96100000000E+010 -6.53037071228E-001 -3.89521896839E-001 +4.33249195339E-004 +3.27841029502E-003 -6.31029797660E-006 +1.12167854240E-005 +4.53382760286E-001 -4.11168992519E-001 
+1.98100000000E+010 -6.52215421200E-001 -3.86610716581E-001 +3.04570863955E-003 +9.25301923417E-004 +1.92872757907E-005 -1.24261405290E-005 +4.19075608253E-001 -4.59367334843E-001 
+2.00100000000E+010 -6.51772558689E-001 -3.85554283857E-001 +2.00267904438E-003 -2.37061921507E-003 -1.43669615227E-006 +1.70196562976E-005 +3.77057552338E-001 -5.06576418877E-001 
