!;Filter: kein Filter
!auto
!3/21/2019 9:26:52 AM
!3/21/2019 9:27:07 AM
!SP-Measurements Prober G4
!SP-Measurements Prober G4
!01103_448C
!134
!233
!12
!30
!-20
!0.00199954
!1.75
!0.22129449
!0.22129449
# Hz S  RI   R 50
+1.00000000000E+007 +4.39024746418E-001 +1.02338287979E-002 +4.79032993317E-002 -2.06877645105E-002 +2.02717521461E-004 -5.65534166526E-004 +5.09400619194E-003 +2.41675617872E-004 
+2.10000000000E+008 +4.55492407084E-001 -4.15456369519E-002 -2.12786719203E-003 -4.93825189769E-002 -7.38286598789E-006 -3.68080618500E-005 +9.08403843641E-003 -4.41431812942E-003 
+4.10000000000E+008 +4.52110499144E-001 -8.76922830939E-002 -4.65507209301E-002 -1.51986405253E-002 -4.04771199101E-005 -1.78837162821E-005 +1.04907890782E-002 -7.23894964904E-003 
+6.10000000000E+008 +4.44708764553E-001 -1.32436305285E-001 -2.90541537106E-002 +3.85990962386E-002 -1.00685201687E-005 +1.39921269238E-006 +9.41115897149E-003 -1.14582423121E-002 
+8.10000000000E+008 +4.32486593723E-001 -1.75553992391E-001 +2.48538665473E-002 +4.00948971510E-002 -6.70845020068E-006 +1.21804669106E-006 +6.85684522614E-003 -1.52629390359E-002 
+1.01000000000E+009 +4.18543010950E-001 -2.16409340501E-001 +4.76580634713E-002 -9.73829999566E-003 +5.82971779295E-006 +1.58514685609E-005 +2.96605005860E-003 -1.88022740185E-002 
+1.21000000000E+009 +4.00731354952E-001 -2.55984097719E-001 +5.94666413963E-003 -4.53371927142E-002 +2.91690139420E-006 +2.68300095740E-006 -1.69469835237E-003 -2.13678739965E-002 
+1.41000000000E+009 +3.80785912275E-001 -2.92518407106E-001 -3.90784442425E-002 -2.23249513656E-002 +5.72002954868E-006 +5.31643138402E-007 -7.76331918314E-003 -2.45286822319E-002 
+1.61000000000E+009 +3.60597580671E-001 -3.27222108841E-001 -3.50381806493E-002 +3.00229229033E-002 -1.67038379004E-005 +1.16004885058E-005 -1.36931212619E-002 -2.69639082253E-002 
+1.81000000000E+009 +3.37001055479E-001 -3.59338521957E-001 +1.47236762568E-002 +4.09385301173E-002 +3.05340399791E-005 +9.30663009058E-006 -1.78394112736E-002 -2.80682053417E-002 
+2.01000000000E+009 +3.13754618168E-001 -3.88811707497E-001 +4.33349572122E-002 +2.17783986591E-003 +7.36107040211E-006 -7.51320567360E-006 -2.31899712235E-002 -2.70837005228E-002 
+2.21000000000E+009 +2.89538323879E-001 -4.17093664408E-001 +1.68652050197E-002 -4.09930720925E-002 +9.43286522670E-006 -7.01436101735E-006 -2.90498752147E-002 -2.49479711056E-002 
+2.41000000000E+009 +2.63388037682E-001 -4.42250996828E-001 -3.03315445781E-002 -2.92601492256E-002 -8.47229875944E-006 +1.41002592500E-005 -3.56619432569E-002 -2.25780960172E-002 
+2.61000000000E+009 +2.37908840179E-001 -4.65218663216E-001 -3.91810834408E-002 +1.67728476226E-002 -7.31694717615E-006 +7.55881637815E-006 -4.08612862229E-002 -1.95513870567E-002 
+2.81000000000E+009 +2.11909800768E-001 -4.86851185560E-001 +3.03450506181E-003 +4.34029363096E-002 +1.48619001266E-005 -1.62803451076E-006 -4.48480732739E-002 -1.46525707096E-002 
+3.01000000000E+009 +1.84977322817E-001 -5.05803942680E-001 +3.96369621158E-002 +1.29248118028E-002 -1.44627802001E-005 +1.32834202304E-005 -4.87468130887E-002 -8.81161820143E-003 
+3.21000000000E+009 +1.58825144172E-001 -5.22977054119E-001 +2.80157066882E-002 -3.23490761220E-002 -2.14010251511E-005 -4.05785294788E-006 -5.27624413371E-002 -2.36172974110E-003 
+3.41000000000E+009 +1.32841363549E-001 -5.39008259773E-001 -2.20903754234E-002 -3.76676619053E-002 +1.71019637492E-005 -1.66913935118E-006 -5.57856895030E-002 +4.77441260591E-003 
+3.61000000000E+009 +1.06678813696E-001 -5.52841365337E-001 -4.16947342455E-002 +5.80001156777E-003 +4.11447354054E-006 +9.76237333816E-006 -5.75990937650E-002 +1.18820071220E-002 
+3.81000000000E+009 +8.10115113854E-002 -5.65112769604E-001 -1.10993701965E-002 +4.24820855260E-002 +8.36067829368E-006 +1.21219227367E-005 -5.75656294823E-002 +1.94224286824E-002 
+4.01000000000E+009 +5.58373406529E-002 -5.76550126076E-001 +3.76705639064E-002 +2.43411771953E-002 -4.84672273160E-005 +1.78986829269E-005 -5.66092431545E-002 +2.74592470378E-002 
+4.21000000000E+009 +3.06956246495E-002 -5.85935294628E-001 +3.58576104045E-002 -2.46079657227E-002 -2.13893417822E-005 -5.69232906855E-006 -5.47780245543E-002 +3.61147746444E-002 
+4.41000000000E+009 +6.59287068993E-003 -5.94368934631E-001 -9.93363093585E-003 -4.49328273535E-002 +2.29803717957E-005 +1.77181809704E-005 -5.17314076424E-002 +4.44487147033E-002 
+4.61000000000E+009 -1.74831543118E-002 -6.01984560490E-001 -4.68442440033E-002 -4.22185473144E-003 -2.63331694441E-005 +2.83753888652E-005 -4.73897680640E-002 +5.18140755594E-002 
+4.81000000000E+009 -4.13286201656E-002 -6.07873916626E-001 -2.15429477394E-002 +4.06905412674E-002 +1.98193047254E-005 -5.76405818720E-006 -4.08747568727E-002 +5.91351501644E-002 
+5.01000000000E+009 -6.38521015644E-002 -6.13620996475E-001 +3.25863510370E-002 +3.74748297036E-002 +4.00382646149E-007 -2.11873812077E-005 -3.42264547944E-002 +6.58073574305E-002 
+5.21000000000E+009 -8.63249823451E-002 -6.18675827980E-001 +4.58623394370E-002 -2.09681894630E-002 -1.21809534903E-005 +1.12736870506E-005 -2.67495233566E-002 +7.19596371055E-002 
+5.41000000000E+009 -1.07921436429E-001 -6.22052729130E-001 -1.73309247475E-003 -5.00574074686E-002 -1.03776919786E-005 +2.10638536373E-005 -1.77452936769E-002 +7.68853574991E-002 
+5.61000000000E+009 -1.29491090775E-001 -6.25557839870E-001 -5.22383414209E-002 -1.60710178316E-002 +1.15955544970E-005 +1.08603262561E-005 -7.80852977186E-003 +8.02370086312E-002 
+5.81000000000E+009 -1.50400444865E-001 -6.27754986286E-001 -2.94004939497E-002 +4.61102984846E-002 -1.04074488263E-005 +6.57601674448E-007 +2.69810273312E-003 +8.13115239143E-002 
+6.01000000000E+009 -1.70123919845E-001 -6.28874540329E-001 +3.23304086924E-002 +4.47783283889E-002 +1.97931767616E-005 +1.25656606542E-005 +1.40851773322E-002 +8.29203650355E-002 
+6.21000000000E+009 -1.89876705408E-001 -6.29752457142E-001 +5.63850365579E-002 -1.96678061038E-002 -1.52301799972E-005 -1.58310394909E-005 +2.51835510135E-002 +8.25771242380E-002 
+6.41000000000E+009 -2.08958134055E-001 -6.29598438740E-001 -5.09567372501E-003 -5.80046847463E-002 -1.43754523378E-005 -4.60722985736E-005 +3.66573669016E-002 +8.06420594454E-002 
+6.61000000000E+009 -2.27362304926E-001 -6.29005193710E-001 -5.69140948355E-002 -1.52631085366E-002 -1.43600245792E-005 +1.00551033029E-005 +4.79341112077E-002 +7.58586898446E-002 
+6.81000000000E+009 -2.45514363050E-001 -6.28015041351E-001 -2.94323936105E-002 +5.36801256239E-002 +5.67531287743E-007 +1.36409344123E-005 +5.90204074979E-002 +7.02826753259E-002 
+7.01000000000E+009 -2.62637197971E-001 -6.26164853573E-001 +4.13279682398E-002 +3.89690212905E-002 +2.28566786973E-005 -2.19427111006E-005 +6.93055614829E-002 +6.37440979481E-002 
+7.21000000000E+009 -2.79201567173E-001 -6.24042153358E-001 +4.95804883540E-002 -2.67652533948E-002 -1.61132993526E-005 -8.50365836413E-007 +7.83845335245E-002 +5.52807562053E-002 
+7.41000000000E+009 -2.94996827841E-001 -6.21728777885E-001 -1.40701774508E-002 -5.25993146002E-002 -8.47465798870E-006 +2.81632892438E-005 +8.73655900359E-002 +4.50495332479E-002 
+7.61000000000E+009 -3.09668332338E-001 -6.18704557419E-001 -4.91678342223E-002 -1.19004375301E-003 +2.52711629400E-006 +3.14468452416E-005 +9.40714478493E-002 +3.30163463950E-002 
+7.81000000000E+009 -3.24556976557E-001 -6.15274369717E-001 -1.54896555468E-002 +4.40442003310E-002 -1.57959930220E-005 -5.52961228095E-006 +9.94405448437E-002 +2.03438345343E-002 
+8.01000000000E+009 -3.38309705257E-001 -6.11652731895E-001 +3.50146554410E-002 +2.50043701380E-002 +2.31581379921E-005 +1.87247860595E-005 +1.03038683534E-001 +6.74228137359E-003 
+8.21000000000E+009 -3.51524651051E-001 -6.07793688774E-001 +3.11186816543E-002 -2.29135341942E-002 +7.75791977503E-006 -2.22716680582E-005 +1.05439111590E-001 -7.64691084623E-003 
+8.41000000000E+009 -3.64318221807E-001 -6.03783309460E-001 -1.05414232239E-002 -3.39534133673E-002 +7.34924242352E-006 +9.77296986093E-006 +1.04923240840E-001 -2.29187496006E-002 
+8.61000000000E+009 -3.76824229956E-001 -5.99997341633E-001 -3.25673036277E-002 -1.00394082256E-003 -4.88504747409E-006 +2.85350452032E-005 +1.01585097611E-001 -3.85450981557E-002 
+8.81000000000E+009 -3.88718336821E-001 -5.96123993397E-001 -1.04863084853E-002 +2.76242606342E-002 +1.79092658072E-005 +2.60464480561E-006 +9.61809307337E-002 -5.43198250234E-002 
+9.01000000000E+009 -4.00220215321E-001 -5.91946184635E-001 +2.00156755745E-002 +1.75785813481E-002 -6.22652942184E-006 +1.45610447362E-005 +8.93902629614E-002 -6.84968680143E-002 
+9.21000000000E+009 -4.11322861910E-001 -5.87798893452E-001 +2.18886826187E-002 -1.14880651236E-002 +2.12581489905E-005 -4.65071389044E-006 +7.94703662395E-002 -8.34532231092E-002 
+9.41000000000E+009 -4.21602606773E-001 -5.83685517311E-001 -3.30349081196E-003 -2.23209895194E-002 -3.23375752487E-005 -1.12081261250E-005 +6.69000744820E-002 -9.73476096988E-002 
+9.61000000000E+009 -4.31896656752E-001 -5.79360067844E-001 -1.96491684765E-002 -4.75285993889E-003 +8.53591245686E-006 +1.15640170861E-006 +5.14576733112E-002 -1.09487451613E-001 
+9.81000000000E+009 -4.41254854202E-001 -5.75558543205E-001 -1.11021799967E-002 +1.55231719837E-002 +9.82283017947E-006 -9.75186685537E-006 +3.62876877189E-002 -1.19140945375E-001 
+1.00100000000E+010 -4.50843065977E-001 -5.71179568768E-001 +1.00262174383E-002 +1.44111718982E-002 -2.22470189328E-005 -2.42116743721E-006 +1.92023888230E-002 -1.27152115107E-001 
+1.02100000000E+010 -4.59678530693E-001 -5.66647827625E-001 +1.53825078160E-002 -3.20181623101E-003 +5.02560214954E-005 +2.64575028268E-005 +1.02584704291E-003 -1.34284839034E-001 
+1.04100000000E+010 -4.68574643135E-001 -5.62549889088E-001 +2.87595763803E-003 -1.48526728153E-002 -2.69374618256E-006 -9.38293226227E-007 -1.97266936302E-002 -1.39739498496E-001 
+1.06100000000E+010 -4.77124810219E-001 -5.58221638203E-001 -1.20033035055E-002 -7.01865879819E-003 -3.81843449304E-007 +3.13142554660E-005 -4.18964289129E-002 -1.42621114850E-001 
+1.08100000000E+010 -4.84439283609E-001 -5.54612815380E-001 -1.01588293910E-002 +7.29541480541E-003 -9.04664557311E-006 +1.34492984216E-005 -6.35894015431E-002 -1.42091050744E-001 
+1.10100000000E+010 -4.92154031992E-001 -5.50316452980E-001 +2.70255072974E-003 +1.18833417073E-002 -3.07914597215E-005 -8.02510203357E-006 -8.59309062362E-002 -1.38532623649E-001 
+1.12100000000E+010 -4.99444961548E-001 -5.46960890293E-001 +1.11519517377E-002 +1.34175759740E-003 +2.44114903580E-006 -1.30891030494E-005 -1.10032849014E-001 -1.31866559386E-001 
+1.14100000000E+010 -5.06752490997E-001 -5.42638003826E-001 +5.25131309405E-003 -8.63055419177E-003 -3.78080744667E-006 +1.79003454832E-005 -1.33203849196E-001 -1.21631823480E-001 
+1.16100000000E+010 -5.12591719627E-001 -5.38943827152E-001 -5.80791523680E-003 -8.10793507844E-003 -3.90272998629E-006 -1.94776885110E-006 -1.55212253332E-001 -1.08071103692E-001 
+1.18100000000E+010 -5.19056677818E-001 -5.35140931606E-001 -8.81391949952E-003 +2.53898813389E-003 -4.77992784909E-007 +1.12252118925E-005 -1.74879014492E-001 -9.12383347750E-002 
+1.20100000000E+010 -5.25610208511E-001 -5.30821979046E-001 -1.31397333462E-003 +8.21636710316E-003 +6.60028445054E-006 -2.25919429795E-005 -1.92695736885E-001 -7.17453211546E-002 
+1.22100000000E+010 -5.32262265682E-001 -5.26236057281E-001 +7.04847322777E-003 +4.36753453687E-003 -1.28675901578E-005 -1.39064650284E-005 -2.10279718041E-001 -4.94258478284E-002 
+1.24100000000E+010 -5.38052737713E-001 -5.22259235382E-001 +5.96695160493E-003 -4.71360050142E-003 +1.17168019642E-005 +3.37735468747E-006 -2.24950090051E-001 -2.38486882299E-002 
+1.26100000000E+010 -5.43830335140E-001 -5.18107831478E-001 -1.51397462469E-003 -6.74554193392E-003 +5.45738475921E-006 -8.20412151370E-006 -2.35307335854E-001 +4.04430693015E-003 
+1.28100000000E+010 -5.49251139164E-001 -5.13923525810E-001 -6.83661224321E-003 -1.20300170965E-003 +5.02163129568E-006 -2.24952623284E-006 -2.41882517934E-001 +3.34000773728E-002 
+1.30100000000E+010 -5.54596900940E-001 -5.09161591530E-001 -3.17516736686E-003 +5.53022092208E-003 -5.40691189599E-006 -4.57201667814E-006 -2.45569452643E-001 +6.35266005993E-002 
+1.32100000000E+010 -5.59406936169E-001 -5.04961550236E-001 +3.27861774713E-003 +4.82412101701E-003 -5.91042089582E-006 -5.54738926439E-006 -2.45881915092E-001 +9.55962538719E-002 
+1.34100000000E+010 -5.64343571663E-001 -5.00083744526E-001 +5.76514611021E-003 -1.17320579011E-003 +1.52397542479E-005 +7.90154990682E-006 -2.42533951998E-001 +1.27341091633E-001 
+1.36100000000E+010 -5.67219436169E-001 -4.95818883181E-001 +7.70168437157E-004 -5.27561269701E-003 +2.27325972446E-006 -3.90667901229E-006 -2.34543859959E-001 +1.60602524877E-001 
+1.38100000000E+010 -5.72077393532E-001 -4.92168992758E-001 -4.09552734345E-003 -2.83615197986E-003 +1.89499303360E-006 -7.53044469093E-006 -2.21582487226E-001 +1.93074122071E-001 
+1.40100000000E+010 -5.76607882977E-001 -4.88219887018E-001 -4.21499507502E-003 +2.72997911088E-003 +8.61418084241E-006 +8.14504528535E-006 -2.04907029867E-001 +2.24754601717E-001 
+1.42100000000E+010 -5.80888211727E-001 -4.84687238932E-001 +9.93374269456E-004 +4.46178950369E-003 -2.53427369898E-005 +1.94477379409E-005 -1.84278726578E-001 +2.56328821182E-001 
+1.44100000000E+010 -5.85142850876E-001 -4.80339497328E-001 +4.11464413628E-003 +1.02920469362E-003 -1.26259892568E-005 -2.17936067202E-005 -1.58313006163E-001 +2.85319298506E-001 
+1.46100000000E+010 -5.88623404503E-001 -4.76755857468E-001 +2.55181477405E-003 -3.48696438596E-003 -1.86264896911E-005 -4.72619831271E-006 -1.27447202802E-001 +3.11038285494E-001 
+1.48100000000E+010 -5.91834485531E-001 -4.70724850893E-001 -2.19914736226E-003 -3.25334840454E-003 +1.95476914087E-005 -1.33632338475E-005 -9.44587513804E-002 +3.33219647408E-001 
+1.50100000000E+010 -5.93051731586E-001 -4.69273358583E-001 -3.61914443783E-003 +4.33171051554E-004 +1.46421343743E-005 +6.52665812595E-006 -5.86770921946E-002 +3.52739036083E-001 
+1.52100000000E+010 -5.95647096634E-001 -4.67905223370E-001 -9.77563089691E-004 +3.60894901678E-003 +3.33265347763E-006 -2.04390380532E-005 -1.94108281285E-002 +3.68107646704E-001 
+1.54100000000E+010 -5.98853945732E-001 -4.65337425470E-001 +2.72527663037E-003 +1.97417614982E-003 -4.18529234594E-005 -7.85030715633E-006 +2.33191158623E-002 +3.78179192543E-001 
+1.56100000000E+010 -6.02047085762E-001 -4.61580753326E-001 +2.83491169102E-003 -1.44005368929E-003 +5.29958197149E-006 +4.91216610499E-007 +6.76982998848E-002 +3.82458180189E-001 
+1.58100000000E+010 -6.02879106998E-001 -4.60629373789E-001 -2.56188941421E-004 -3.21678305045E-003 +1.48567760334E-005 +2.66751303570E-005 +1.12365208566E-001 +3.82922738791E-001 
+1.60100000000E+010 -6.05030477047E-001 -4.59290832281E-001 -2.82200938091E-003 -7.77826644480E-004 +1.88659068954E-005 -1.08236566376E-008 +1.58044680953E-001 +3.77919107676E-001 
+1.62100000000E+010 -6.07135057449E-001 -4.57439333200E-001 -1.90153007861E-003 +2.05404334702E-003 -2.27513664868E-005 +3.23138774547E-005 +2.06206172705E-001 +3.67516815662E-001 
+1.64100000000E+010 -6.09133660793E-001 -4.55728262663E-001 +1.20763597079E-003 +2.59181973524E-003 +9.44877592701E-006 -8.97376048670E-006 +2.53597170115E-001 +3.51132541895E-001 
+1.66100000000E+010 -6.12381577492E-001 -4.53930914402E-001 +2.55029485561E-003 -2.02791634365E-004 +7.07385652277E-006 +2.64624941337E-005 +2.98077344894E-001 +3.27608168125E-001 
+1.68100000000E+010 -6.15520119667E-001 -4.51298654079E-001 +9.63967817370E-004 -2.28377594613E-003 -7.50422077544E-006 -4.51990445072E-006 +3.41972470284E-001 +3.00433218479E-001 
+1.70100000000E+010 -6.17035388947E-001 -4.48948591948E-001 -1.79197057150E-003 -1.70589145273E-003 +1.54140718678E-006 +3.51457333636E-006 +3.82606893778E-001 +2.69006460905E-001 
+1.72100000000E+010 -6.19413375854E-001 -4.46996480227E-001 -2.04333057627E-003 +9.61159472354E-004 +2.11379938264E-005 +9.06186596694E-006 +4.20734494925E-001 +2.30264022946E-001 
+1.74100000000E+010 -6.22571170330E-001 -4.45101112127E-001 -9.86388768069E-005 +2.20230082050E-003 +3.72930969661E-007 -3.09035203827E-005 +4.54504042864E-001 +1.86956673861E-001 
+1.76100000000E+010 -6.25593841076E-001 -4.42880272865E-001 +2.01311870478E-003 +8.74124758411E-004 +3.57445132977E-005 +3.32571130457E-006 +4.82590734959E-001 +1.40534028411E-001 
+1.78100000000E+010 -6.28761470318E-001 -4.40445721149E-001 +1.43788300920E-003 -1.41296233051E-003 -1.50085024870E-005 +7.36395259082E-006 +5.06294608116E-001 +9.14275199175E-002 
+1.80100000000E+010 -6.31194531918E-001 -4.37889158726E-001 -5.71612676140E-004 -1.80970155634E-003 +2.34905182879E-005 +4.82621180709E-005 +5.25551378727E-001 +3.96370254457E-002 
+1.82100000000E+010 -6.34252667427E-001 -4.35752838850E-001 -1.93187815603E-003 -1.39170559123E-004 -1.76357953023E-005 +1.19837604871E-005 +5.38120388985E-001 -1.56667269766E-002 
+1.84100000000E+010 -6.37092530727E-001 -4.33835923672E-001 -8.06414871477E-004 +1.59073655959E-003 -2.63229721895E-005 -3.91947423850E-006 +5.44228374958E-001 -7.36925974488E-002 
+1.86100000000E+010 -6.40302479267E-001 -4.31541472673E-001 +1.03297468740E-003 +1.35994516313E-003 +8.36934395920E-006 -5.48955540580E-006 +5.44523000717E-001 -1.30716681480E-001 
+1.88100000000E+010 -6.42898797989E-001 -4.29080843925E-001 +1.62380305119E-003 -4.85563796246E-004 -4.42198797828E-005 +1.91384879145E-005 +5.38794338703E-001 -1.88271880150E-001 
+1.90100000000E+010 -6.45049571991E-001 -4.26945149899E-001 +1.91278842976E-004 -1.56263296958E-003 +2.67264040303E-005 -3.45728076354E-005 +5.27498185635E-001 -2.45279774070E-001 
+1.92100000000E+010 -6.47792220116E-001 -4.25317198038E-001 -1.24315486755E-003 -8.53290490340E-004 -2.53607740888E-005 -1.28460499127E-007 +5.09101867676E-001 -3.03714990616E-001 
+1.94100000000E+010 -6.50755763054E-001 -4.22540456057E-001 -1.23678904492E-003 +9.02755709831E-004 -5.60451417186E-006 +1.39375515573E-005 +4.83658641577E-001 -3.59347999096E-001 
+1.96100000000E+010 -6.51608228683E-001 -4.20039653778E-001 +3.10475734295E-004 +1.39598792884E-003 -1.97124063561E-005 +3.46355864167E-006 +4.52861368656E-001 -4.11843121052E-001 
+1.98100000000E+010 -6.51528894901E-001 -4.16936933994E-001 +1.31430057809E-003 +3.59891797416E-004 +9.04315766093E-006 -1.46287702592E-005 +4.18448239565E-001 -4.60021227598E-001 
+2.00100000000E+010 -6.51292204857E-001 -4.15343433619E-001 +7.55847024266E-004 -1.11915916204E-003 -2.86012982542E-005 -2.78996249108E-005 +3.76380324364E-001 -5.07086217403E-001 
