!;Filter: kein Filter
!auto
!3/21/2019 9:26:39 AM
!3/21/2019 9:26:51 AM
!SP-Measurements Prober G4
!SP-Measurements Prober G4
!01103_448C
!134
!237
!12
!30
!-20
!0.00099996
!1.65
!0.05816927
!0.05816927
# Hz S  RI   R 50
+1.00000000000E+007 +4.29989516735E-001 +3.76368942671E-003 +5.26198409498E-002 -2.13408637792E-002 +2.02351438929E-004 +1.39919022331E-004 +4.31202352047E-003 +2.89344578050E-004 
+2.10000000000E+008 +4.33445423841E-001 -4.90819625556E-002 -5.78419724479E-003 -5.50831966102E-002 +3.81748213840E-005 -1.29106250824E-004 +9.13864281029E-003 -4.39809309319E-003 
+4.10000000000E+008 +4.26185876131E-001 -9.42493006587E-002 -5.39410747588E-002 -1.15369930863E-002 +1.68726674019E-005 +1.64828543348E-005 +1.05340490118E-002 -7.23041966558E-003 
+6.10000000000E+008 +4.16948258877E-001 -1.36340349913E-001 -2.79715787619E-002 +4.99412193894E-002 -4.53294087492E-005 +1.24933858388E-005 +9.36550926417E-003 -1.14392163232E-002 
+8.10000000000E+008 +4.04422134161E-001 -1.80923998356E-001 +3.82844358683E-002 +4.14501316845E-002 -1.92971201614E-005 +1.56489295478E-005 +6.87258737162E-003 -1.52325360104E-002 
+1.01000000000E+009 +3.90204638243E-001 -2.21429228783E-001 +5.23747354746E-002 -2.67528127879E-002 +6.22458355792E-006 -1.06718027837E-006 +2.97590461560E-003 -1.88383013010E-002 
+1.21000000000E+009 +3.72007220984E-001 -2.60539710522E-001 -1.00727071986E-002 -5.92803657055E-002 +7.72306339059E-006 +3.68440560123E-005 -1.72458647285E-003 -2.14874204248E-002 
+1.41000000000E+009 +3.50584983826E-001 -2.95376926661E-001 -6.14010542631E-002 -1.35815348476E-002 +1.71035662788E-005 +9.64561513683E-006 -7.76547193527E-003 -2.45287623256E-002 
+1.61000000000E+009 +3.34352254868E-001 -3.29796701670E-001 -3.10799572617E-002 +6.79624676704E-002 -3.35907716362E-005 -9.65349045146E-006 -1.37065183371E-002 -2.69905105233E-002 
+1.81000000000E+009 +3.15468788147E-001 -3.76650035381E-001 +8.37174877524E-002 +2.07428187132E-002 -5.09026403961E-006 +5.84550662097E-006 -1.78724043071E-002 -2.81202048063E-002 
+2.01000000000E+009 +2.84998238087E-001 -4.11814689636E-001 +2.79735252261E-002 -7.86648243666E-002 -1.21376278912E-005 -2.38665907091E-005 -2.32705119997E-002 -2.70940028131E-002 
+2.21000000000E+009 +2.50635206699E-001 -4.42633926868E-001 -7.72567242384E-002 -3.03228050470E-002 +7.52920550440E-006 +2.16285952774E-005 -2.90530100465E-002 -2.49541066587E-002 
+2.41000000000E+009 +2.15106680989E-001 -4.64715003967E-001 -3.09268627316E-002 +6.99506998062E-002 -5.39244501851E-005 -1.19295714285E-006 -3.57115902007E-002 -2.25429460406E-002 
+2.61000000000E+009 +1.86377555132E-001 -4.81037497520E-001 +5.07268197834E-002 +4.20246198773E-002 -3.14691133099E-005 -3.08972312268E-006 -4.09056805074E-002 -1.95707604289E-002 
+2.81000000000E+009 +1.60448938608E-001 -4.97080981731E-001 +5.29551059008E-002 -2.81518734992E-002 -4.64833192382E-006 -6.64588299060E-007 -4.48807440698E-002 -1.46622126922E-002 
+3.01000000000E+009 +1.32060006261E-001 -5.10627985001E-001 -1.67719386518E-002 -4.90865074098E-002 -2.85890632767E-006 -5.47119598195E-005 -4.87478710711E-002 -8.81768576801E-003 
+3.21000000000E+009 +1.07053026557E-001 -5.22516191006E-001 -4.01379093528E-002 +2.76954786386E-004 +1.50361556734E-005 -3.06389301841E-005 -5.27870208025E-002 -2.42012878880E-003 
+3.41000000000E+009 +8.20582732558E-002 -5.33754050732E-001 -5.29230153188E-003 +3.17263938487E-002 +2.56220682786E-005 -1.20587992569E-006 -5.58232590556E-002 +4.78918384761E-003 
+3.61000000000E+009 +5.84301315248E-002 -5.46097576618E-001 +2.29625869542E-002 +1.78644582629E-002 +3.13173472932E-006 -2.97248552670E-005 -5.76617941260E-002 +1.18862865493E-002 
+3.81000000000E+009 +3.34899984300E-002 -5.55630385876E-001 +1.93806085736E-002 -1.82368606329E-002 +1.31812601012E-006 -8.27575877338E-006 -5.76059110463E-002 +1.94650087506E-002 
+4.01000000000E+009 +1.10381022096E-002 -5.64600408077E-001 -6.58587040380E-003 -1.55557077378E-002 -3.43587053067E-005 +3.38099234796E-005 -5.66548109055E-002 +2.75360699743E-002 
+4.21000000000E+009 -1.21636614203E-002 -5.73624253273E-001 -1.63889620453E-002 -3.23201646097E-003 -1.22964574985E-005 -1.85098924703E-005 -5.47449029982E-002 +3.61990071833E-002 
+4.41000000000E+009 -3.49905863404E-002 -5.80806374550E-001 -6.42781239003E-003 +1.15357907489E-002 -1.85352655535E-005 -6.01630245001E-006 -5.17474450171E-002 +4.44637537003E-002 
+4.61000000000E+009 -5.72827048600E-002 -5.87381124496E-001 +5.94869302586E-003 +9.52694006264E-003 +3.36483790306E-005 +1.33845333039E-005 -4.74010631442E-002 +5.18658719957E-002 
+4.81000000000E+009 -7.97095373273E-002 -5.93074977398E-001 +1.12638911232E-002 -3.96062794607E-004 +2.29251581914E-005 +1.48382114276E-005 -4.08285148442E-002 +5.91862574220E-002 
+5.01000000000E+009 -1.01369775832E-001 -5.97904562950E-001 +1.73179199919E-003 -1.16065163165E-002 +1.99297046493E-005 +1.42740054798E-005 -3.42071577907E-002 +6.58628493547E-002 
+5.21000000000E+009 -1.22026115656E-001 -6.02149069309E-001 -8.06683022529E-003 -4.80394391343E-003 -2.85344663098E-006 -2.27559685300E-005 -2.66958419234E-002 +7.20033496618E-002 
+5.41000000000E+009 -1.42462670803E-001 -6.05561137199E-001 -7.89458304644E-003 +5.05277933553E-003 +5.33564661964E-006 +6.99293082107E-007 -1.77015401423E-002 +7.69469812512E-002 
+5.61000000000E+009 -1.62922129035E-001 -6.08414947987E-001 +2.76321405545E-003 +8.33042990416E-003 +2.46037707257E-005 +4.52225940535E-005 -7.76668870822E-003 +8.03394988179E-002 
+5.81000000000E+009 -1.82099282742E-001 -6.10313653946E-001 +6.91726291552E-003 +3.12520889565E-004 -9.45199735725E-006 -4.41508673248E-005 +2.75650923140E-003 +8.13675969839E-002 
+6.01000000000E+009 -2.00758174062E-001 -6.11553668976E-001 +3.61767970026E-003 -5.74741745368E-003 -6.68474456234E-007 +3.28243731929E-006 +1.41733326018E-002 +8.29460024834E-002 
+6.21000000000E+009 -2.19215363264E-001 -6.12213850021E-001 -4.35507297516E-003 -4.81511093676E-003 +2.33050201359E-007 -1.29371474031E-005 +2.52431053668E-002 +8.25939178467E-002 
+6.41000000000E+009 -2.36652344465E-001 -6.12288296223E-001 -4.86771063879E-003 +1.79898948409E-003 -1.72840955202E-005 +2.19567900785E-005 +3.66985350847E-002 +8.06350782514E-002 
+6.61000000000E+009 -2.54021793604E-001 -6.11986398697E-001 -8.35508632008E-004 +5.01243490726E-003 -1.95256470761E-005 -1.74957094714E-005 +4.80264984071E-002 +7.58281722665E-002 
+6.81000000000E+009 -2.70756393671E-001 -6.11235737801E-001 +4.44078724831E-003 +2.11153971031E-003 -1.65386627486E-005 -3.02100602312E-006 +5.90754747391E-002 +7.02186003327E-002 
+7.01000000000E+009 -2.86667615175E-001 -6.10217690468E-001 +2.97706900164E-003 -2.55103688687E-003 -8.05696163297E-006 -1.68601909536E-005 +6.93574398756E-002 +6.37140274048E-002 
+7.21000000000E+009 -3.02443593740E-001 -6.08745157719E-001 -8.73167708050E-004 -3.93881462514E-003 +1.86524321180E-005 -5.99418672209E-005 +7.84685537219E-002 +5.52595593035E-002 
+7.41000000000E+009 -3.17317426205E-001 -6.07179939747E-001 -3.82053293288E-003 -2.75132217212E-004 -2.77432150142E-006 -2.52154732152E-005 +8.74667614698E-002 +4.49837408960E-002 
+7.61000000000E+009 -3.31434994936E-001 -6.05112671852E-001 -1.51530804578E-003 +2.80664837919E-003 +1.81955201697E-005 -1.10190667328E-005 +9.41415876150E-002 +3.29510644078E-002 
+7.81000000000E+009 -3.45798581839E-001 -6.02373659611E-001 +1.79670110811E-003 +2.63144983910E-003 +2.85000191980E-006 +3.61569618690E-005 +9.95362475514E-002 +2.02637370676E-002 
+8.01000000000E+009 -3.59135776758E-001 -5.99476695061E-001 +3.00525315106E-003 -9.20266902540E-004 +2.27678765441E-006 -4.57411006209E-005 +1.03107415140E-001 +6.58648228273E-003 
+8.21000000000E+009 -3.72105747461E-001 -5.96396625042E-001 +3.15803044941E-004 -2.54384893924E-003 +8.40170196170E-006 +1.34978727147E-005 +1.05484329164E-001 -7.74935679510E-003 
+8.41000000000E+009 -3.84672969580E-001 -5.92916309834E-001 -2.17358465306E-003 -1.46973843221E-003 -6.55175335851E-006 +3.99327727791E-005 +1.04976072907E-001 -2.30093374848E-002 
+8.61000000000E+009 -3.97004544735E-001 -5.89756667614E-001 -1.98719929904E-003 +1.55948032625E-003 -1.97289864445E-005 +1.21736889014E-006 +1.01633965969E-001 -3.86530756950E-002 
+8.81000000000E+009 -4.08775717020E-001 -5.86409449577E-001 +5.13996579684E-004 +2.08077952266E-003 +2.28684857575E-005 -3.94377457269E-005 +9.62595492601E-002 -5.44731281698E-002 
+9.01000000000E+009 -4.20123577118E-001 -5.82739531994E-001 +2.11727502756E-003 +4.49200422736E-004 +3.16321420541E-005 -2.95858935715E-005 +8.94247666001E-002 -6.86005800962E-002 
+9.21000000000E+009 -4.31143492460E-001 -5.79085886478E-001 +1.12163694575E-003 -1.77245598752E-003 +2.69256761385E-005 +1.13865507956E-005 +7.94412791729E-002 -8.35722312331E-002 
+9.41000000000E+009 -4.41381365061E-001 -5.75529038906E-001 -1.06439541560E-003 -1.44949345849E-003 -1.29031095639E-005 -2.91330889013E-005 +6.68692216277E-002 -9.74921286106E-002 
+9.61000000000E+009 -4.51607972383E-001 -5.71494996548E-001 -1.74514972605E-003 +2.31357684243E-004 +2.21618156502E-005 +2.20986221393E-005 +5.13807311654E-002 -1.09631784260E-001 
+9.81000000000E+009 -4.60891783237E-001 -5.68147897720E-001 -3.03479057038E-004 +1.68369326275E-003 -4.85722466692E-006 -3.77151009161E-005 +3.62171493471E-002 -1.19218140841E-001 
+1.00100000000E+010 -4.70449805260E-001 -5.64254939556E-001 +1.22296984773E-003 +8.48966883495E-004 -1.85228000191E-005 +1.13253572636E-005 +1.91472526640E-002 -1.27176508307E-001 
+1.02100000000E+010 -4.79351967573E-001 -5.60137689114E-001 +1.28091580700E-003 -7.01494340319E-004 -6.37683994498E-009 +6.00910134381E-005 +8.91499454156E-004 -1.34429186583E-001 
+1.04100000000E+010 -4.88364189863E-001 -5.56306183338E-001 -2.40913432208E-004 -1.42662134022E-003 -1.34453316036E-007 -3.99669843318E-005 -1.98900382966E-002 -1.39830783010E-001 
+1.06100000000E+010 -4.96857941151E-001 -5.52311837673E-001 -1.21644686442E-003 -3.33694828441E-004 +1.03185584521E-006 +4.25422986154E-005 -4.20440658927E-002 -1.42654016614E-001 
+1.08100000000E+010 -5.04246354103E-001 -5.48949539661E-001 -8.22203001007E-004 +9.79741918854E-004 -1.82144631253E-005 -5.49430660612E-006 -6.37191385031E-002 -1.42121449113E-001 
+1.10100000000E+010 -5.11996269226E-001 -5.44987797737E-001 +6.30124239251E-004 +1.08396867290E-003 +3.12876945827E-005 -3.66727144865E-005 -8.60917866230E-002 -1.38496413827E-001 
+1.12100000000E+010 -5.19184887409E-001 -5.41908085346E-001 +1.10265228432E-003 -7.36957445042E-005 +8.73418593983E-006 +1.32798531922E-005 -1.10182739794E-001 -1.31849214435E-001 
+1.14100000000E+010 -5.26487410069E-001 -5.37979841232E-001 +3.63732950063E-004 -1.02696241811E-003 -1.05154981611E-006 +3.32487434207E-005 -1.33361697197E-001 -1.21601440012E-001 
+1.16100000000E+010 -5.32381594181E-001 -5.34620702267E-001 -7.86214135587E-004 -6.59956887830E-004 +9.61403202382E-006 -9.19225294638E-006 -1.55346661806E-001 -1.07963167131E-001 
+1.18100000000E+010 -5.38930535316E-001 -5.31121790409E-001 -9.20856604353E-004 +3.95886658225E-004 +4.70067334390E-006 -3.24326947521E-006 -1.75003662705E-001 -9.11867022514E-002 
+1.20100000000E+010 -5.45627295971E-001 -5.27103006840E-001 -2.59535972873E-005 +9.42624115851E-004 +4.74622174806E-006 -2.98072773148E-005 -1.92846834660E-001 -7.16127082705E-002 
+1.22100000000E+010 -5.52153229713E-001 -5.22862792015E-001 +8.73031502124E-004 +3.01482592477E-004 -9.78059415502E-006 -1.50883124661E-005 -2.10456654429E-001 -4.92989867926E-002 
+1.24100000000E+010 -5.58122873306E-001 -5.19245266914E-001 +5.26286195964E-004 -6.18187128566E-004 +3.24098691635E-005 +1.09399900250E-009 -2.25073024631E-001 -2.36718989909E-002 
+1.26100000000E+010 -5.63975155354E-001 -5.15473484993E-001 -2.79876810964E-004 -7.58581678383E-004 -6.47240813123E-006 -1.72735508386E-005 -2.35360458493E-001 +4.27500205114E-003 
+1.28100000000E+010 -5.69554209709E-001 -5.11677384377E-001 -7.65453791246E-004 +4.64272052341E-005 +1.27590637931E-005 +2.10140278796E-005 -2.41920515895E-001 +3.36102545261E-002 
+1.30100000000E+010 -5.75279235840E-001 -5.07262051105E-001 -2.76480073808E-004 +6.21512357611E-004 +1.25206206576E-005 -1.57109152497E-005 -2.45556384325E-001 +6.37617558241E-002 
+1.32100000000E+010 -5.80405235291E-001 -5.03476142883E-001 +4.81302267872E-004 +5.32351899892E-004 +5.65971231481E-006 +1.36886283144E-005 -2.45826944709E-001 +9.58223342896E-002 
+1.34100000000E+010 -5.85790693760E-001 -4.98918503523E-001 +6.40431942884E-004 -2.43677975959E-004 -1.49465913637E-005 +3.26532572217E-005 -2.42471143603E-001 +1.27503350377E-001 
+1.36100000000E+010 -5.88831961155E-001 -4.94764447212E-001 -1.66922018252E-005 -5.97953156102E-004 -3.85436251236E-005 -2.61965142272E-005 -2.34447643161E-001 +1.60779595375E-001 
+1.38100000000E+010 -5.94042241573E-001 -4.91345554590E-001 -5.87602320593E-004 -2.88457842544E-004 +1.35239888550E-005 +3.17397789331E-005 -2.21422880888E-001 +1.93267613649E-001 
+1.40100000000E+010 -5.98971605301E-001 -4.87691432238E-001 -4.61967953015E-004 +3.22084320942E-004 -2.43175436481E-005 -2.60860360868E-005 -2.04733297229E-001 +2.24900007248E-001 
+1.42100000000E+010 -6.03652715683E-001 -4.84250724316E-001 +1.44938720041E-004 +5.32026402652E-004 -2.52131430898E-005 +1.55424604600E-005 -1.84082493186E-001 +2.56521373987E-001 
+1.44100000000E+010 -6.08457982540E-001 -4.80097830296E-001 +5.60772838071E-004 +8.46688635647E-005 +2.93148004857E-005 -2.65646895059E-006 -1.58042922616E-001 +2.85551160574E-001 
+1.46100000000E+010 -6.12365603447E-001 -4.76649135351E-001 +2.42843350861E-004 -4.60038805613E-004 -7.14815223546E-006 -3.42039384122E-005 -1.27081841230E-001 +3.11158359051E-001 
+1.48100000000E+010 -6.16409838200E-001 -4.70738112926E-001 -2.59806518443E-004 -3.98782023694E-004 -1.19768992590E-006 +2.75187685475E-005 -9.41001027822E-002 +3.33249479532E-001 
+1.50100000000E+010 -6.18019342422E-001 -4.69033449888E-001 -4.62460477138E-004 +9.38931261771E-005 -1.76581306732E-005 -9.38765970204E-006 -5.83440214396E-002 +3.52742254734E-001 
+1.52100000000E+010 -6.21225595474E-001 -4.67629075050E-001 -6.88266736688E-005 +4.55549685284E-004 +8.30070712254E-006 -1.47109867612E-005 -1.90853457898E-002 +3.68129968643E-001 
+1.54100000000E+010 -6.24898970127E-001 -4.64826166630E-001 +3.56944161467E-004 +2.47312389547E-004 -1.60925555974E-005 +1.15355660455E-005 +2.36687697470E-002 +3.78165483475E-001 
+1.56100000000E+010 -6.28779530525E-001 -4.60772305727E-001 +3.62317194231E-004 -2.09814243135E-004 -1.28665233206E-005 -1.03212505564E-005 +6.81322291493E-002 +3.82382392883E-001 
+1.58100000000E+010 -6.29938066006E-001 -4.59296971560E-001 -9.10842354642E-005 -4.38364746515E-004 -2.03878298635E-005 +1.38610557769E-005 +1.12747311592E-001 +3.82827103138E-001 
+1.60100000000E+010 -6.32353782654E-001 -4.57426190376E-001 -3.66027234122E-004 -8.80460720509E-005 +2.64761092694E-005 -8.05314448371E-006 +1.58437073231E-001 +3.77756237984E-001 
+1.62100000000E+010 -6.34758710861E-001 -4.55149501562E-001 -2.40334396949E-004 +2.97500926536E-004 -1.84724854080E-007 -9.84354846878E-006 +2.06567943096E-001 +3.67303878069E-001 
+1.64100000000E+010 -6.37114286423E-001 -4.53020572662E-001 +1.36913600727E-004 +3.44364583725E-004 -2.16434964386E-005 +6.33513900539E-006 +2.53904104233E-001 +3.50766807795E-001 
+1.66100000000E+010 -6.40550971031E-001 -4.50470238924E-001 +3.61505604815E-004 -4.86894678033E-005 -1.43435397604E-006 -1.19777189411E-006 +2.98276066780E-001 +3.27182173729E-001 
+1.68100000000E+010 -6.43559753895E-001 -4.47342246771E-001 +7.12368419045E-005 -2.57800944382E-004 -3.80343153665E-005 +1.03625598058E-005 +3.42100530863E-001 +2.99992024899E-001 
+1.70100000000E+010 -6.45305037498E-001 -4.44554090500E-001 -2.10026890272E-004 -1.86621851753E-004 +5.00908317917E-005 +2.26503943850E-005 +3.82820397615E-001 +2.68552273512E-001 
+1.72100000000E+010 -6.47648632526E-001 -4.42009389400E-001 -3.08218586724E-004 +1.17993738968E-004 -1.71220017364E-005 +9.72150928646E-007 +4.20942306519E-001 +2.29639425874E-001 
+1.74100000000E+010 -6.50740146637E-001 -4.39453244209E-001 -7.60507537052E-005 +2.93875375064E-004 +2.83036752080E-006 -7.15705982657E-006 +4.54479753971E-001 +1.86334684491E-001 
+1.76100000000E+010 -6.53509020805E-001 -4.36675697565E-001 +2.59192194790E-004 +1.09312750283E-004 +5.83451110288E-005 +3.72952199541E-005 +4.82472389936E-001 +1.39910250902E-001 
+1.78100000000E+010 -6.56406044960E-001 -4.33825135231E-001 +1.61933683557E-004 -1.92327453988E-004 -1.30546868604E-005 -1.50127252709E-005 +5.06174266338E-001 +9.07168537378E-002 
+1.80100000000E+010 -6.58693909645E-001 -4.30717110634E-001 -1.08585787530E-004 -2.29140350712E-004 +6.61010635667E-005 -1.75272471097E-005 +5.25326609612E-001 +3.90077270567E-002 
+1.82100000000E+010 -6.61260783672E-001 -4.28224742413E-001 -1.92629333469E-004 +4.66072124254E-005 +2.42479973167E-006 -8.67345625011E-006 +5.37813067436E-001 -1.61781311035E-002 
+1.84100000000E+010 -6.63760066032E-001 -4.25976783037E-001 -1.16913892271E-004 +2.03834395506E-004 -1.24844355014E-005 -5.29050703335E-006 +5.43927192688E-001 -7.41409733891E-002 
+1.86100000000E+010 -6.66660249233E-001 -4.23489004374E-001 +1.18705320347E-004 +1.69000573806E-004 +6.19502452537E-006 -1.00644720078E-005 +5.44146537781E-001 -1.31084322929E-001 
+1.88100000000E+010 -6.68833315372E-001 -4.20816987753E-001 +2.50333891017E-004 -1.06409293949E-004 -5.38275617146E-006 +2.92055428872E-005 +5.38442671299E-001 -1.88583508134E-001 
+1.90100000000E+010 -6.70741796494E-001 -4.18556600809E-001 +4.27369086538E-005 -2.15466250665E-004 -2.27309901675E-005 +7.25298959878E-005 +5.27041494846E-001 -2.45616301894E-001 
+1.92100000000E+010 -6.73229634762E-001 -4.16768729687E-001 -2.16258849832E-004 -1.42947828863E-004 -2.50299690379E-005 -3.09718598146E-005 +5.08532285690E-001 -3.04134011269E-001 
+1.94100000000E+010 -6.75893008709E-001 -4.13870334625E-001 -1.50354229845E-004 +1.52051987243E-004 -1.30052194436E-005 +2.78658972093E-005 +4.82942432165E-001 -3.59607785940E-001 
+1.96100000000E+010 -6.76641643047E-001 -4.10626679659E-001 +7.12277178536E-005 +2.26627496886E-004 -2.85505029751E-005 -1.59224091476E-005 +4.52146142721E-001 -4.12045240402E-001 
+1.98100000000E+010 -6.75623834133E-001 -4.07158523798E-001 +1.57130518346E-004 +6.98931326042E-005 +1.04202599687E-005 -3.85832572647E-005 +4.17699009180E-001 -4.59969758987E-001 
+2.00100000000E+010 -6.74235045910E-001 -4.06191498041E-001 +1.17432042316E-004 -9.49239984038E-005 -1.83553001989E-005 +1.14982049126E-005 +3.75549852848E-001 -5.07040202618E-001 
