!;Filter: kein Filter
!auto
!3/21/2019 9:27:07 AM
!3/21/2019 9:27:22 AM
!SP-Measurements Prober G4
!SP-Measurements Prober G4
!01103_448C
!134
!235
!12
!30
!-20
!0.00299959
!1.83
!0.38139174
!0.38139174
# Hz S  RI   R 50
+1.00000000000E+007 +3.19440096617E-001 +1.30953583866E-002 +5.70106208324E-002 -2.36226115376E-002 +8.79539933521E-004 -6.07768306509E-004 +4.73214592785E-003 -2.01666174689E-004 
+2.10000000000E+008 +3.41010212898E-001 -3.34616526961E-002 -2.17395811342E-003 -5.90812377632E-002 -1.17913841677E-005 +2.02447517950E-005 +9.03644599020E-003 -4.27130889148E-003 
+4.10000000000E+008 +3.39276313782E-001 -7.36162289977E-002 -5.53503297269E-002 -1.88041701913E-002 -4.74327043776E-006 +2.09297322726E-005 +1.05023682117E-002 -7.22628459334E-003 
+6.10000000000E+008 +3.33541721106E-001 -1.12092100084E-001 -3.69543433189E-002 +4.50212210417E-002 -3.84402483178E-006 -5.48281896045E-005 +9.38944425434E-003 -1.14196026698E-002 
+8.10000000000E+008 +3.24333965778E-001 -1.49424001575E-001 +2.86891143769E-002 +5.01180738211E-002 +4.77115463582E-006 +1.37814868140E-005 +6.83831097558E-003 -1.52479475364E-002 
+1.01000000000E+009 +3.12804222107E-001 -1.84849828482E-001 +5.75390346348E-002 -8.58726166189E-003 -4.81018378196E-006 +1.80607312359E-005 +2.95696477406E-003 -1.87845323235E-002 
+1.21000000000E+009 +2.99162954092E-001 -2.18710541725E-001 +1.16175860167E-002 -5.64158409834E-002 +1.02891817733E-005 -2.91898923024E-005 -1.74456974491E-003 -2.13800091296E-002 
+1.41000000000E+009 +2.83526331186E-001 -2.51347005367E-001 -4.85439859331E-002 -3.08772958815E-002 -1.17000718092E-006 -9.35092248255E-006 -7.76015873998E-003 -2.44916584343E-002 
+1.61000000000E+009 +2.66950100660E-001 -2.82058030367E-001 -4.65270541608E-002 +3.48132327199E-002 -7.18594355931E-006 -1.01911246020E-006 -1.36889312416E-002 -2.69233230501E-002 
+1.81000000000E+009 +2.48293131590E-001 -3.11017751694E-001 +1.65922138840E-002 +5.48991225660E-002 +1.57066242537E-005 -1.34487145260E-005 -1.78554244339E-002 -2.80490648001E-002 
+2.01000000000E+009 +2.29155659676E-001 -3.38377714157E-001 +5.66587299109E-002 +3.78647306934E-003 +9.57679822022E-006 -2.59212356468E-005 -2.31917295605E-002 -2.70397663116E-002 
+2.21000000000E+009 +2.08674028516E-001 -3.64101946354E-001 +2.37119756639E-002 -5.18046766520E-002 -4.23575272634E-007 +2.57029751083E-005 -2.90443301201E-002 -2.49154865742E-002 
+2.41000000000E+009 +1.86920925975E-001 -3.87617290020E-001 -3.92590500414E-002 -3.93014289439E-002 +3.13573764288E-005 +1.49198813233E-005 -3.56599092484E-002 -2.25519407541E-002 
+2.61000000000E+009 +1.65009021759E-001 -4.09155100584E-001 -5.05183897913E-002 +2.15025562793E-002 -2.45685951086E-005 +2.25312942348E-006 -4.08324934542E-002 -1.95515956730E-002 
+2.81000000000E+009 +1.42759293318E-001 -4.29069012403E-001 +2.29469593614E-003 +5.54077178240E-002 +2.98854247376E-005 -2.62236662820E-005 -4.48517277837E-002 -1.46622834727E-002 
+3.01000000000E+009 +1.19811221957E-001 -4.47075724602E-001 +5.10466843843E-002 +1.77290327847E-002 +1.59564333444E-005 -6.42817030894E-006 -4.86862622201E-002 -8.79725441337E-003 
+3.21000000000E+009 +9.71373468637E-002 -4.63421106339E-001 +3.63615900278E-002 -4.08750809729E-002 -3.15750753543E-006 +1.72504987859E-005 -5.27193844318E-002 -2.39028106444E-003 
+3.41000000000E+009 +7.47388973832E-002 -4.78574246168E-001 -2.62112971395E-002 -4.88276891410E-002 +3.88717489841E-005 +1.64666416822E-005 -5.57382702827E-002 +4.81583969668E-003 
+3.61000000000E+009 +5.22558912635E-002 -4.92193400860E-001 -5.43332807720E-002 +5.82945533097E-003 +2.88257779175E-005 +2.34652507061E-005 -5.75472041965E-002 +1.18931187317E-002 
+3.81000000000E+009 +2.98686344177E-002 -5.04345953465E-001 -1.54795143753E-002 +5.43759316206E-002 +2.13677103602E-005 +1.10181181299E-005 -5.74961192906E-002 +1.93698927760E-002 
+4.01000000000E+009 +7.94276967645E-003 -5.15692949295E-001 +4.65343222022E-002 +3.33194807172E-002 +8.52001176099E-006 -3.15059565992E-007 -5.65600469708E-002 +2.74721160531E-002 
+4.21000000000E+009 -1.39295589179E-002 -5.25413036346E-001 +4.84904088080E-002 -3.04326061159E-002 -3.08886592393E-005 -1.31779188450E-005 -5.47312498093E-002 +3.60950119793E-002 
+4.41000000000E+009 -3.52214574814E-002 -5.34195482731E-001 -1.15091474727E-002 -5.89990392327E-002 -8.61399985297E-006 -1.95196062123E-005 -5.17030693591E-002 +4.44218292832E-002 
+4.61000000000E+009 -5.64322918653E-002 -5.42082548141E-001 -6.01996891201E-002 -8.39474517852E-003 -1.12375355457E-005 -1.69234283476E-006 -4.73771467805E-002 +5.17859198153E-002 
+4.81000000000E+009 -7.74489715695E-002 -5.48763096333E-001 -3.09330299497E-002 +5.31961172819E-002 +1.23153740788E-005 -1.04048240246E-005 -4.08598333597E-002 +5.90898804367E-002 
+5.01000000000E+009 -9.75590646267E-002 -5.55204868317E-001 +4.22325767577E-002 +5.01151457429E-002 +1.53550954565E-005 +1.30281086967E-005 -3.42127941549E-002 +6.57524466515E-002 
+5.21000000000E+009 -1.17521472275E-001 -5.60934722424E-001 +6.09970130026E-002 -2.45225355029E-002 +3.87248564948E-006 -1.58758248290E-005 -2.67563723028E-002 +7.18660652637E-002 
+5.41000000000E+009 -1.36844381690E-001 -5.65466105938E-001 -2.64086091192E-004 -6.81173279881E-002 -6.92869343766E-006 +8.91897434485E-006 -1.77755784243E-002 +7.68305882812E-002 
+5.61000000000E+009 -1.56439393759E-001 -5.69784402847E-001 -6.95397481322E-002 -2.15410348028E-002 +7.62075615057E-007 +2.61751642938E-006 -7.79650500044E-003 +8.01890045404E-002 
+5.81000000000E+009 -1.75193756819E-001 -5.72839081287E-001 -4.13359627128E-002 +5.89008890092E-002 +2.72848592431E-005 -3.65448204320E-006 +2.69607361406E-003 +8.12650024891E-002 
+6.01000000000E+009 -1.93058893085E-001 -5.75191736221E-001 +4.30840402842E-002 +6.25934600830E-002 +1.96862001758E-005 -1.85501212400E-005 +1.40615999699E-002 +8.28582122922E-002 
+6.21000000000E+009 -2.11212053895E-001 -5.77107191086E-001 +7.54393488169E-002 -2.74321865290E-002 +9.14678730624E-006 -3.50063455699E-005 +2.51506660134E-002 +8.25050547719E-002 
+6.41000000000E+009 -2.28422999382E-001 -5.78059196472E-001 -4.17758617550E-003 -7.80144631863E-002 -1.18684865811E-005 -1.96108385353E-006 +3.65926548839E-002 +8.05264785886E-002 
+6.61000000000E+009 -2.45466515422E-001 -5.78749001026E-001 -8.01423788071E-002 -2.02074740082E-002 -5.33418506166E-006 +2.47982807196E-005 +4.78895045817E-002 +7.57855325937E-002 
+6.81000000000E+009 -2.62275189161E-001 -5.78630924225E-001 -3.54636684060E-002 +7.29162320495E-002 +7.46513160266E-006 +2.17855576921E-005 +5.89706934988E-002 +7.02230557799E-002 
+7.01000000000E+009 -2.77987897396E-001 -5.77995598316E-001 +5.65165318549E-002 +5.07711395621E-002 +2.86907907139E-005 +9.61070782068E-006 +6.92197307944E-002 +6.36999979615E-002 
+7.21000000000E+009 -2.93488323689E-001 -5.76771914959E-001 +6.12389780581E-002 -4.24759015441E-002 -7.51018717438E-007 -1.89017264347E-005 +7.82748386264E-002 +5.52648529410E-002 
+7.41000000000E+009 -3.07786613703E-001 -5.75495600700E-001 -1.92188136280E-002 -6.14282637835E-002 +2.94774035865E-005 +6.67429912937E-006 +8.72464850545E-002 +4.50526364148E-002 
+7.61000000000E+009 -3.21371734142E-001 -5.74001848698E-001 -6.21180646122E-002 -4.61177807301E-003 -6.78600144965E-006 +1.21376669995E-005 +9.39417332411E-002 +3.30277010798E-002 
+7.81000000000E+009 -3.35410237312E-001 -5.71746408939E-001 -2.01671756804E-002 +5.83250708878E-002 +2.33653627220E-005 +1.53517157742E-005 +9.93430390954E-002 +2.03543305397E-002 
+8.01000000000E+009 -3.48178774118E-001 -5.69295465946E-001 +4.40382845700E-002 +3.17647233605E-002 +1.38378609336E-005 -1.31998249344E-005 +1.02908082306E-001 +6.74684159458E-003 
+8.21000000000E+009 -3.60681265593E-001 -5.66666901112E-001 +4.23168875277E-002 -2.87651102990E-002 -6.87887268214E-006 -1.36024455060E-005 +1.05323992670E-001 -7.58240744472E-003 
+8.41000000000E+009 -3.72729718685E-001 -5.63642978668E-001 -1.47111974657E-002 -4.45575118065E-002 -2.26197607844E-005 -2.11814021895E-005 +1.04842767119E-001 -2.28480249643E-002 
+8.61000000000E+009 -3.84562194347E-001 -5.61056971550E-001 -4.12185452878E-002 -1.84454268310E-003 -6.49635239824E-006 -1.25892056531E-005 +1.01518146694E-001 -3.84680330753E-002 
+8.81000000000E+009 -3.95915955305E-001 -5.58230221272E-001 -1.53911383823E-002 +3.60183678567E-002 -1.73481130332E-005 +3.11083094857E-005 +9.61705744267E-002 -5.42678274214E-002 
+9.01000000000E+009 -4.06895428896E-001 -5.55054247379E-001 +2.67269369215E-002 +2.31402572244E-002 +8.88085196493E-006 -2.94288820442E-005 +8.93408581614E-002 -6.83990791440E-002 
+9.21000000000E+009 -4.17574286461E-001 -5.52002251148E-001 +2.82245203853E-002 -1.42618194222E-002 -2.41813768298E-006 +4.89430203743E-006 +7.94013366103E-002 -8.33248943090E-002 
+9.41000000000E+009 -4.27459359169E-001 -5.48920989037E-001 -3.34932468832E-003 -2.99189481884E-002 +5.42624320587E-006 -2.95296013064E-006 +6.68684691191E-002 -9.71951261163E-002 
+9.61000000000E+009 -4.37396913767E-001 -5.45529484749E-001 -2.61666812003E-002 -6.00004242733E-003 -2.03844192583E-005 +1.03267320810E-005 +5.13784326613E-002 -1.09403043985E-001 
+9.81000000000E+009 -4.46495175362E-001 -5.42771756649E-001 -1.46013153717E-002 +1.97151694447E-002 -1.20286688343E-006 +1.64861958183E-005 +3.63078862429E-002 -1.19040489197E-001 
+1.00100000000E+010 -4.55951899290E-001 -5.39383232594E-001 +1.26644093543E-002 +1.96765977889E-002 -2.04295392905E-005 -2.34838571487E-005 +1.92438140512E-002 -1.27003163099E-001 
+1.02100000000E+010 -4.64637964964E-001 -5.35634756088E-001 +2.04678643495E-002 -4.41311765462E-003 -1.39455471526E-006 +2.78126244666E-005 +9.97675932012E-004 -1.34123444557E-001 
+1.04100000000E+010 -4.73417192698E-001 -5.32422125340E-001 +3.94959468395E-003 -1.91451702267E-002 +3.32448980771E-005 +8.16608553578E-006 -1.96689162403E-002 -1.39614880085E-001 
+1.06100000000E+010 -4.81789022684E-001 -5.28777241707E-001 -1.58188790083E-002 -9.93868429214E-003 -1.24298530864E-005 +1.08779358925E-005 -4.18238528073E-002 -1.42478048801E-001 
+1.08100000000E+010 -4.88947063684E-001 -5.25956690311E-001 -1.35074025020E-002 +9.87880118191E-003 +2.14607134694E-005 -1.88776430150E-005 -6.34498596191E-002 -1.41948625445E-001 
+1.10100000000E+010 -4.96648311615E-001 -5.22477090359E-001 +3.37223801762E-003 +1.54654597864E-002 +6.67679614708E-006 -1.18549041872E-006 -8.57742428780E-002 -1.38407811522E-001 
+1.12100000000E+010 -5.03782570362E-001 -5.19839704037E-001 +1.48970931768E-002 +2.16190237552E-003 -1.50515052155E-005 +2.19195171667E-005 -1.09880723059E-001 -1.31768450141E-001 
+1.14100000000E+010 -5.11071860790E-001 -5.16238451004E-001 +6.90021086484E-003 -1.16546796635E-002 -4.71390285384E-006 +1.06967627289E-005 -1.33061021566E-001 -1.21584884822E-001 
+1.16100000000E+010 -5.16931951046E-001 -5.13232350349E-001 -7.54439458251E-003 -1.06042111292E-002 +5.19453578818E-006 +2.48883134191E-006 -1.55027896166E-001 -1.07969947159E-001 
+1.18100000000E+010 -5.23387134075E-001 -5.10133087635E-001 -1.19470926002E-002 +3.17989080213E-003 -1.82241783477E-005 +3.81288259632E-006 -1.74676522613E-001 -9.12123396993E-002 
+1.20100000000E+010 -5.30030012131E-001 -5.06543517113E-001 -1.62561796606E-003 +1.10267931595E-002 -1.90786722669E-005 +1.81278392120E-005 -1.92505761981E-001 -7.17374160886E-002 
+1.22100000000E+010 -5.36710023880E-001 -5.02545773983E-001 +9.13119222969E-003 +5.77289005741E-003 +8.26139694254E-006 +1.71595843312E-006 -2.10077807307E-001 -4.94962334633E-002 
+1.24100000000E+010 -5.42628109455E-001 -4.99173671007E-001 +8.11888836324E-003 -6.16170745343E-003 -6.39101983779E-007 +2.98734685202E-005 -2.24788501859E-001 -2.39277854562E-002 
+1.26100000000E+010 -5.48476934433E-001 -4.95669871569E-001 -2.18171742745E-003 -9.03800223023E-003 -2.45522005571E-005 +1.31550023070E-005 -2.35118463635E-001 +3.98005498573E-003 
+1.28100000000E+010 -5.54056227207E-001 -4.92089092731E-001 -8.91568232328E-003 -1.59594602883E-003 +2.35322318076E-006 -1.05726958282E-005 -2.41719514132E-001 +3.32532376051E-002 
+1.30100000000E+010 -5.59715628624E-001 -4.87937539816E-001 -4.40933741629E-003 +7.33056198806E-003 +1.32768082040E-005 +1.18639372886E-005 -2.45368167758E-001 +6.34394288063E-002 
+1.32100000000E+010 -5.64784705639E-001 -4.84238356352E-001 +4.44969255477E-003 +6.45622517914E-003 -1.79231883521E-005 +1.72011514223E-005 -2.45746359229E-001 +9.54361408949E-002 
+1.34100000000E+010 -5.70090711117E-001 -4.79875653982E-001 +7.54665816203E-003 -1.50453299284E-003 -3.80945639336E-005 +1.67479520314E-005 -2.42429122329E-001 +1.27179399133E-001 
+1.36100000000E+010 -5.73141932487E-001 -4.76049274206E-001 +1.22292363085E-003 -7.11275264621E-003 -1.45271496876E-005 -5.94045468461E-006 -2.34495043755E-001 +1.60416111350E-001 
+1.38100000000E+010 -5.78291058540E-001 -4.72814530134E-001 -5.55755384266E-003 -3.79659887403E-003 +2.15191084862E-005 +3.66500244127E-005 -2.21481293440E-001 +1.92890599370E-001 
+1.40100000000E+010 -5.83244264126E-001 -4.69326615334E-001 -5.55157847703E-003 +3.53165739216E-003 +2.38862867263E-005 -1.54972422024E-005 -2.04869747162E-001 +2.24510401487E-001 
+1.42100000000E+010 -5.87888479233E-001 -4.66104984283E-001 +1.20193674229E-003 +6.03287154809E-003 +3.05944780621E-007 -1.08187496153E-005 -1.84270277619E-001 +2.56104826927E-001 
+1.44100000000E+010 -5.92651367188E-001 -4.62057739496E-001 +5.59822842479E-003 +1.36475008912E-003 -8.42505869514E-006 -8.66887694428E-006 -1.58347517252E-001 +2.85098850727E-001 
+1.46100000000E+010 -5.96613526344E-001 -4.58795219660E-001 +3.35999927483E-003 -4.56673232839E-003 -2.38006869040E-005 +1.29629543153E-005 -1.27454981208E-001 +3.10752838850E-001 
+1.48100000000E+010 -6.00396752357E-001 -4.52828198671E-001 -2.82787019387E-003 -4.47853421792E-003 -3.62295213563E-006 -3.11363219225E-005 -9.45215299726E-002 +3.32939833403E-001 
+1.50100000000E+010 -6.01967632771E-001 -4.51477289200E-001 -4.95266914368E-003 +5.88791037444E-004 +1.20602820175E-007 +2.17713500206E-006 -5.88172525167E-002 +3.52512955666E-001 
+1.52100000000E+010 -6.05133771896E-001 -4.50248271227E-001 -1.35164917447E-003 +4.72995406017E-003 +2.65076905634E-005 -2.13135026570E-005 -1.95552539080E-002 +3.67901027203E-001 
+1.54100000000E+010 -6.08812749386E-001 -4.47585105896E-001 +3.63168609329E-003 +2.82674678601E-003 -5.11168263984E-006 -3.41558261425E-005 +2.31299381703E-002 +3.78006726503E-001 
+1.56100000000E+010 -6.12555861473E-001 -4.43700462580E-001 +3.91554599628E-003 -2.01138295233E-003 -1.67322104971E-005 -8.23337450129E-006 +6.75288885832E-002 +3.82284551859E-001 
+1.58100000000E+010 -6.13719642162E-001 -4.42499727011E-001 -3.74658236979E-004 -4.29530115798E-003 +1.45996700667E-005 +1.18428829410E-006 +1.12143173814E-001 +3.82812500000E-001 
+1.60100000000E+010 -6.16136431694E-001 -4.40853327513E-001 -3.90092143789E-003 -1.19490874931E-003 -3.11644726025E-005 +2.51776436926E-005 +1.57797291875E-001 +3.77880930901E-001 
+1.62100000000E+010 -6.18501543999E-001 -4.38795566559E-001 -2.59668077342E-003 +2.85703549162E-003 +5.80759797231E-006 -1.24174630400E-005 +2.05960646272E-001 +3.67485612631E-001 
+1.64100000000E+010 -6.20832979679E-001 -4.36755031347E-001 +1.64603081066E-003 +3.44087136909E-003 +2.47771477007E-005 +6.07957827015E-006 +2.53300786018E-001 +3.51121634245E-001 
+1.66100000000E+010 -6.24244332314E-001 -4.34441238642E-001 +3.54417483322E-003 -2.05130549148E-004 +6.97198720445E-006 +2.00108775061E-006 +2.97768980265E-001 +3.27635496855E-001 
+1.68100000000E+010 -6.27454280853E-001 -4.31409150362E-001 +1.23560114298E-003 -3.19085596129E-003 -4.17775554524E-005 +1.01239766082E-006 +3.41627538204E-001 +3.00529211760E-001 
+1.70100000000E+010 -6.28941953182E-001 -4.28750783205E-001 -2.43633263744E-003 -2.35602096654E-003 +7.99016197561E-006 -3.37046549248E-005 +3.82340520620E-001 +2.69148170948E-001 
+1.72100000000E+010 -6.31382942200E-001 -4.26347255707E-001 -2.86369700916E-003 +1.24960299581E-003 +3.85318526241E-006 -2.30033801927E-005 +4.20454889536E-001 +2.30387851596E-001 
+1.74100000000E+010 -6.34483039379E-001 -4.24002885818E-001 -3.44638319802E-005 +3.02939675748E-003 +3.61769957635E-006 +1.58320642640E-006 +4.54236805439E-001 +1.87094792724E-001 
+1.76100000000E+010 -6.37250304222E-001 -4.21404868364E-001 +2.69876560196E-003 +1.17983808741E-003 +6.04504884905E-006 +1.78843147296E-005 +4.82306599617E-001 +1.40755295753E-001 
+1.78100000000E+010 -6.40281915665E-001 -4.18614298105E-001 +2.00719246641E-003 -1.96560728364E-003 +3.77031756216E-006 -4.36201007687E-005 +5.06152629852E-001 +9.15401130915E-002 
+1.80100000000E+010 -6.42568647861E-001 -4.15754228830E-001 -9.17703378946E-004 -2.54388572648E-003 -2.27199980145E-005 +2.69646243396E-005 +5.25379836559E-001 +3.99055927992E-002 
+1.82100000000E+010 -6.45153641701E-001 -4.13402855396E-001 -2.59786401875E-003 -1.42325050547E-004 +4.41871861767E-006 +1.51307158376E-005 +5.37975668907E-001 -1.54367713258E-002 
+1.84100000000E+010 -6.47672176361E-001 -4.11286503077E-001 -1.09505455475E-003 +2.21950118430E-003 -1.77783367690E-005 -4.67709560326E-006 +5.44137001038E-001 -7.33809024096E-002 
+1.86100000000E+010 -6.50612771511E-001 -4.08895879984E-001 +1.51508185081E-003 +1.83593458496E-003 +7.89767284459E-007 -1.21083473914E-006 +5.44536530972E-001 -1.30386367440E-001 
+1.88100000000E+010 -6.52981042862E-001 -4.06224012375E-001 +2.19127791934E-003 -7.11366301402E-004 +3.04289478663E-005 -8.47252431413E-006 +5.38888633251E-001 -1.88003435731E-001 
+1.90100000000E+010 -6.54793381691E-001 -4.03992742300E-001 +2.26032512728E-004 -2.18476192094E-003 +1.05074250314E-005 +1.42390708788E-005 +5.27633011341E-001 -2.44939148426E-001 
+1.92100000000E+010 -6.57375037670E-001 -4.02354955673E-001 -1.83305738028E-003 -1.06882571708E-003 +2.11945302908E-006 +1.30751368488E-005 +5.09205818176E-001 -3.03441673517E-001 
+1.94100000000E+010 -6.59989774227E-001 -3.99474620819E-001 -1.66210159659E-003 +1.26837845892E-003 -5.53224435862E-006 +4.25598045695E-005 +4.83783185482E-001 -3.59129995108E-001 
+1.96100000000E+010 -6.60566627979E-001 -3.96596908569E-001 +4.29986539530E-004 +1.93854956888E-003 +1.00359166026E-005 +5.31274199602E-005 +4.53015357256E-001 -4.11620914936E-001 
+1.98100000000E+010 -6.59821927547E-001 -3.93451690674E-001 +1.85271888040E-003 +3.75621079002E-004 -3.18326310662E-005 -2.76478003798E-005 +4.18581128120E-001 -4.59698319435E-001 
+2.00100000000E+010 -6.58826887608E-001 -3.92411649227E-001 +9.83538455330E-004 -1.57316669356E-003 +1.81274626812E-005 -4.69479527965E-006 +3.76530885696E-001 -5.06844580173E-001 
