!;Filter: kein Filter
!auto
!3/21/2019 9:25:24 AM
!3/21/2019 9:25:40 AM
!SP-Measurements Prober G4
!SP-Measurements Prober G4
!01103_448C
!134
!235
!12
!30
!-20
!0.00399976
!1.88
!0.54220246
!0.54220246
# Hz S  RI   R 50
+1.00000000000E+007 +2.60505080223E-001 +1.29616837949E-002 +5.90803213418E-002 -2.30541806668E-002 -6.18850055616E-004 -3.35143646225E-004 +4.86554717645E-003 -5.55570750294E-006 
+2.10000000000E+008 +2.87974923849E-001 -2.69715264440E-002 -2.57349270396E-003 -6.13816604018E-002 +4.26876431447E-005 -2.90204188786E-005 +9.04265884310E-003 -4.35570487753E-003 
+4.10000000000E+008 +2.88636684418E-001 -6.45149648190E-002 -5.73665983975E-002 -1.91513821483E-002 -1.90516984730E-005 +2.27729688049E-005 +1.04555040598E-002 -7.22835538909E-003 
+6.10000000000E+008 +2.84230977297E-001 -1.00428298116E-001 -3.76611314714E-002 +4.64360676706E-002 -3.39111647918E-005 +1.45777694343E-005 +9.36842616647E-003 -1.13734584302E-002 
+8.10000000000E+008 +2.76626825333E-001 -1.35315015912E-001 +2.96552069485E-002 +5.12843951583E-002 -1.77190413524E-005 -1.46447782754E-005 +6.80974824354E-003 -1.52033390477E-002 
+1.01000000000E+009 +2.66708523035E-001 -1.68458372355E-001 +5.83772398531E-002 -9.30404569954E-003 +1.34122446980E-005 -1.53844994202E-005 +2.90420139208E-003 -1.87751818448E-002 
+1.21000000000E+009 +2.54853934050E-001 -2.00091481209E-001 +1.17276757956E-002 -5.73582537472E-002 -7.95652977104E-006 +8.29894725030E-006 -1.73932313919E-003 -2.13479958475E-002 
+1.41000000000E+009 +2.40975394845E-001 -2.30894178152E-001 -4.89674471319E-002 -3.13585326076E-002 +1.39284361467E-006 +2.82822793451E-006 -7.78550282121E-003 -2.44686454535E-002 
+1.61000000000E+009 +2.26177126169E-001 -2.59840697050E-001 -4.66886535287E-002 +3.44573110342E-002 +2.36721316469E-005 +9.78833850240E-006 -1.36797716841E-002 -2.69229598343E-002 
+1.81000000000E+009 +2.09459066391E-001 -2.87126988173E-001 +1.54818808660E-002 +5.53051494062E-002 +1.37044435178E-005 -1.21913517432E-005 -1.78117789328E-002 -2.80356835574E-002 
+2.01000000000E+009 +1.92378744483E-001 -3.12963575125E-001 +5.69614954293E-002 +5.43551053852E-003 +2.05708620342E-005 -1.25674887386E-005 -2.31845434755E-002 -2.70029567182E-002 
+2.21000000000E+009 +1.73885941505E-001 -3.37430953979E-001 +2.53904797137E-002 -5.12061305344E-002 -2.04313964787E-005 -6.94516211297E-006 -2.90081873536E-002 -2.49101463705E-002 
+2.41000000000E+009 +1.54418617487E-001 -3.59810471535E-001 -3.85192967951E-002 -4.13834899664E-002 +1.37244242069E-005 +9.55500581767E-006 -3.56193594635E-002 -2.25181318820E-002 
+2.61000000000E+009 +1.34711846709E-001 -3.80690872669E-001 -5.21112419665E-002 +2.07127034664E-002 -6.72834084980E-006 +8.70369512995E-006 -4.08063232899E-002 -1.95208974183E-002 
+2.81000000000E+009 +1.14443957806E-001 -3.99973690510E-001 +3.80700774258E-004 +5.62220290303E-002 -1.74563356268E-005 +2.20550609811E-005 -4.47795577347E-002 -1.46086122841E-002 
+3.01000000000E+009 +9.35948044062E-002 -4.17641550303E-001 +5.20909950137E-002 +1.92382093519E-002 +1.15590801215E-005 +2.65389826382E-005 -4.86636012793E-002 -8.76387301832E-003 
+3.21000000000E+009 +7.27004259825E-002 -4.33882594109E-001 +3.69911380112E-002 -4.10763397813E-002 +2.50925097589E-007 +1.62392443599E-005 -5.26810474694E-002 -2.37678852864E-003 
+3.41000000000E+009 +5.21355085075E-002 -4.48703318834E-001 -2.53479033709E-002 -5.00294379890E-002 -1.81785126188E-005 +1.26202621686E-005 -5.57132959366E-002 +4.75673004985E-003 
+3.61000000000E+009 +3.13343815506E-002 -4.62361067533E-001 -5.49115315080E-002 +6.09557423741E-003 +6.41803899271E-006 -1.88762824109E-005 -5.75086697936E-002 +1.18753118441E-002 
+3.81000000000E+009 +1.04341236874E-002 -4.74580943584E-001 -1.49477990344E-002 +5.33552505076E-002 -1.93888604372E-006 -2.32152706303E-005 -5.74394799769E-002 +1.93762406707E-002 
+4.01000000000E+009 -9.84495598823E-003 -4.85911011696E-001 +4.57498170435E-002 +3.32872793078E-002 -7.33685283194E-006 +1.59335941134E-005 -5.65081797540E-002 +2.73885186762E-002 
+4.21000000000E+009 -3.03096342832E-002 -4.95847225189E-001 +4.62070703506E-002 -3.04465200752E-002 -1.46997572301E-005 -3.10762661684E-005 -5.46531826258E-002 +3.60837578773E-002 
+4.41000000000E+009 -5.03550320864E-002 -5.04748702049E-001 -1.09206978232E-002 -5.46097420156E-002 -1.18247917271E-005 +1.60468298418E-005 -5.16308061779E-002 +4.44019436836E-002 
+4.61000000000E+009 -7.01205283403E-002 -5.12855589390E-001 -5.60050271451E-002 -8.62065795809E-003 -1.06584702735E-005 +1.68057413248E-005 -4.73277978599E-002 +5.17556034029E-002 
+4.81000000000E+009 -8.99164527655E-002 -5.19919514656E-001 -2.76001822203E-002 +4.79666776955E-002 +1.47062928590E-005 -1.73090666067E-005 -4.08032052219E-002 +5.90416193008E-002 
+5.01000000000E+009 -1.08910627663E-001 -5.26454389095E-001 +3.46523597836E-002 +4.46005351841E-002 +1.51410440594E-005 -3.65436171705E-005 -3.42105664313E-002 +6.56831115484E-002 
+5.21000000000E+009 -1.27492740750E-001 -5.32514393330E-001 +5.50335347652E-002 -1.78879555315E-002 -2.18774130190E-005 -1.75900440809E-005 -2.67426557839E-002 +7.17791095376E-002 
+5.41000000000E+009 -1.45861178637E-001 -5.37311851978E-001 +3.10762785375E-003 -5.70706948638E-002 +2.24536106543E-005 +1.49976913235E-005 -1.77308022976E-002 +7.67532661557E-002 
+5.61000000000E+009 -1.64218172431E-001 -5.41819930077E-001 -5.36990836263E-002 -2.46962364763E-002 -4.35686233686E-005 +1.18207890409E-006 -7.83943384886E-003 +8.00951793790E-002 
+5.81000000000E+009 -1.81694954634E-001 -5.45441091061E-001 -4.20097038150E-002 +4.40951883793E-002 -5.87738099966E-007 -7.08896209289E-007 +2.68499949016E-003 +8.11878144741E-002 
+6.01000000000E+009 -1.98662325740E-001 -5.48053324223E-001 +2.63417772949E-002 +5.41337914765E-002 +8.50683318276E-006 -1.27452376546E-005 +1.40400454402E-002 +8.27816054225E-002 
+6.21000000000E+009 -2.15475007892E-001 -5.50356566906E-001 +6.24164976180E-002 -5.66497724503E-003 +7.54354323362E-006 +1.01191708382E-005 +2.51106601208E-002 +8.24329257011E-002 
+6.41000000000E+009 -2.31621146202E-001 -5.52066028118E-001 +1.39060867950E-002 -6.29549995065E-002 +4.95606673212E-006 -3.30204079546E-006 +3.65742519498E-002 +8.05011242628E-002 
+6.61000000000E+009 -2.47722730041E-001 -5.53091764450E-001 -5.33058866858E-002 -3.38757447898E-002 -1.01184082268E-006 +1.83333315817E-006 +4.78288903832E-002 +7.57445916533E-002 
+6.81000000000E+009 -2.63189136982E-001 -5.53902804852E-001 -5.21480217576E-002 +4.02687937021E-002 -1.50344942540E-006 -1.19802189147E-005 +5.88835179806E-002 +7.01739415526E-002 
+7.01000000000E+009 -2.78200715780E-001 -5.54367899895E-001 +2.45008375496E-002 +6.24283589423E-002 +7.82727602200E-006 +5.04790841660E-006 +6.91396892071E-002 +6.36756047606E-002 
+7.21000000000E+009 -2.92873859406E-001 -5.54078102112E-001 +6.51052892208E-002 -2.12031952105E-003 -2.57476167462E-005 -2.78211973637E-006 +7.82177969813E-002 +5.52507601678E-002 
+7.41000000000E+009 -3.06844443083E-001 -5.53950846195E-001 +1.94754432887E-002 -6.48241192102E-002 -1.57382487487E-006 +8.45347130962E-006 +8.72445181012E-002 +4.50033098459E-002 
+7.61000000000E+009 -3.20179402828E-001 -5.52997767925E-001 -5.71558400989E-002 -3.49804162979E-002 +1.29020036184E-005 -1.60138915817E-005 +9.38763469458E-002 +3.30420881510E-002 
+7.81000000000E+009 -3.33766013384E-001 -5.51498651505E-001 -4.93511557579E-002 +4.02954854071E-002 -1.12611714940E-005 +1.56931546371E-005 +9.92332324386E-002 +2.03548688442E-002 
+8.01000000000E+009 -3.46344679594E-001 -5.49868345261E-001 +2.41330936551E-002 +6.01085424423E-002 +1.44904470289E-005 +9.27447035792E-006 +1.02846324444E-001 +6.76236627623E-003 
+8.21000000000E+009 -3.58689427376E-001 -5.47781765461E-001 +6.05138130486E-002 -7.67575623468E-003 -1.21227094496E-005 -2.23246315727E-005 +1.05250164866E-001 -7.54850497469E-003 
+8.41000000000E+009 -3.70525330305E-001 -5.45402884483E-001 +1.29752336070E-002 -5.53497783840E-002 +1.46077272802E-005 -8.41561450216E-006 +1.04753881693E-001 -2.27766707540E-002 
+8.61000000000E+009 -3.82224738598E-001 -5.43283760548E-001 -4.86824922264E-002 -2.86055151373E-002 -1.11554281830E-005 +2.03331546800E-006 +1.01447604597E-001 -3.83679270744E-002 
+8.81000000000E+009 -3.93379002810E-001 -5.40908336639E-001 -3.74113619328E-002 +3.55898775160E-002 +2.56067210103E-006 +4.97904602526E-006 +9.60799083114E-002 -5.41623234749E-002 
+9.01000000000E+009 -4.04164165258E-001 -5.38233339787E-001 +1.84261053801E-002 +4.45098094642E-002 +1.48227118189E-005 +2.54446276813E-005 +8.92983898520E-002 -6.82709887624E-002 
+9.21000000000E+009 -4.14647161961E-001 -5.35589039326E-001 +4.65848334134E-002 -4.30209422484E-003 +1.68554906850E-005 +2.79840733128E-005 +7.93734043837E-002 -8.32354575396E-002 
+9.41000000000E+009 -4.24364984035E-001 -5.32971858978E-001 +8.63546133041E-003 -4.05946560204E-002 +7.53129233999E-006 +5.48496427655E-006 +6.68589472771E-002 -9.71382558346E-002 
+9.61000000000E+009 -4.34112727642E-001 -5.30026674271E-001 -3.18498350680E-002 -2.14021429420E-002 +7.07074832462E-006 +1.89141883311E-005 +5.14148473740E-002 -1.09286732972E-001 
+9.81000000000E+009 -4.43034410477E-001 -5.27638494968E-001 -2.85784676671E-002 +2.21404805779E-002 -1.67103535205E-005 -1.21151124404E-005 +3.63056324422E-002 -1.18884891272E-001 
+1.00100000000E+010 -4.52267348766E-001 -5.24664103985E-001 +9.77008603513E-003 +3.03779970855E-002 +2.38847333094E-005 +6.78463356962E-006 +1.92330256104E-002 -1.26880690455E-001 
+1.02100000000E+010 -4.60845202208E-001 -5.21351516247E-001 +2.93669495732E-002 +2.71924771369E-003 +2.71589633485E-005 +2.39149358094E-005 +1.06853444595E-003 -1.34024918079E-001 
+1.04100000000E+010 -4.69473302364E-001 -5.18477916718E-001 +1.21891740710E-002 -2.52466332167E-002 -1.98111756617E-005 +1.12507186714E-005 -1.95778887719E-002 -1.39487236738E-001 
+1.06100000000E+010 -4.77719664574E-001 -5.15240728855E-001 -1.73063687980E-002 -1.84110067785E-002 -1.27527582663E-005 +4.94492269354E-008 -4.17219139636E-002 -1.42368495464E-001 
+1.08100000000E+010 -4.84835594893E-001 -5.12789785862E-001 -2.24522911012E-002 +8.00136197358E-003 +9.04449098016E-006 -3.54975054506E-006 -6.33844807744E-002 -1.41890242696E-001 
+1.10100000000E+010 -4.92380052805E-001 -5.09688496590E-001 -4.40803618403E-004 +2.28053815663E-002 -4.70133545605E-006 -2.97948517982E-005 -8.56609046459E-002 -1.38359159231E-001 
+1.12100000000E+010 -4.99464899302E-001 -5.07375538349E-001 +1.92872174084E-002 +7.99826998264E-003 +1.36917296913E-005 -1.40968095366E-005 -1.09784319997E-001 -1.31710797548E-001 
+1.14100000000E+010 -5.06654262543E-001 -5.04151880741E-001 +1.41756208614E-002 -1.39009105042E-002 -3.34556773396E-007 +2.66851220658E-005 -1.32920429111E-001 -1.21497593820E-001 
+1.16100000000E+010 -5.12455582619E-001 -5.01513898373E-001 -7.64699047431E-003 -1.73779670149E-002 +1.36000039674E-006 -4.06804019804E-006 -1.54878392816E-001 -1.07937023044E-001 
+1.18100000000E+010 -5.18908739090E-001 -4.98745441437E-001 -1.73805281520E-002 +6.41961523797E-004 +3.37958135788E-006 -6.37977937004E-005 -1.74559131265E-001 -9.12192314863E-002 
+1.20100000000E+010 -5.25486409664E-001 -4.95406061411E-001 -5.94325736165E-003 +1.53686115518E-002 -1.76193789230E-005 +2.66998740699E-005 -1.92334383726E-001 -7.17410445213E-002 
+1.22100000000E+010 -5.32073736191E-001 -4.91813689470E-001 +1.16220684722E-002 +1.05610275641E-002 -7.56882036512E-006 -1.92214574781E-005 -2.09948271513E-001 -4.94994334877E-002 
+1.24100000000E+010 -5.37943661213E-001 -4.88726884127E-001 +1.31031647325E-002 -6.29070866853E-003 -2.77817453025E-005 +1.63895656442E-005 -2.24631071091E-001 -2.39910744131E-002 
+1.26100000000E+010 -5.43795108795E-001 -4.85491007566E-001 -5.29310433194E-004 -1.38295860961E-002 -3.14436802000E-005 +7.92643277236E-006 -2.34997406602E-001 +3.93745303154E-003 
+1.28100000000E+010 -5.49369454384E-001 -4.82211679220E-001 -1.25136636198E-002 -4.34267940000E-003 -1.13503147077E-005 -2.43112735916E-005 -2.41570606828E-001 +3.32312621176E-002 
+1.30100000000E+010 -5.55073678493E-001 -4.78333622217E-001 -8.11485853046E-003 +9.18790232390E-003 +4.05463561037E-006 +1.03712391137E-005 -2.45245397091E-001 +6.33197873831E-002 
+1.32100000000E+010 -5.60095369816E-001 -4.74909245968E-001 +4.97381854802E-003 +1.06296911836E-002 +7.73014198785E-006 +4.44789111498E-006 -2.45621249080E-001 +9.53179970384E-002 
+1.34100000000E+010 -5.65344095230E-001 -4.70809668303E-001 +1.12195061520E-002 -6.62783859298E-004 -2.00785143534E-005 -8.69513951329E-006 -2.42328226566E-001 +1.26993447542E-001 
+1.36100000000E+010 -5.68425357342E-001 -4.67195630074E-001 +3.41442506760E-003 -9.90136433393E-003 -1.49057905219E-005 -1.60730432981E-005 -2.34372794628E-001 +1.60238713026E-001 
+1.38100000000E+010 -5.73610246181E-001 -4.64249521494E-001 -7.33881676570E-003 -6.77614612505E-003 +1.04468017526E-005 +1.66989284480E-005 -2.21423164010E-001 +1.92707538605E-001 
+1.40100000000E+010 -5.78548789024E-001 -4.61061000824E-001 -8.69069900364E-003 +4.15031844750E-003 -6.33917943560E-006 +1.63280742527E-006 -2.04846456647E-001 +2.24330261350E-001 
+1.42100000000E+010 -5.83246588707E-001 -4.58080887794E-001 +5.14439423569E-004 +8.98268725723E-003 -1.66489244293E-005 -1.44775094668E-005 -1.84292674065E-001 +2.55922436714E-001 
+1.44100000000E+010 -5.87952375412E-001 -4.54230964184E-001 +8.07562749833E-003 +2.96205305494E-003 +1.92494280782E-005 -3.24664943037E-005 -1.58376291394E-001 +2.84963130951E-001 
+1.46100000000E+010 -5.91967761517E-001 -4.51166033745E-001 +5.55736105889E-003 -6.12250575796E-003 +1.27987041196E-005 +7.58635451348E-006 -1.27491027117E-001 +3.10636639595E-001 
+1.48100000000E+010 -5.95737516880E-001 -4.45435434580E-001 -3.33199487068E-003 -7.02790310606E-003 -8.41079327074E-006 +7.07219396645E-006 -9.46078225970E-002 +3.32812845707E-001 
+1.50100000000E+010 -5.97384393215E-001 -4.44273829460E-001 -7.41330487654E-003 +2.16933229240E-004 +1.58367056429E-005 +1.28989368022E-005 -5.88889941573E-002 +3.52339416742E-001 
+1.52100000000E+010 -6.00602805614E-001 -4.43256407976E-001 -2.52465275116E-003 +6.66712876409E-003 +1.15489619930E-005 -4.13346515415E-006 -1.97137556970E-002 +3.67801725864E-001 
+1.54100000000E+010 -6.04263067245E-001 -4.40757662058E-001 +4.90493513644E-003 +4.60152979940E-003 -3.21258062286E-006 +1.43675663367E-006 +2.29856893420E-002 +3.77893924713E-001 
+1.56100000000E+010 -6.08074247837E-001 -4.37077820301E-001 +5.88759034872E-003 -2.54043610767E-003 +1.11914250738E-005 -1.23496170090E-006 +6.73493966460E-002 +3.82216811180E-001 
+1.58100000000E+010 -6.09353721142E-001 -4.36049699783E-001 -9.41276739468E-005 -6.20922911912E-003 -9.31162048801E-006 +1.56700134539E-005 +1.11958064139E-001 +3.82749557495E-001 
+1.60100000000E+010 -6.11805796623E-001 -4.34567421675E-001 -5.42108155787E-003 -2.16087442823E-003 +2.84817861029E-006 -2.47012649197E-005 +1.57623201609E-001 +3.77790629864E-001 
+1.62100000000E+010 -6.14251613617E-001 -4.32658761740E-001 -3.98756284267E-003 +3.93108092248E-003 +1.07127943920E-005 -2.46172876359E-005 +2.05787628889E-001 +3.67487549782E-001 
+1.64100000000E+010 -6.16507351398E-001 -4.30699050426E-001 +2.01366748661E-003 +4.98259346932E-003 +2.22417511395E-005 -2.78366969724E-005 +2.53094702959E-001 +3.51104736328E-001 
+1.66100000000E+010 -6.19953274727E-001 -4.28591132164E-001 +5.13430265710E-003 +2.83756871795E-005 +1.11648278107E-005 +2.49695513048E-005 +2.97575324774E-001 +3.27638536692E-001 
+1.68100000000E+010 -6.23207747936E-001 -4.25760030746E-001 +2.01529054902E-003 -4.46352828294E-003 +2.24685609282E-005 +1.56757087098E-005 +3.41465741396E-001 +3.00531297922E-001 
+1.70100000000E+010 -6.24859452248E-001 -4.23213124275E-001 -3.20085440762E-003 -3.44549096189E-003 -1.19450332932E-005 +3.00396641251E-005 +3.82197827101E-001 +2.69254058599E-001 
+1.72100000000E+010 -6.27271950245E-001 -4.20921564102E-001 -4.18679276481E-003 +1.50914280675E-003 +4.52684871561E-005 +6.83542066326E-006 +4.20390874147E-001 +2.30466544628E-001 
+1.74100000000E+010 -6.30389511585E-001 -4.18656826019E-001 -2.40965397097E-004 +4.26593329757E-003 -6.51921891404E-006 +6.12585290583E-006 +4.54139262438E-001 +1.87226057053E-001 
+1.76100000000E+010 -6.33153617382E-001 -4.16185975075E-001 +3.70311667211E-003 +1.87209248543E-003 -2.04300995392E-005 -3.62037417290E-006 +4.82257455587E-001 +1.40841901302E-001 
+1.78100000000E+010 -6.36163353920E-001 -4.13530349731E-001 +2.99747986719E-003 -2.51728226431E-003 -3.60370131602E-006 -1.87276855286E-005 +5.06083428860E-001 +9.17804464698E-002 
+1.80100000000E+010 -6.38486564159E-001 -4.10786360502E-001 -1.09209225047E-003 -3.58458003029E-003 -1.79689832294E-005 +1.59126084327E-005 +5.25355458260E-001 +4.01558205485E-002 
+1.82100000000E+010 -6.41193807125E-001 -4.08512681723E-001 -3.60139692202E-003 -4.10549750086E-004 -2.69988540822E-005 -1.02667218016E-005 +5.37884294987E-001 -1.52185996994E-002 
+1.84100000000E+010 -6.43856048584E-001 -4.06605750322E-001 -1.70030817389E-003 +3.03346174769E-003 +8.78120044945E-006 -2.71194203378E-005 +5.44164419174E-001 -7.31434598565E-002 
+1.86100000000E+010 -6.46783113480E-001 -4.04241085052E-001 +1.97872542776E-003 +2.69803893752E-003 -7.37800246497E-006 -2.04039170058E-005 +5.44534802437E-001 -1.30169406533E-001 
+1.88100000000E+010 -6.49176597595E-001 -4.01708424091E-001 +3.16070253029E-003 -7.30964005925E-004 -9.05111846805E-006 +7.10589802111E-006 +5.38946568966E-001 -1.87764152884E-001 
+1.90100000000E+010 -6.51031374931E-001 -3.99644255638E-001 +5.05857868120E-004 -3.06440750137E-003 -1.48841827468E-005 +1.64972352650E-005 +5.27698993683E-001 -2.44731068611E-001 
+1.92100000000E+010 -6.53566956520E-001 -3.98086905479E-001 -2.49265599996E-003 -1.60146667622E-003 +8.37832340039E-006 +2.33275059145E-005 +5.09279370308E-001 -3.03225845098E-001 
+1.94100000000E+010 -6.56293988228E-001 -3.95290315151E-001 -2.42444640025E-003 +1.58328516409E-003 -3.93513146264E-005 +1.13542482723E-005 +4.83850777149E-001 -3.58884781599E-001 
+1.96100000000E+010 -6.56981050968E-001 -3.92617166042E-001 +5.08868251927E-004 +2.72484845482E-003 +1.39550156746E-005 +3.93594600610E-005 +4.53224480152E-001 -4.11386549473E-001 
+1.98100000000E+010 -6.56169354916E-001 -3.89453619719E-001 +2.55186413415E-003 +6.02406100370E-004 +6.06990511187E-007 -7.27559527149E-005 +4.18845027685E-001 -4.59606826305E-001 
+2.00100000000E+010 -6.55277192593E-001 -3.88563185930E-001 +1.53000990395E-003 -2.08604545332E-003 +3.90879577026E-005 -3.87963063986E-006 +3.76845002174E-001 -5.06682932377E-001 
