!;Filter: kein Filter
!auto
!3/21/2019 9:26:52 AM
!3/21/2019 9:27:07 AM
!SP-Measurements Prober G4
!SP-Measurements Prober G4
!01103_448C
!134
!235
!12
!30
!-20
!0.00199954
!1.75
!0.22129449
!0.22129449
# Hz S  RI   R 50
+1.00000000000E+007 +3.89617711306E-001 +1.10256718472E-002 +5.42571693659E-002 -2.21600644290E-002 +5.67584356759E-004 +5.61917782761E-004 +4.98323515058E-003 -3.84588318411E-004 
+2.10000000000E+008 +4.03912037611E-001 -4.03864756227E-002 -2.07432801835E-003 -5.60968481004E-002 +4.09569620388E-005 +8.05129238870E-005 +9.09213162959E-003 -4.30157408118E-003 
+4.10000000000E+008 +4.00156795979E-001 -8.32832530141E-002 -5.29424920678E-002 -1.74522269517E-002 -1.73688495124E-005 -7.76512115408E-006 +1.04910656810E-002 -7.28973606601E-003 
+6.10000000000E+008 +3.94012510777E-001 -1.24897398055E-001 -3.43482978642E-002 +4.46897409856E-002 -1.83156334970E-005 -8.18034277472E-006 +9.39416885376E-003 -1.14590991288E-002 
+8.10000000000E+008 +3.83572578430E-001 -1.66156992316E-001 +3.01207117736E-002 +4.68775294721E-002 -1.56203532242E-005 -1.78980844794E-005 +6.81780604646E-003 -1.52370836586E-002 
+1.01000000000E+009 +3.70074182749E-001 -2.04823166132E-001 +5.46437241137E-002 -1.15269189700E-002 +1.65996493706E-006 +2.21225200221E-005 +2.98204924911E-003 -1.88173204660E-002 
+1.21000000000E+009 +3.54539453983E-001 -2.43291616440E-001 +5.62549661845E-003 -5.36360181868E-002 +2.21452182814E-007 +1.33308294608E-005 -1.71027367469E-003 -2.14191004634E-002 
+1.41000000000E+009 +3.35364699364E-001 -2.79047548771E-001 -4.65440116823E-002 -2.39925365895E-002 -2.29033885262E-005 -1.31337683342E-005 -7.74058047682E-003 -2.45242286474E-002 
+1.61000000000E+009 +3.15898120403E-001 -3.11572700739E-001 -4.01815325022E-002 +3.49572896957E-002 -1.00943370853E-005 -9.82415076578E-006 -1.36872669682E-002 -2.69627552480E-002 
+1.81000000000E+009 +2.93744295835E-001 -3.43275725842E-001 +1.89259946346E-002 +4.70242314041E-002 -1.22588753584E-005 +1.84711188922E-005 -1.78392399102E-002 -2.80743502080E-002 
+2.01000000000E+009 +2.71065711975E-001 -3.71552526951E-001 +4.96091358364E-002 +7.57745932788E-004 +2.23042061407E-005 +1.63785953191E-005 -2.32125688344E-002 -2.70531680435E-002 
+2.21000000000E+009 +2.48268276453E-001 -3.97775799036E-001 +2.04213801771E-002 -4.79667820036E-002 -3.09304559778E-005 -5.14761950399E-006 -2.90599241853E-002 -2.49236784875E-002 
+2.41000000000E+009 +2.23442897201E-001 -4.22664701939E-001 -3.67500074208E-002 -3.33662889898E-002 -8.44359692564E-006 -1.69977338373E-005 -3.56752239168E-002 -2.25622486323E-002 
+2.61000000000E+009 +1.98850274086E-001 -4.44324135780E-001 -4.51197437942E-002 +2.01679375023E-002 +2.73102268693E-005 +1.25693804875E-006 -4.08520027995E-002 -1.95400919765E-002 
+2.81000000000E+009 +1.75090163946E-001 -4.64452713728E-001 +2.40276497789E-003 +5.40922321379E-002 +2.86532631435E-005 -2.52038753388E-005 -4.48272824287E-002 -1.46614452824E-002 
+3.01000000000E+009 +1.49187773466E-001 -4.83357906342E-001 +4.87855896354E-002 +1.40261286870E-002 -2.33150749409E-005 -2.17802789848E-005 -4.86991293728E-002 -8.82244389504E-003 
+3.21000000000E+009 +1.24164588749E-001 -4.99462097883E-001 +3.31731513143E-002 -3.88502366841E-002 +4.96065422340E-006 -1.47121836562E-005 -5.27472048998E-002 -2.39137862809E-003 
+3.41000000000E+009 +1.00690647960E-001 -5.14801084995E-001 -2.87331975996E-002 -5.05909994245E-002 -9.75770944933E-006 -2.76813389064E-005 -5.57939223945E-002 +4.78014908731E-003 
+3.61000000000E+009 +7.53456950188E-002 -5.28884768486E-001 -5.28383217752E-002 +1.05665996671E-002 -7.75051921664E-006 -4.85047075927E-006 -5.75838871300E-002 +1.18616316468E-002 
+3.81000000000E+009 +5.10427504778E-002 -5.40327668190E-001 -1.36534469202E-002 +5.36084175110E-002 -1.38975492519E-005 +7.60882767281E-006 -5.75527586043E-002 +1.94045100361E-002 
+4.01000000000E+009 +2.84936409444E-002 -5.52197754383E-001 +5.63104450703E-002 +3.48858460784E-002 +7.01576300344E-006 -5.55814549443E-005 -5.66283836961E-002 +2.75122635067E-002 
+4.21000000000E+009 +3.58425034210E-003 -5.61899483204E-001 +4.47436310351E-002 -3.89340855181E-002 +1.85146400327E-005 +3.06460287902E-006 -5.47730252147E-002 +3.61264422536E-002 
+4.41000000000E+009 -1.90434344113E-002 -5.69703102112E-001 -1.53714455664E-002 -6.09152838588E-002 +2.72966281045E-005 +2.18957266043E-005 -5.17199411988E-002 +4.44384962320E-002 
+4.61000000000E+009 -4.09770719707E-002 -5.79119443893E-001 -7.95378237963E-002 +3.01531399600E-003 +1.34943411467E-005 +1.16279870781E-005 -4.73879016936E-002 +5.18387258053E-002 
+4.81000000000E+009 -6.52877464890E-002 -5.84839820862E-001 -1.74841266125E-002 +6.48060068488E-002 -1.30402577270E-005 +7.76714205131E-006 -4.08509895205E-002 +5.91376163065E-002 
+5.01000000000E+009 -8.59882757068E-002 -5.90428471565E-001 +5.60570620000E-002 +5.08705228567E-002 -3.03734191220E-006 +8.47046703711E-006 -3.42202074826E-002 +6.58162087202E-002 
+5.21000000000E+009 -1.08623422682E-001 -5.98501980305E-001 +6.50564208627E-002 -7.02396929264E-002 +1.31798287839E-006 -5.73046418140E-006 -2.67309118062E-002 +7.19064474106E-002 
+5.41000000000E+009 -1.30353406072E-001 -6.00170135498E-001 -3.27981635928E-002 -6.67315945029E-002 +1.42204962685E-005 +3.04972161302E-007 -1.77578143775E-002 +7.68912881613E-002 
+5.61000000000E+009 -1.50475755334E-001 -6.04607403278E-001 -9.12861377001E-002 +4.76892851293E-003 +5.83054179515E-006 -1.18047173601E-005 -7.82609451562E-003 +8.02295655012E-002 
+5.81000000000E+009 -1.74243465066E-001 -6.06872856617E-001 +2.11923401803E-002 +9.20836031437E-002 -8.42862482386E-006 -1.85532717296E-005 +2.74381157942E-003 +8.13206285238E-002 
+6.01000000000E+009 -1.91789060831E-001 -6.06442987919E-001 +6.93696588278E-002 +2.07373574376E-002 +8.38290088723E-006 -1.86402022706E-008 +1.41382208094E-002 +8.29442590475E-002 
+6.21000000000E+009 -2.11380377412E-001 -6.08189821243E-001 +4.86863553524E-002 -7.67651423812E-002 +2.73639871011E-005 +1.43459046740E-005 +2.51907724887E-002 +8.25605615973E-002 
+6.41000000000E+009 -2.30342268944E-001 -6.05421066284E-001 -6.32215887308E-002 -3.02837118506E-002 -5.73355328015E-006 +1.52459224410E-005 +3.66679504514E-002 +8.05942490697E-002 
+6.61000000000E+009 -2.46384054422E-001 -6.05215132236E-001 -5.09001724422E-002 +2.80242711306E-002 +2.65639882855E-005 -1.35719017180E-006 +4.79558743536E-002 +7.58458226919E-002 
+6.81000000000E+009 -2.64065146446E-001 -6.04363679886E-001 +2.07362007350E-002 +6.62818625569E-002 -2.15798741010E-006 -1.47119217218E-005 +5.90654201806E-002 +7.02559128404E-002 
+7.01000000000E+009 -2.79218733311E-001 -6.01874172688E-001 +4.57651987672E-002 -9.94971394539E-003 -8.75037039805E-006 -6.09018707109E-006 +6.92859962583E-002 +6.37355148792E-002 
+7.21000000000E+009 -2.94441133738E-001 -6.00832164288E-001 +1.70402713120E-002 -3.89242470264E-002 -1.21091597975E-005 -3.61433012586E-006 +7.83861503005E-002 +5.52712343633E-002 
+7.41000000000E+009 -3.09655278921E-001 -5.98982274532E-001 -3.92532348633E-002 -2.65913866460E-002 -2.22326343646E-005 -1.14768017738E-005 +8.74125882983E-002 +4.50262725353E-002 
+7.61000000000E+009 -3.22978019714E-001 -5.96503317356E-001 -2.40177642554E-002 +2.19452492893E-002 -2.17510714720E-005 +2.47310927080E-005 +9.40414741635E-002 +3.29950302839E-002 
+7.81000000000E+009 -3.37206482887E-001 -5.94175040722E-001 +4.53411089256E-003 +3.06601636112E-002 -5.68915083932E-006 +6.95204744261E-006 +9.94291678071E-002 +2.03423239291E-002 
+8.01000000000E+009 -3.50659042597E-001 -5.91128408909E-001 +3.27831543982E-002 +1.89815496560E-003 +4.08949654229E-006 +9.93727280729E-006 +1.03022582829E-001 +6.71300059184E-003 
+8.21000000000E+009 -3.63172978163E-001 -5.87935209274E-001 +8.51521641016E-003 -2.19622012228E-002 -3.00261172015E-006 -4.70602244604E-005 +1.05420067906E-001 -7.65542313457E-003 
+8.41000000000E+009 -3.75667512417E-001 -5.84692656994E-001 -1.35659072548E-002 -1.86023693532E-002 +1.06526031232E-005 +9.72011093836E-006 +1.04900002480E-001 -2.28789187968E-002 
+8.61000000000E+009 -3.88004422188E-001 -5.81423819065E-001 -2.18828991055E-002 +9.23697557300E-003 -8.06910065876E-006 -4.65457969767E-006 +1.01606622338E-001 -3.85468713939E-002 
+8.81000000000E+009 -3.99526625872E-001 -5.78104197979E-001 +9.56011703238E-004 +1.78385209292E-002 +2.63677975454E-005 +1.12709960831E-006 +9.62112024426E-002 -5.43457157910E-002 
+9.01000000000E+009 -4.10924404860E-001 -5.74562907219E-001 +1.55763821676E-002 +8.36487300694E-003 +2.15795553231E-005 -2.52654790529E-005 +8.93979370594E-002 -6.84780552983E-002 
+9.21000000000E+009 -4.21911597252E-001 -5.70804178715E-001 +1.20641868562E-002 -1.32059482858E-002 -2.20417223318E-006 -1.46908550960E-005 +7.94537588954E-002 -8.34570601583E-002 
+9.41000000000E+009 -4.32032436132E-001 -5.67330658436E-001 -6.16959715262E-003 -1.24654248357E-002 -1.29442478283E-005 +3.09782990371E-006 +6.68785199523E-002 -9.73664671183E-002 
+9.61000000000E+009 -4.42278385162E-001 -5.63433229923E-001 -1.38285998255E-002 -9.25409200136E-004 -9.03851014300E-006 +3.67483380614E-007 +5.14128468931E-002 -1.09496302903E-001 
+9.81000000000E+009 -4.51602846384E-001 -5.60032904148E-001 -4.54413704574E-003 +1.30666512996E-002 +7.22594177205E-006 +7.27961878511E-006 +3.63167785108E-002 -1.19159527123E-001 
+1.00100000000E+010 -4.61130231619E-001 -5.56151270866E-001 +8.26477352530E-003 +7.33920652419E-003 -1.60496274475E-005 +3.68411238014E-005 +1.92180704325E-002 -1.27122774720E-001 
+1.02100000000E+010 -4.70085382462E-001 -5.51924049854E-001 +1.05083528906E-002 -3.59601899981E-003 -2.43256840804E-006 +3.53357536369E-005 +9.52560105361E-004 -1.34287744761E-001 
+1.04100000000E+010 -4.78941708803E-001 -5.48137545586E-001 -5.40113367606E-004 -1.10017973930E-002 -9.54844836087E-006 -4.04641423302E-006 -1.97191070765E-002 -1.39735311270E-001 
+1.06100000000E+010 -4.87412661314E-001 -5.44035017490E-001 -8.53327568620E-003 -3.06538236327E-003 +2.15922937059E-005 -1.53001565195E-005 -4.18665073812E-002 -1.42603948712E-001 
+1.08100000000E+010 -4.94770646095E-001 -5.40759742260E-001 -6.78070588037E-003 +6.01276569068E-003 +9.11337338039E-006 +2.10544894799E-005 -6.35721608996E-002 -1.42047002912E-001 
+1.10100000000E+010 -5.02556443214E-001 -5.36791503429E-001 +3.72661883011E-003 +8.14896449447E-003 -1.49069592226E-005 -9.36966534937E-006 -8.59286487103E-002 -1.38504996896E-001 
+1.12100000000E+010 -5.09772956371E-001 -5.33759057522E-001 +7.51558877528E-003 -1.76969697350E-004 +2.59667081082E-006 -6.36460754322E-006 -1.10024735332E-001 -1.31848946214E-001 
+1.14100000000E+010 -5.17108678818E-001 -5.29732763767E-001 +3.34240775555E-003 -6.65103923529E-003 +3.07168988911E-006 -3.18732345477E-005 -1.33214667439E-001 -1.21591262519E-001 
+1.16100000000E+010 -5.22953093052E-001 -5.26289224625E-001 -5.27600012720E-003 -5.17767900601E-003 +3.57991075361E-006 -9.19304147828E-006 -1.55204504728E-001 -1.08007974923E-001 
+1.18100000000E+010 -5.29564619064E-001 -5.22777915001E-001 -5.84176322445E-003 +2.42886669002E-003 -1.67574780789E-005 -2.78084880847E-005 -1.74864292145E-001 -9.12444740534E-002 
+1.20100000000E+010 -5.36229431629E-001 -5.18748342991E-001 -5.40074135642E-004 +6.27998495474E-003 -1.18801945064E-005 +5.47491754332E-006 -1.92702353001E-001 -7.17361047864E-002 
+1.22100000000E+010 -5.42870283127E-001 -5.14470875263E-001 +5.68712269887E-003 +2.43700761348E-003 -2.03622912522E-005 +3.25163273374E-006 -2.10256025195E-001 -4.94519062340E-002 
+1.24100000000E+010 -5.48831880093E-001 -5.10702550411E-001 +3.87680996209E-003 -3.66346235387E-003 -2.11351816688E-005 +1.17585032058E-005 -2.24931195378E-001 -2.38488297909E-002 
+1.26100000000E+010 -5.54718732834E-001 -5.06877481937E-001 -1.54223036952E-003 -5.06147090346E-003 +1.27632501972E-005 -6.68344682708E-007 -2.35253646970E-001 +4.10182867199E-003 
+1.28100000000E+010 -5.60325384140E-001 -5.02995133400E-001 -5.23529388011E-003 -2.28227290791E-004 +1.65324709087E-005 +2.90507432510E-005 -2.41840049624E-001 +3.34167852998E-002 
+1.30100000000E+010 -5.65901160240E-001 -4.98503863811E-001 -1.98525004089E-003 +4.08766278997E-003 +4.27576424045E-006 -1.16961218737E-005 -2.45508596301E-001 +6.35764151812E-002 
+1.32100000000E+010 -5.71042776108E-001 -4.94467258453E-001 +2.76083871722E-003 +3.57971899211E-003 -1.71462943399E-005 +4.04986212743E-006 -2.45846241713E-001 +9.55820232630E-002 
+1.34100000000E+010 -5.76312720776E-001 -4.89763021469E-001 +4.23703761771E-003 -1.39284157194E-003 -1.32899413074E-005 +6.99227075529E-006 -2.42491006851E-001 +1.27333790064E-001 
+1.36100000000E+010 -5.79332888126E-001 -4.85704272985E-001 +3.86813917430E-004 -3.93131375313E-003 -1.64098983078E-005 +1.90970695257E-005 -2.34524816275E-001 +1.60586103797E-001 
+1.38100000000E+010 -5.84508895874E-001 -4.82190638781E-001 -3.32042225637E-003 -2.01631942764E-003 -7.96648146206E-006 +1.83031370398E-005 -2.21548140049E-001 +1.93058922887E-001 
+1.40100000000E+010 -5.89401602745E-001 -4.78382289410E-001 -2.99788662232E-003 +2.39607109688E-003 +1.54435074364E-005 -6.37817356619E-006 -2.04903602600E-001 +2.24690377712E-001 
+1.42100000000E+010 -5.94044208527E-001 -4.74847108126E-001 +9.31403832510E-004 +3.29830334522E-003 +4.91566061100E-006 +4.93191873829E-006 -1.84258252382E-001 +2.56288200617E-001 
+1.44100000000E+010 -5.98810851574E-001 -4.70588266850E-001 +3.29510821030E-003 +5.96902973484E-004 +3.50916934622E-006 -1.52734301082E-005 -1.58279985189E-001 +2.85387068987E-001 
+1.46100000000E+010 -6.02628111839E-001 -4.66994106770E-001 +1.69217167422E-003 -2.82341125421E-003 +6.13422071183E-006 -9.58911732596E-006 -1.27340063453E-001 +3.11005502939E-001 
+1.48100000000E+010 -6.06373310089E-001 -4.60769832134E-001 -1.76927959546E-003 -2.39129923284E-003 +6.55738040223E-006 -1.17310410133E-005 -9.44031998515E-002 +3.33166569471E-001 
+1.50100000000E+010 -6.07895910740E-001 -4.59203094244E-001 -2.84957676195E-003 +4.89617697895E-004 +5.59078989681E-006 +2.55374175140E-006 -5.86784556508E-002 +3.52701961994E-001 
+1.52100000000E+010 -6.10950708389E-001 -4.57787662745E-001 -5.46872906853E-004 +2.85994028673E-003 +6.69105929774E-006 -1.44411342262E-005 -1.94052755833E-002 +3.68071436882E-001 
+1.54100000000E+010 -6.14656031132E-001 -4.54906761646E-001 +2.20226985402E-003 +1.43608183134E-003 +2.11045630749E-006 +6.33971512798E-006 +2.33196746558E-002 +3.78185719252E-001 
+1.56100000000E+010 -6.18296682835E-001 -4.50771450996E-001 +2.18852050602E-003 -1.26732559875E-003 -5.42076122656E-005 +1.64446901181E-005 +6.77164420485E-002 +3.82426857948E-001 
+1.58100000000E+010 -6.19461297989E-001 -4.49372380972E-001 -3.52900155121E-004 -2.46169418097E-003 -7.37570417186E-006 -4.55481404060E-006 +1.12353041768E-001 +3.82873386145E-001 
+1.60100000000E+010 -6.21742606163E-001 -4.47584271431E-001 -2.24129622802E-003 -4.99880174175E-004 -4.37578080437E-007 +1.82232770385E-006 +1.58110320568E-001 +3.77902954817E-001 
+1.62100000000E+010 -6.24117910862E-001 -4.45275783539E-001 -1.39983033296E-003 +1.66796892881E-003 -2.61076602328E-005 -2.23719325732E-005 +2.06216350198E-001 +3.67473840714E-001 
+1.64100000000E+010 -6.26303970814E-001 -4.43015515804E-001 +1.08137400821E-003 +1.93975900766E-003 -4.43025919594E-006 +1.24224625324E-005 +2.53601312637E-001 +3.51083189249E-001 
+1.66100000000E+010 -6.29716515541E-001 -4.40577238798E-001 +1.99701124802E-003 -2.40111738094E-004 +1.23653717310E-005 -3.46756896761E-005 +2.98034727573E-001 +3.27552914619E-001 
+1.68100000000E+010 -6.32851183414E-001 -4.37375247478E-001 +6.49986322969E-004 -1.82215136010E-003 -1.09296697701E-005 +5.18235492564E-006 +3.41916918755E-001 +3.00384879112E-001 
+1.70100000000E+010 -6.34407520294E-001 -4.34481769800E-001 -1.47068290971E-003 -1.30902137607E-003 +3.51980961568E-005 -1.14598360597E-005 +3.82623702288E-001 +2.69018441439E-001 
+1.72100000000E+010 -6.36714637280E-001 -4.31907385588E-001 -1.60918920301E-003 +8.11103789601E-004 -8.69787436386E-006 -1.03046113509E-005 +4.20722991228E-001 +2.30211377144E-001 
+1.74100000000E+010 -6.39773249626E-001 -4.29454922676E-001 +4.67520367238E-005 +1.68856768869E-003 -1.25911537907E-006 -1.04324008134E-005 +4.54468518496E-001 +1.86947599053E-001 
+1.76100000000E+010 -6.42464280128E-001 -4.26664680243E-001 +1.60679232795E-003 +6.31966337096E-004 +1.01590330814E-005 +1.34640049509E-005 +4.82490479946E-001 +1.40530079603E-001 
+1.78100000000E+010 -6.45359516144E-001 -4.23775434494E-001 +1.08727160841E-003 -1.15152564831E-003 -4.90867350891E-005 +3.03594083562E-006 +5.06190061569E-001 +9.13183614612E-002 
+1.80100000000E+010 -6.47514343262E-001 -4.20800328255E-001 -5.18982124049E-004 -1.42666627653E-003 -1.61726729857E-005 -5.58076317247E-005 +5.25482654572E-001 +3.95794734359E-002 
+1.82100000000E+010 -6.50202214718E-001 -4.18233960867E-001 -1.52232486289E-003 -3.64150291716E-005 -1.45351614265E-005 +3.14135650115E-005 +5.38046121597E-001 -1.56989246607E-002 
+1.84100000000E+010 -6.52715086937E-001 -4.16058987379E-001 -5.55921695195E-004 +1.30815396551E-003 +7.51192328607E-006 -4.61718300357E-005 +5.44190049171E-001 -7.36391097307E-002 
+1.86100000000E+010 -6.55507206917E-001 -4.13391083479E-001 +8.55730439071E-004 +9.98197938316E-004 +4.15061804233E-005 +7.44573344491E-006 +5.44508337975E-001 -1.30648344755E-001 
+1.88100000000E+010 -6.57775104046E-001 -4.10697609186E-001 +1.31507136393E-003 -3.65166953998E-004 +7.26103917259E-006 -3.43094361597E-005 +5.38845419884E-001 -1.88248410821E-001 
+1.90100000000E+010 -6.59517586231E-001 -4.08362269402E-001 +1.06418621726E-004 -1.25279021449E-003 -4.76293052998E-006 +3.61994898412E-005 +5.27516245842E-001 -2.45137289166E-001 
+1.92100000000E+010 -6.62019252777E-001 -4.06578093767E-001 -1.00434629712E-003 -5.92670345213E-004 +2.37897002080E-005 +3.89899832953E-005 +5.09119212627E-001 -3.03660154343E-001 
+1.94100000000E+010 -6.64685606956E-001 -4.03641432524E-001 -9.76136769168E-004 +7.18159542885E-004 +1.46117772601E-005 -2.06268341572E-005 +4.83617812395E-001 -3.59326809645E-001 
+1.96100000000E+010 -6.65144741535E-001 -4.00603413582E-001 +3.12068965286E-004 +1.11540884245E-003 -5.78492945351E-005 +1.71672327269E-005 +4.52861398458E-001 -4.11816179752E-001 
+1.98100000000E+010 -6.64266347885E-001 -3.97238761187E-001 +1.04473624378E-003 +2.03646239243E-004 -5.65486516280E-006 -3.03158662973E-006 +4.18445676565E-001 -4.59871798754E-001 
+2.00100000000E+010 -6.63316607475E-001 -3.96220147610E-001 +6.31538045127E-004 -9.27960558329E-004 -4.54149841289E-007 -3.31235642079E-005 +3.76354902983E-001 -5.06965160370E-001 
