!;Filter: kein Filter
!auto
!3/21/2019 9:27:39 AM
!3/21/2019 9:27:53 AM
!SP-Measurements Prober G4
!SP-Measurements Prober G4
!01103_448C
!134
!237
!12
!30
!-20
!0.00499992
!1.96
!0.64375220
!0.64375220
# Hz S  RI   R 50
+1.00000000000E+007 +1.62230134010E-001 +1.46407485008E-002 +6.45230412483E-002 -2.62789018452E-002 +4.28386760177E-004 +2.23442810238E-004 +4.95978863910E-003 -4.35525085777E-004 
+2.10000000000E+008 +1.84853658080E-001 -2.44041886181E-002 +8.93966876902E-004 -6.84270411730E-002 +5.03103874507E-005 -5.66556591366E-005 +8.99791438133E-003 -4.38743550330E-003 
+4.10000000000E+008 +1.84744119644E-001 -5.52603602409E-002 -6.48067742586E-002 -2.63848658651E-002 -2.30834530157E-006 -9.32515176828E-005 +1.03905471042E-002 -7.29448022321E-003 
+6.10000000000E+008 +1.81910336018E-001 -8.52116644382E-002 -4.65383082628E-002 +5.25255426764E-002 -1.01086752693E-005 +2.40275221586E-005 +9.33711510152E-003 -1.13883232698E-002 
+8.10000000000E+008 +1.76159396768E-001 -1.14885665476E-001 +3.27886492014E-002 +6.23263008893E-002 -1.63065724337E-005 +8.86513953446E-006 +6.80913729593E-003 -1.52116455138E-002 
+1.01000000000E+009 +1.68559551239E-001 -1.43214091659E-001 +7.04069957137E-002 -9.10262390971E-003 +1.89750717254E-005 +1.28909887280E-005 +2.94090481475E-003 -1.87935680151E-002 
+1.21000000000E+009 +1.59229353070E-001 -1.70513823628E-001 +1.59934647381E-002 -6.74088075757E-002 +6.58218323224E-006 +1.50335135913E-005 -1.72795495018E-003 -2.13444903493E-002 
+1.41000000000E+009 +1.48192092776E-001 -1.97211697698E-001 -5.69102652371E-002 -3.93962189555E-002 -9.52890047756E-007 -1.87396017282E-005 -7.75617687032E-003 -2.44587659836E-002 
+1.61000000000E+009 +1.36555165052E-001 -2.22610324621E-001 -5.72694465518E-002 +3.99553515017E-002 -1.81066170626E-005 -2.92546283163E-005 -1.37013774365E-002 -2.68783271313E-002 
+1.81000000000E+009 +1.23050987720E-001 -2.46636733413E-001 +1.61688625813E-002 +6.62536397576E-002 -2.49008223818E-007 +1.03043003037E-005 -1.77770070732E-002 -2.79792994261E-002 
+2.01000000000E+009 +1.09383791685E-001 -2.69494235516E-001 +6.78267851472E-002 +9.51948668808E-003 +1.20206477732E-005 +1.62440574059E-005 -2.31516528875E-002 -2.69846934825E-002 
+2.21000000000E+009 +9.43326726556E-002 -2.91449397802E-001 +3.26429158449E-002 -6.09004348516E-002 +1.10675564429E-005 -6.63003356749E-006 -2.89856810123E-002 -2.48698107898E-002 
+2.41000000000E+009 +7.83905610442E-002 -3.11632156372E-001 -4.39063496888E-002 -5.16821853817E-002 +3.35740478477E-005 +7.83451741881E-006 -3.56021597981E-002 -2.25395970047E-002 
+2.61000000000E+009 +6.21725544333E-002 -3.30619722605E-001 -6.47951066494E-002 +2.20000725240E-002 +1.08806216303E-005 -9.81736229733E-006 -4.07618023455E-002 -1.94920208305E-002 
+2.81000000000E+009 +4.54811491072E-002 -3.48265111446E-001 -1.86349696014E-003 +6.88062682748E-002 +2.17497981794E-005 -2.48302603723E-005 -4.47493307292E-002 -1.46417943761E-002 
+3.01000000000E+009 +2.82145105302E-002 -3.64604234695E-001 +6.23081177473E-002 +2.65388656408E-002 -1.21195871543E-005 -4.06323597417E-005 -4.85860221088E-002 -8.76905862242E-003 
+3.21000000000E+009 +1.07860630378E-002 -3.79806876183E-001 +4.83032129705E-002 -4.86544370651E-002 -9.46155159909E-006 -7.40004907129E-006 -5.26256002486E-002 -2.39036651328E-003 
+3.41000000000E+009 -6.37885881588E-003 -3.93860131502E-001 -2.93615367264E-002 -6.28862604499E-002 +1.52002949108E-005 -7.62043237046E-006 -5.56380748749E-002 +4.75382292643E-003 
+3.61000000000E+009 -2.38626953214E-002 -4.06968742609E-001 -6.82359263301E-002 +4.26458986476E-003 +1.67163652804E-005 -2.72118304565E-005 -5.74562437832E-002 +1.18172690272E-002 
+3.81000000000E+009 -4.15678657591E-002 -4.18793648481E-001 -2.16720029712E-002 +6.61189630628E-002 -2.41579130034E-007 -2.04142452276E-005 -5.74082955718E-002 +1.93673241884E-002 
+4.01000000000E+009 -5.87423145771E-002 -4.29987251759E-001 +5.56299574673E-002 +4.34238314629E-002 -1.30050730149E-005 +1.55309608090E-005 -5.64981289208E-002 +2.73640751839E-002 
+4.21000000000E+009 -7.61946514249E-002 -4.39891219139E-001 +5.98118640482E-002 -3.53034995496E-002 +1.47535929500E-005 -1.07610667328E-005 -5.46346567571E-002 +3.60501743853E-002 
+4.41000000000E+009 -9.32983979583E-002 -4.48978513479E-001 -1.07155889273E-002 -7.03396946192E-002 +1.65868948443E-006 -1.53963246703E-005 -5.16091473401E-002 +4.43257614970E-002 
+4.61000000000E+009 -1.10294461250E-001 -4.57359164953E-001 -7.10379853845E-002 -1.35362008587E-002 +2.22450253204E-005 -2.62279218077E-006 -4.73060980439E-002 +5.16710542142E-002 
+4.81000000000E+009 -1.27439633012E-001 -4.64829355478E-001 -3.84735316038E-002 +6.03304430842E-002 +6.28620637144E-006 -7.67186338635E-006 -4.07953560352E-002 +5.89404813945E-002 
+5.01000000000E+009 -1.43887177110E-001 -4.71948474646E-001 +4.33880910277E-002 +5.99941872060E-002 -9.78228854365E-006 +7.73844567448E-006 -3.41925062239E-002 +6.56498372555E-002 
+5.21000000000E+009 -1.60080119967E-001 -4.78609114885E-001 +7.26082846522E-002 -2.19668615609E-002 +1.73633507075E-005 +9.18829300645E-006 -2.67308317125E-002 +7.17297866940E-002 
+5.41000000000E+009 -1.76134690642E-001 -4.84175235033E-001 +5.83745120093E-003 -7.54224509001E-002 +2.02784158319E-005 +1.64719003806E-005 -1.77650451660E-002 +7.66951739788E-002 
+5.61000000000E+009 -1.92315369844E-001 -4.89466875792E-001 -7.14508667588E-002 -3.39882336557E-002 +5.98088308834E-006 -2.62214712166E-006 -7.86683708429E-003 +8.00187736750E-002 
+5.81000000000E+009 -2.07743808627E-001 -4.93943631649E-001 -5.60555234551E-002 +5.91058880091E-002 -5.41837425772E-006 +1.95152351807E-005 +2.63392738998E-003 +8.11037644744E-002 
+6.01000000000E+009 -2.22741603851E-001 -4.97497797012E-001 +3.58488485217E-002 +7.30529129505E-002 +3.65442315342E-006 -8.17641284812E-006 +1.39933833852E-002 +8.27423632145E-002 
+6.21000000000E+009 -2.37685248256E-001 -5.00716149807E-001 +8.51434767246E-002 -9.17491130531E-003 +2.71511083838E-007 -1.69670347532E-005 +2.50270217657E-002 +8.23588967323E-002 
+6.41000000000E+009 -2.52078503370E-001 -5.03520965576E-001 +1.58085990697E-002 -8.65392386913E-002 +1.39228495755E-005 -8.82439599081E-006 +3.64530012012E-002 +8.04097279906E-002 
+6.61000000000E+009 -2.66543000937E-001 -5.05578279495E-001 -7.56241753697E-002 -4.30759377778E-002 -2.66546212515E-005 +1.32003988256E-005 +4.77445125580E-002 +7.56843015552E-002 
+6.81000000000E+009 -2.80498355627E-001 -5.07409214973E-001 -6.82186037302E-002 +6.05510026217E-002 -9.14330576052E-006 -6.27769031780E-006 +5.87924644351E-002 +7.01217502356E-002 
+7.01000000000E+009 -2.94108450413E-001 -5.08873939514E-001 +4.12721894681E-002 +8.18660780787E-002 -8.12991038401E-006 -2.08830933843E-005 +6.90332353115E-002 +6.36479109526E-002 
+7.21000000000E+009 -3.07417541742E-001 -5.09636104107E-001 +8.80505666137E-002 -1.25421499833E-002 +2.85343485302E-005 -4.69272299597E-006 +7.81116336584E-002 +5.52393384278E-002 
+7.41000000000E+009 -3.20126235485E-001 -5.10559320450E-001 +1.47596551105E-002 -9.04230996966E-002 -7.37921664040E-006 +2.59650078078E-005 +8.70972722769E-002 +4.50122430921E-002 
+7.61000000000E+009 -3.32241654396E-001 -5.10637819767E-001 -8.16905722022E-002 -3.49903181195E-002 -2.38839638769E-005 -3.76165729676E-007 +9.37309265137E-002 +3.30430343747E-002 
+7.81000000000E+009 -3.44558805227E-001 -5.10109364986E-001 -5.50243668258E-002 +6.21860139072E-002 +2.15256077354E-005 +1.30622056531E-005 +9.90936383605E-002 +2.03992053866E-002 
+8.01000000000E+009 -3.56015414000E-001 -5.09576618671E-001 +4.34148162603E-002 +7.05806910992E-002 +7.54827306082E-006 -1.67443940882E-005 +1.02746821940E-001 +6.84246933088E-003 
+8.21000000000E+009 -3.67270588875E-001 -5.08600711823E-001 +7.37851262093E-002 -2.18957122415E-002 +5.27330121258E-006 +1.46152715388E-005 +1.05126313865E-001 -7.45910033584E-003 
+8.41000000000E+009 -3.78117412329E-001 -5.07297158241E-001 +2.38299532793E-003 -7.27055296302E-002 +4.58603471998E-006 +5.71403370486E-006 +1.04649744928E-001 -2.26849559695E-002 
+8.61000000000E+009 -3.88920277357E-001 -5.06259799004E-001 -6.35030865669E-002 -1.69667620212E-002 +1.09820384750E-005 -3.83415135730E-006 +1.01340562105E-001 -3.82827185094E-002 
+8.81000000000E+009 -3.99075806141E-001 -5.05014717579E-001 -3.40658873320E-002 +4.67597879469E-002 -9.09852587938E-006 +9.84410507954E-006 +9.59803611040E-002 -5.40285184979E-002 
+9.01000000000E+009 -4.09026473761E-001 -5.03553330898E-001 +2.79949195683E-002 +4.54252175987E-002 -1.40457458997E-007 -1.44683717735E-005 +8.92098173499E-002 -6.81633055210E-002 
+9.21000000000E+009 -4.18817639351E-001 -5.02050220966E-001 +5.00842370093E-002 -1.13583048806E-002 +1.14541344374E-005 +3.08860171572E-006 +7.93188139796E-002 -8.31030532718E-002 
+9.41000000000E+009 -4.27880913019E-001 -5.00586867332E-001 +4.61628381163E-003 -4.54522445798E-002 -1.85799797237E-006 +8.09550874692E-006 +6.67934045196E-002 -9.69527363777E-002 
+9.61000000000E+009 -4.37003880739E-001 -4.98729377985E-001 -3.68377603590E-002 -2.00257897377E-002 -2.00609683816E-005 -1.04207847471E-005 +5.14004230499E-002 -1.09079256654E-001 
+9.81000000000E+009 -4.45447564125E-001 -4.97380316257E-001 -3.00727393478E-002 +2.66529601067E-002 -1.05769231595E-005 +1.80054976227E-005 +3.62996794283E-002 -1.18668638170E-001 
+1.00100000000E+010 -4.54095274210E-001 -4.95472192764E-001 +1.34758511558E-002 +3.34151871502E-002 +6.54317818771E-006 -1.63025288202E-005 +1.93187091500E-002 -1.26675948501E-001 
+1.02100000000E+010 -4.62289452553E-001 -4.93313044310E-001 +3.32800149918E-002 +7.93465413153E-004 -5.66536755287E-006 -4.26281440014E-005 +1.12972198986E-003 -1.33837953210E-001 
+1.04100000000E+010 -4.70548570156E-001 -4.91470754147E-001 +1.19953965768E-002 -2.95733772218E-002 +1.42849921758E-006 +5.69718224597E-007 -1.95079632103E-002 -1.39355048537E-001 
+1.06100000000E+010 -4.78462010622E-001 -4.89270478487E-001 -2.13101003319E-002 -1.93787477911E-002 -6.67345420879E-006 -2.10937523661E-005 -4.16067838669E-002 -1.42240732908E-001 
+1.08100000000E+010 -4.85249608755E-001 -4.87729310989E-001 -2.45344396681E-002 +1.08052100986E-002 -1.63396434800E-005 -5.99502072873E-006 -6.32200539112E-002 -1.41690775752E-001 
+1.10100000000E+010 -4.92538660765E-001 -4.85534369946E-001 +1.21019489598E-003 +2.58021205664E-002 +1.99683181563E-005 -6.81290612192E-006 -8.55203270912E-002 -1.38213843107E-001 
+1.12100000000E+010 -4.99305009842E-001 -4.84162449837E-001 +2.22771111876E-002 +7.35372863710E-003 -2.20196143346E-005 +7.57376437832E-006 -1.09564714134E-001 -1.31607234478E-001 
+1.14100000000E+010 -5.06250917912E-001 -4.81909513474E-001 +1.49268750101E-002 -1.62437092513E-002 -9.28533427214E-006 +1.74964483790E-007 -1.32690206170E-001 -1.21409773827E-001 
+1.16100000000E+010 -5.11874735355E-001 -4.80134546757E-001 -9.46923252195E-003 -1.91146079451E-002 -5.41090139450E-006 -1.26653367261E-005 -1.54675766826E-001 -1.07913844287E-001 
+1.18100000000E+010 -5.18140852451E-001 -4.78138059378E-001 -1.95290129632E-002 +1.72017258592E-003 -4.43518047177E-006 +9.10343169380E-006 -1.74317762256E-001 -9.12070497870E-002 
+1.20100000000E+010 -5.24527788162E-001 -4.75635051727E-001 -5.95087790862E-003 +1.75269581378E-002 +7.74014210947E-007 -8.50986634759E-006 -1.92107215524E-001 -7.17706233263E-002 
+1.22100000000E+010 -5.30886650085E-001 -4.72909063101E-001 +1.36790582910E-002 +1.14998286590E-002 +2.33047703659E-005 -2.58211275650E-006 -2.09711223841E-001 -4.95218299329E-002 
+1.24100000000E+010 -5.36653697491E-001 -4.70668703318E-001 +1.44474068657E-002 -7.82155152410E-003 +3.43524925484E-006 +1.68563838088E-005 -2.24400028586E-001 -2.40401830524E-002 
+1.26100000000E+010 -5.42364120483E-001 -4.68347668648E-001 -1.24145729933E-003 -1.55089441687E-002 +5.92255446463E-006 -1.26147542687E-005 -2.34742999077E-001 +3.79551947117E-003 
+1.28100000000E+010 -5.47861099243E-001 -4.65812772512E-001 -1.43737904727E-002 -4.44764597341E-003 +2.33708706219E-005 -2.24088471441E-005 -2.41370141506E-001 +3.30367237329E-002 
+1.30100000000E+010 -5.53414762020E-001 -4.62766259909E-001 -8.66412930191E-003 +1.08482632786E-002 +3.95146525989E-005 +5.37871483175E-006 -2.45060086250E-001 +6.31201863289E-002 
+1.32100000000E+010 -5.58520734310E-001 -4.60233420134E-001 +5.98655035719E-003 +1.16965435445E-002 -1.23411109598E-005 -3.77994692826E-005 -2.45450064540E-001 +9.50675010681E-002 
+1.34100000000E+010 -5.63849210739E-001 -4.56873089075E-001 +1.26862358302E-002 -1.17804785259E-003 +3.92674564864E-006 +8.52490211400E-006 -2.42181614041E-001 +1.26776471734E-001 
+1.36100000000E+010 -5.67026376724E-001 -4.53975468874E-001 +3.31226922572E-003 -1.13270161673E-002 -2.42244932451E-005 +2.10118851101E-005 -2.34275966883E-001 +1.60012125969E-001 
+1.38100000000E+010 -5.72210311890E-001 -4.51698005199E-001 -8.47971905023E-003 -7.26009067148E-003 +2.05032119993E-006 -2.03061099455E-005 -2.21376150846E-001 +1.92408710718E-001 
+1.40100000000E+010 -5.77205479145E-001 -4.49139028788E-001 -9.65319573879E-003 +4.98515507206E-003 -9.89574073174E-006 +1.65182136698E-005 -2.04834550619E-001 +2.24045649171E-001 
+1.42100000000E+010 -5.81965684891E-001 -4.46728259325E-001 +9.45830601268E-004 +1.00370682776E-002 +1.99628957489E-005 -4.23093160862E-006 -1.84313461185E-001 +2.55638539791E-001 
+1.44100000000E+010 -5.86786627769E-001 -4.43710476160E-001 +9.03547462076E-003 +3.12626501545E-003 -1.43272600326E-005 -3.14701683237E-005 -1.58444404602E-001 +2.84634500742E-001 
+1.46100000000E+010 -5.90820133686E-001 -4.41292226315E-001 +6.11981377006E-003 -7.03690573573E-003 +1.63766471815E-005 +2.86005706585E-005 -1.27575427294E-001 +3.10304105282E-001 
+1.48100000000E+010 -5.94884514809E-001 -4.36400830746E-001 -3.93084390089E-003 -7.74958217517E-003 -1.05321453248E-006 -2.97841033898E-005 -9.47081670165E-002 +3.32439690828E-001 
+1.50100000000E+010 -5.96835255623E-001 -4.35643374920E-001 -8.22050869465E-003 +3.59826692147E-004 +3.72913600586E-005 -6.50137008051E-006 -5.91095387936E-002 +3.52065831423E-001 
+1.52100000000E+010 -6.00116193295E-001 -4.35084998608E-001 -2.75835627690E-003 +7.57205672562E-003 +1.67040855104E-006 +2.21602567763E-006 -1.99117418379E-002 +3.67523282766E-001 
+1.54100000000E+010 -6.03903353214E-001 -4.33152586222E-001 +5.56370802224E-003 +4.98662050813E-003 +2.13223065657E-005 -7.63780917623E-006 +2.27533020079E-002 +3.77674072981E-001 
+1.56100000000E+010 -6.07935667038E-001 -4.30014789104E-001 +6.55423756689E-003 -2.84819328226E-003 +3.53916839231E-005 +3.41925333487E-005 +6.70898929238E-002 +3.82009536028E-001 
+1.58100000000E+010 -6.09412431717E-001 -4.29342597723E-001 -1.27957580844E-004 -6.97803311050E-003 +1.34596348289E-005 +3.90796376450E-005 +1.11673630774E-001 +3.82592260838E-001 
+1.60100000000E+010 -6.12011015415E-001 -4.28233981133E-001 -6.09413627535E-003 -2.36518937163E-003 +3.62543105439E-005 -3.01677646348E-005 +1.57342150807E-001 +3.77690464258E-001 
+1.62100000000E+010 -6.14617168903E-001 -4.26767647266E-001 -4.49710246176E-003 +4.37474017963E-003 +1.51201902554E-006 +2.62039993686E-005 +2.05431222916E-001 +3.67381632328E-001 
+1.64100000000E+010 -6.17104291916E-001 -4.25266772509E-001 +2.27967021056E-003 +5.65735902637E-003 -4.01566830988E-006 +1.79827693501E-005 +2.52826154232E-001 +3.51062774658E-001 
+1.66100000000E+010 -6.20771288872E-001 -4.23389405012E-001 +5.75549760833E-003 +4.81310489704E-005 -9.48477918428E-006 -1.56257701747E-005 +2.97200322151E-001 +3.27653855085E-001 
+1.68100000000E+010 -6.23944461346E-001 -4.20976817608E-001 +2.33628740534E-003 -4.97082201764E-003 -8.23215577839E-006 -1.09070297185E-005 +3.41068297625E-001 +3.00648510456E-001 
+1.70100000000E+010 -6.25814795494E-001 -4.18806552887E-001 -3.64101515152E-003 -3.93706560135E-003 +1.32982913783E-005 -1.87328969332E-005 +3.81823986769E-001 +2.69408941269E-001 
+1.72100000000E+010 -6.28325998783E-001 -4.16869103909E-001 -4.75367018953E-003 +1.72905554064E-003 +2.44474940700E-005 +6.30010617897E-005 +4.20030504465E-001 +2.30688214302E-001 
+1.74100000000E+010 -6.31600618362E-001 -4.15069520473E-001 -3.82773694582E-004 +4.84048388898E-003 +3.34856813424E-005 -1.56453806994E-005 +4.53832805157E-001 +1.87469080091E-001 
+1.76100000000E+010 -6.34581267834E-001 -4.12815779448E-001 +4.19551553205E-003 +2.17823893763E-003 -1.34880492624E-005 -2.14948722714E-005 +4.81938391924E-001 +1.41115725040E-001 
+1.78100000000E+010 -6.37614130974E-001 -4.10527765751E-001 +3.41488095000E-003 -2.87851155736E-003 +1.52135344251E-005 +3.24547954733E-006 +5.05746722221E-001 +9.20595228672E-002 
+1.80100000000E+010 -6.40033245087E-001 -4.08123552799E-001 -1.12594710663E-003 -4.09473432228E-003 -1.07853820737E-005 -1.37148963404E-005 +5.25120854378E-001 +4.04091253877E-002 
+1.82100000000E+010 -6.42883956432E-001 -4.06068533659E-001 -4.16925223544E-003 -4.93828556500E-004 -4.93464631290E-006 +2.33751179621E-005 +5.37788510323E-001 -1.48511100560E-002 
+1.84100000000E+010 -6.45635724068E-001 -4.04517054558E-001 -1.93702802062E-003 +3.40938847512E-003 +2.00532958843E-005 +2.26329684665E-005 +5.44004559517E-001 -7.27248713374E-002 
+1.86100000000E+010 -6.48746728897E-001 -4.02415841818E-001 +2.17808480375E-003 +3.07230139151E-003 -3.82230700779E-006 +5.44043941773E-005 +5.44482886791E-001 -1.29702106118E-001 
+1.88100000000E+010 -6.51126742363E-001 -4.00305837393E-001 +3.63543629646E-003 -7.66303390265E-004 -5.22201880813E-005 +2.58650197793E-005 +5.38990676403E-001 -1.87309727073E-001 
+1.90100000000E+010 -6.53128564358E-001 -3.98557484150E-001 +6.36301760096E-004 -3.48997605033E-003 -3.80944075005E-005 -5.60095759283E-006 +5.27785837650E-001 -2.44304507971E-001 
+1.92100000000E+010 -6.55804336071E-001 -3.97290140390E-001 -2.78077600524E-003 -1.89747603144E-003 -1.07146806840E-005 -3.48405192199E-005 +5.09472727776E-001 -3.02880465984E-001 
+1.94100000000E+010 -6.58686697483E-001 -3.94778072834E-001 -2.80428375117E-003 +1.71038939152E-003 -7.95936728082E-007 -9.32840430323E-006 +4.84033972025E-001 -3.58518451452E-001 
+1.96100000000E+010 -6.59572303295E-001 -3.92166525126E-001 +4.63393371319E-004 +3.09727480635E-003 +4.13647430832E-005 -1.10257424240E-005 +4.53371971846E-001 -4.11011368036E-001 
+1.98100000000E+010 -6.58865749836E-001 -3.89060080051E-001 +3.07823857293E-003 +9.47721186094E-004 +1.07717369247E-006 +1.09341917778E-005 +4.19104635715E-001 -4.59151178598E-001 
+2.00100000000E+010 -6.57755732536E-001 -3.88608545065E-001 +1.91094155889E-003 -2.42361216806E-003 +1.77647564215E-006 -1.69156046468E-005 +3.77134442329E-001 -5.06375133991E-001 
