!;Filter: kein Filter
!auto
!3/21/2019 9:27:54 AM
!3/21/2019 9:28:10 AM
!SP-Measurements Prober G4
!SP-Measurements Prober G4
!01103_448C
!134
!235
!12
!30
!-20
!0.00599970
!2.02
!0.74959551
!0.74959551
# Hz S  RI   R 50
+1.00000000000E+007 +1.82854354382E-001 +7.54930824041E-003 +5.31926117837E-002 -2.08413209766E-002 +2.52107594861E-004 -1.69977181940E-004 +5.20342588425E-003 +5.08268713020E-004 
+2.10000000000E+008 +2.03476324677E-001 -2.02447436750E-002 -1.76250841469E-003 -5.57498186827E-002 -7.36729853088E-005 +1.33782550620E-005 +8.98325070739E-003 -4.32303221896E-003 
+4.10000000000E+008 +2.06658095121E-001 -5.11000454426E-002 -5.16427494586E-002 -1.84633247554E-002 -8.59433021105E-006 +3.33845855494E-005 +1.04555180296E-002 -7.19912303612E-003 
+6.10000000000E+008 +2.05441892147E-001 -8.20391327143E-002 -3.50499749184E-002 +4.13162298501E-002 -1.81805880857E-005 -5.09945093654E-005 +9.30743757635E-003 -1.14398319274E-002 
+8.10000000000E+008 +2.00430646539E-001 -1.12468697131E-001 +2.53662038594E-002 +4.80475872755E-002 +1.01251043816E-006 +1.00920478872E-005 +6.81570870802E-003 -1.51831824332E-002 
+1.01000000000E+009 +1.93633675575E-001 -1.41522854567E-001 +5.58697879314E-002 -7.21881818026E-003 -2.26044612646E-005 +7.61977048569E-007 +2.94958939776E-003 -1.87596920878E-002 
+1.21000000000E+009 +1.84725522995E-001 -1.69971585274E-001 +1.25911999494E-002 -5.28802797198E-002 -5.45138755115E-006 +1.72980599018E-005 -1.73117103986E-003 -2.13259980083E-002 
+1.41000000000E+009 +1.74214079976E-001 -1.97392508388E-001 -4.48099002242E-002 -3.07573825121E-002 -8.99802762433E-006 -1.43523111547E-005 -7.73588381708E-003 -2.44493056089E-002 
+1.61000000000E+009 +1.62748396397E-001 -2.23725691438E-001 -4.46258261800E-002 +3.15415076911E-002 -2.08190795092E-005 +4.52304948340E-006 -1.36886276305E-002 -2.68772896379E-002 
+1.81000000000E+009 +1.49443745613E-001 -2.48553663492E-001 +1.29069080576E-002 +5.18852695823E-002 +9.86369741440E-007 -4.19313655584E-005 -1.77805572748E-002 -2.79843658209E-002 
+2.01000000000E+009 +1.35716855526E-001 -2.72320657969E-001 +5.33945597708E-002 +6.83624204248E-003 +1.60907675308E-005 +2.52123172686E-005 -2.31749638915E-002 -2.69833952188E-002 
+2.21000000000E+009 +1.20543383062E-001 -2.95337378979E-001 +2.45202872902E-002 -4.75961416960E-002 -2.58507384387E-007 -2.03180502467E-006 -2.89820898324E-002 -2.48437598348E-002 
+2.41000000000E+009 +1.04314774275E-001 -3.16366195679E-001 -3.47158350050E-002 -3.96734848619E-002 +1.52968204929E-005 -1.99131918635E-005 -3.56152653694E-002 -2.25050896406E-002 
+2.61000000000E+009 +8.78364741802E-002 -3.36177200079E-001 -4.96315062046E-002 +1.81841887534E-002 +1.03454049167E-005 -7.14158602477E-007 -4.07883562148E-002 -1.94821748883E-002 
+2.81000000000E+009 +7.07054510713E-002 -3.54680806398E-001 -2.93894059723E-004 +5.23107051849E-002 +3.05709945678E-005 -1.30940006784E-005 -4.47553023696E-002 -1.46267116070E-002 
+3.01000000000E+009 +5.29738292098E-002 -3.71695756912E-001 +4.80134487152E-002 +1.92474592477E-002 -2.42582409555E-005 +2.88308524432E-006 -4.85990904272E-002 -8.78281705081E-003 
+3.21000000000E+009 +3.48161645234E-002 -3.87685149908E-001 +3.51840294898E-002 -3.79614718258E-002 -3.55378142558E-005 -2.58216441580E-005 -5.26394806802E-002 -2.37345346250E-003 
+3.41000000000E+009 +1.67184919119E-002 -4.02390599251E-001 -2.27679703385E-002 -4.57450076938E-002 +3.11216281261E-005 +1.36002449835E-006 -5.56420981884E-002 +4.75816987455E-003 
+3.61000000000E+009 -1.34417903610E-003 -4.15933847427E-001 -5.04304692149E-002 +4.29812399670E-003 +6.95666676620E-006 -9.22830986383E-006 -5.74559904635E-002 +1.18633294478E-002 
+3.81000000000E+009 -1.97854489088E-002 -4.28205341101E-001 -1.41936792061E-002 +4.85930517316E-002 -5.67238703297E-006 +7.31832642487E-006 -5.74048496783E-002 +1.93467903882E-002 
+4.01000000000E+009 -3.78183051944E-002 -4.39599126577E-001 +3.98997366428E-002 +3.03162354976E-002 +1.01061705209E-005 -1.28161882458E-005 -5.64698316157E-002 +2.73808222264E-002 
+4.21000000000E+009 -5.59174194932E-002 -4.49757367373E-001 +4.26117777824E-002 -2.57757976651E-002 +1.86006363947E-005 -1.82843359653E-006 -5.46414814889E-002 +3.60494777560E-002 
+4.41000000000E+009 -7.39101245999E-002 -4.59033280611E-001 -8.61931964755E-003 -4.91939224303E-002 +4.04893398809E-006 +1.81503237400E-005 -5.16032800078E-002 +4.43161018193E-002 
+4.61000000000E+009 -9.16718766093E-002 -4.67393547297E-001 -4.86611872911E-002 -9.47109423578E-003 +2.09401896427E-005 +1.56219375640E-005 -4.72870133817E-002 +5.16888126731E-002 
+4.81000000000E+009 -1.09474301338E-001 -4.74960386753E-001 -2.66261994839E-002 +4.17209751904E-002 -3.05807702716E-006 +6.06365210842E-006 -4.07955646515E-002 +5.89608214796E-002 
+5.01000000000E+009 -1.26631021500E-001 -4.81987893581E-001 +2.95975301415E-002 +3.99135276675E-002 -1.87025045761E-006 +9.86581471807E-006 -3.41882519424E-002 +6.56203925610E-002 
+5.21000000000E+009 -1.43512219191E-001 -4.88531827927E-001 +4.74774427712E-002 -1.32923591882E-002 -1.08195326902E-005 -7.67174697103E-006 -2.67287138849E-002 +7.17495381832E-002 
+5.41000000000E+009 -1.60170316696E-001 -4.93974149227E-001 +5.07198926061E-003 -4.89532835782E-002 -9.59986209637E-006 -4.56530369775E-006 -1.77723988891E-002 +7.66618400812E-002 
+5.61000000000E+009 -1.77035704255E-001 -4.99056369066E-001 -4.39425893128E-002 -2.22184583545E-002 -1.72697764356E-006 +1.04849805211E-005 -7.84017425030E-003 +8.00209119916E-002 
+5.81000000000E+009 -1.93049222231E-001 -5.03262042999E-001 -3.65203432739E-002 +3.25406417251E-002 +1.28359542941E-005 +8.65408037498E-006 +2.62876437046E-003 +8.10851305723E-002 
+6.01000000000E+009 -2.08575412631E-001 -5.06612241268E-001 +1.67476832867E-002 +4.65020872653E-002 +2.24400064326E-005 -4.19064963353E-006 +1.39968693256E-002 +8.27112570405E-002 
+6.21000000000E+009 -2.23892778158E-001 -5.09386897087E-001 +5.04300780594E-002 +1.08236726373E-003 +7.59469003242E-006 -3.06861184072E-005 +2.50144880265E-002 +8.23806896806E-002 
+6.41000000000E+009 -2.38663256168E-001 -5.11730790138E-001 +1.91237423569E-002 -4.75134961307E-002 -3.43473357134E-006 +8.25612914923E-006 +3.64840924740E-002 +8.04021582007E-002 
+6.61000000000E+009 -2.53492355347E-001 -5.13637721539E-001 -3.87990809977E-002 -3.54318656027E-002 +9.35691150517E-006 +9.09893060452E-006 +4.77595627308E-002 +7.56892859936E-002 
+6.81000000000E+009 -2.67829507589E-001 -5.15145003796E-001 -4.70464192331E-002 +2.56082732230E-002 -6.95830658515E-006 +6.17754039922E-006 +5.87843470275E-002 +7.01326802373E-002 
+7.01000000000E+009 -2.81645029783E-001 -5.16297876835E-001 +8.58771800995E-003 +5.27798496187E-002 -3.09836241286E-006 -1.23569343486E-005 +6.90168440342E-002 +6.36352822185E-002 
+7.21000000000E+009 -2.95263350010E-001 -5.16832888126E-001 +5.28585575521E-002 +9.66925732791E-003 -3.01134459733E-005 -6.44111150905E-006 +7.80824124813E-002 +5.52392601967E-002 
+7.41000000000E+009 -3.08282613754E-001 -5.17508447170E-001 +2.60407980531E-002 -4.65523339808E-002 -3.11108924507E-005 -1.26611539599E-005 +8.70487987995E-002 +4.50474806130E-002 
+7.61000000000E+009 -3.20437788963E-001 -5.17287909985E-001 -3.44720333815E-002 -3.97837236524E-002 -2.46832883022E-006 -6.10306926774E-007 +9.37321782112E-002 +3.30164134502E-002 
+7.81000000000E+009 -3.33170443773E-001 -5.16722798347E-001 -4.88005131483E-002 +1.94082446396E-002 +1.62007290783E-006 -1.01025379990E-005 +9.91154685616E-002 +2.03917548060E-002 
+8.01000000000E+009 -3.45022261143E-001 -5.16024351120E-001 +2.38964823075E-003 +5.15703186393E-002 -9.71360259427E-006 +2.03334457183E-005 +1.02726377547E-001 +6.85388874263E-003 
+8.21000000000E+009 -3.56572061777E-001 -5.14749407768E-001 +4.85405027866E-002 +1.49171240628E-002 +3.90524064642E-006 +1.16020328278E-005 +1.05099759996E-001 -7.47353164479E-003 
+8.41000000000E+009 -3.67798388004E-001 -5.13288557529E-001 +2.96600311995E-002 -4.05219234526E-002 -8.93169453775E-006 +1.91192884813E-006 +1.04658409953E-001 -2.26898882538E-002 
+8.61000000000E+009 -3.78896206617E-001 -5.12050271034E-001 -2.77519375086E-002 -4.03633452952E-002 -1.28463989313E-005 -1.76332196133E-005 +1.01315528154E-001 -3.82788330317E-002 
+8.81000000000E+009 -3.89328926802E-001 -5.10312676430E-001 -4.65046465397E-002 +1.23790455982E-002 -3.79581215384E-005 -1.77869133040E-005 +9.59738045931E-002 -5.40507733822E-002 
+9.01000000000E+009 -3.99566501379E-001 -5.08394420147E-001 -3.25490790419E-003 +4.69802357256E-002 +1.73343378265E-005 +1.13035666800E-005 +8.92039686441E-002 -6.81152939796E-002 
+9.21000000000E+009 -4.09557729959E-001 -5.06539344788E-001 +4.19490709901E-002 +1.81489828974E-002 +9.37057939154E-006 +1.09148004412E-005 +7.92920514941E-002 -8.30706804991E-002 
+9.41000000000E+009 -4.18960243464E-001 -5.04781305790E-001 +3.02921291441E-002 -3.31995300949E-002 -5.60533362659E-006 +2.24666091526E-005 +6.67700320482E-002 -9.69491526484E-002 
+9.61000000000E+009 -4.28373426199E-001 -5.02554655075E-001 -2.14352812618E-002 -3.76760736108E-002 -2.57131287071E-005 -2.25011044677E-005 +5.13704307377E-002 -1.09055526555E-001 
+9.81000000000E+009 -4.36998516321E-001 -5.00882625580E-001 -4.05287556350E-002 +7.48234894127E-003 -2.79982350548E-006 -2.87609036604E-005 +3.63196581602E-002 -1.18697375059E-001 
+1.00100000000E+010 -4.45870906115E-001 -4.98590201139E-001 -5.72278443724E-003 +3.90100665390E-002 +1.72569361894E-005 -1.82285748451E-005 +1.92971415818E-002 -1.26690626144E-001 
+1.02100000000E+010 -4.53892827034E-001 -4.95645016432E-001 +3.27044911683E-002 +1.70070994645E-002 -2.35217623157E-008 +4.67910285806E-006 +1.10225635581E-003 -1.33850827813E-001 
+1.04100000000E+010 -4.62162494659E-001 -4.93313997984E-001 +2.57801711559E-002 -2.32756081969E-002 +8.14395480120E-006 +1.07048517748E-005 -1.95066686720E-002 -1.39301434159E-001 
+1.06100000000E+010 -4.70468968153E-001 -4.91134226322E-001 -1.26246688887E-002 -3.05626951158E-002 -3.50908794644E-006 -6.70027475280E-007 -4.16044555604E-002 -1.42225563526E-001 
+1.08100000000E+010 -4.77423936129E-001 -4.89362180233E-001 -3.08538731188E-002 +1.26838951837E-003 -5.63842263546E-007 -8.69403447723E-006 -6.32387548685E-002 -1.41716092825E-001 
+1.10100000000E+010 -4.84776318073E-001 -4.86820161343E-001 -9.14416089654E-003 +2.79342979193E-002 +1.29167547129E-005 +6.26501105216E-006 -8.55202674866E-002 -1.38215780258E-001 
+1.12100000000E+010 -4.91797000170E-001 -4.85214740038E-001 +2.19088122249E-002 +1.65254455060E-002 +1.19713849926E-005 -2.62083699454E-006 -1.09589323401E-001 -1.31610691547E-001 
+1.14100000000E+010 -4.98403847218E-001 -4.82153266668E-001 +2.09039114416E-002 -1.31271313876E-002 -1.64801258506E-006 +6.66000732963E-006 -1.32731094956E-001 -1.21426314116E-001 
+1.16100000000E+010 -5.04046797752E-001 -4.80058997869E-001 -3.50001058541E-003 -2.27028857917E-002 -2.19923967926E-009 -1.33228086270E-005 -1.54653191566E-001 -1.07882425189E-001 
+1.18100000000E+010 -5.10530948639E-001 -4.78019624949E-001 -2.14028861374E-002 -5.08813094348E-003 -2.62209650828E-005 +1.22987285067E-006 -1.74305498600E-001 -9.11738052964E-002 
+1.20100000000E+010 -5.17063617706E-001 -4.75247234106E-001 -1.20690325275E-002 +1.69428586960E-002 -6.47313254376E-006 +3.29930189764E-005 -1.92112177610E-001 -7.17986077070E-002 
+1.22100000000E+010 -5.23579418659E-001 -4.72279578447E-001 +1.08986385167E-002 +1.69028118253E-002 +1.45210788105E-005 -1.57908671099E-005 -2.09695234895E-001 -4.95701730251E-002 
+1.24100000000E+010 -5.29373407364E-001 -4.69669997692E-001 +1.87157243490E-002 -4.22553578392E-003 -4.68186135549E-006 +2.54151927948E-005 -2.24421232939E-001 -2.40477304906E-002 
+1.26100000000E+010 -5.34986913204E-001 -4.66892510653E-001 +2.77209677733E-003 -1.75963453948E-002 -1.46657384903E-005 -3.73748525817E-006 -2.34739169478E-001 +3.77384875901E-003 
+1.28100000000E+010 -5.40186941624E-001 -4.63801056147E-001 -1.45227806643E-002 -8.73232539743E-003 -1.39390124332E-006 +3.34841365657E-006 -2.41374030709E-001 +3.30298729241E-002 
+1.30100000000E+010 -5.45529603958E-001 -4.60132837296E-001 -1.24453278258E-002 +9.74685698748E-003 +2.55792729149E-005 -2.53609650827E-005 -2.45072543621E-001 +6.30906373262E-002 
+1.32100000000E+010 -5.50744891167E-001 -4.57438468933E-001 +3.77466226928E-003 +1.42882224172E-002 +2.64499817604E-006 -1.05123281173E-005 -2.45469406247E-001 +9.50930193067E-002 
+1.34100000000E+010 -5.56698322296E-001 -4.54464673996E-001 +1.41560276970E-002 +1.88695848919E-003 -2.21713025894E-006 +2.52402096521E-005 -2.42175787687E-001 +1.26761451364E-001 
+1.36100000000E+010 -5.59558868408E-001 -4.51281219721E-001 +6.48155529052E-003 -1.18323937058E-002 -7.08331526766E-006 -4.32175141896E-007 -2.34300747514E-001 +1.59980982542E-001 
+1.38100000000E+010 -5.63484489918E-001 -4.47702974081E-001 -7.82688148320E-003 -9.94281284511E-003 +4.26292172051E-006 +5.13102077093E-006 -2.21398532391E-001 +1.92414194345E-001 
+1.40100000000E+010 -5.68221449852E-001 -4.44905251265E-001 -1.17413233966E-002 +3.37740057148E-003 -1.23712397908E-005 -2.17571596295E-006 -2.04850360751E-001 +2.24049448967E-001 
+1.42100000000E+010 -5.73735952377E-001 -4.43079829216E-001 -1.09711592086E-003 +1.14138778299E-002 +1.91271228687E-005 -1.04967475636E-005 -1.84329941869E-001 +2.55615770817E-001 
+1.44100000000E+010 -5.78190028667E-001 -4.39361542463E-001 +9.44437831640E-003 +5.19192963839E-003 +1.83981737791E-005 +5.70996780880E-006 -1.58434689045E-001 +2.84656822681E-001 
+1.46100000000E+010 -5.81420600414E-001 -4.36156809330E-001 +8.09713173658E-003 -6.56280713156E-003 -1.25634705910E-005 -2.16961525439E-005 -1.27632990479E-001 +3.10368806124E-001 
+1.48100000000E+010 -5.85213899612E-001 -4.31047797203E-001 -2.90171313100E-003 -9.34577826411E-003 -5.47423405806E-006 -7.66674747865E-006 -9.47770252824E-002 +3.32507848740E-001 
+1.50100000000E+010 -5.87863504887E-001 -4.31097060442E-001 -9.16467141360E-003 -1.08513620216E-003 +3.52110532731E-006 +5.21222045791E-006 -5.91089501977E-002 +3.52102428675E-001 
+1.52100000000E+010 -5.89681804180E-001 -4.29768443108E-001 -4.39225649461E-003 +7.82937463373E-003 -1.73882144736E-005 -3.45318812833E-006 -1.99237465858E-002 +3.67539107800E-001 
+1.54100000000E+010 -5.92989742756E-001 -4.27488416433E-001 +5.28113124892E-003 +6.59845955670E-003 -3.56221935363E-005 +1.10792152554E-005 +2.26844791323E-002 +3.77713143826E-001 
+1.56100000000E+010 -5.97647190094E-001 -4.24723476171E-001 +7.79549311846E-003 -2.07903329283E-003 +2.36143341681E-006 +3.65607729691E-006 +6.70342445374E-002 +3.82048398256E-001 
+1.58100000000E+010 -5.99154174328E-001 -4.24207895994E-001 +9.93571593426E-004 -7.83461425453E-003 +1.09946440716E-005 +1.24694570331E-005 +1.11608482897E-001 +3.82613629103E-001 
+1.60100000000E+010 -6.00518763065E-001 -4.22625482082E-001 -6.41631940380E-003 -3.66506329738E-003 -6.57298141959E-006 +1.03245083665E-005 +1.57269090414E-001 +3.77736330032E-001 
+1.62100000000E+010 -6.02638185024E-001 -4.20952379704E-001 -5.71139669046E-003 +4.25388989970E-003 -1.71593092091E-005 -1.32908905925E-006 +2.05422475934E-001 +3.67451310158E-001 
+1.64100000000E+010 -6.05319619179E-001 -4.19802904129E-001 +1.78269133903E-003 +6.67419703677E-003 +2.13535122384E-006 +2.21106965910E-005 +2.52761423588E-001 +3.51113379002E-001 
+1.66100000000E+010 -6.08906269073E-001 -4.18098926544E-001 +6.43818452954E-003 +8.18094587885E-004 +1.33903722599E-005 -2.65304151981E-005 +2.97205954790E-001 +3.27730596066E-001 
+1.68100000000E+010 -6.11562430859E-001 -4.15495634079E-001 +3.17428167909E-003 -5.29962824658E-003 +4.78124820802E-006 -1.11539948193E-005 +3.41120988131E-001 +3.00698786974E-001 
+1.70100000000E+010 -6.14168465137E-001 -4.13573265076E-001 -3.46012390219E-003 -4.74236905575E-003 +2.68781841442E-005 -1.13915748443E-005 +3.81846189499E-001 +2.69401758909E-001 
+1.72100000000E+010 -6.18485927582E-001 -4.11873787642E-001 -5.42794819921E-003 +1.25470431522E-003 -3.26043700625E-005 -3.55447155016E-005 +4.20008033514E-001 +2.30711326003E-001 
+1.74100000000E+010 -6.19633197784E-001 -4.09846097231E-001 -1.01392180659E-003 +5.26933372021E-003 -6.23750383966E-006 -2.20071160584E-005 +4.53860104084E-001 +1.87521308661E-001 
+1.76100000000E+010 -6.21319830418E-001 -4.07632797956E-001 +4.33529168367E-003 +2.90400255471E-003 -2.91443575406E-005 -2.50921366387E-005 +4.81982737780E-001 +1.41184940934E-001 
+1.78100000000E+010 -6.26573204994E-001 -4.05421704054E-001 +4.18683886528E-003 -2.79025733471E-003 -3.40375663654E-005 -2.38059219555E-005 +5.05806446075E-001 +9.21240448952E-002 
+1.80100000000E+010 -6.30099892616E-001 -4.02919888496E-001 -8.49167234264E-004 -4.76225744933E-003 +9.76638239081E-006 +9.55452560447E-006 +5.25180160999E-001 +4.04456891119E-002 
+1.82100000000E+010 -6.30983412266E-001 -4.01151686907E-001 -4.58278367296E-003 -9.46463609580E-004 +1.34628962769E-005 -3.02206444758E-005 +5.37832140923E-001 -1.48035036400E-002 
+1.84100000000E+010 -6.33948266506E-001 -3.99474799633E-001 -2.50735343434E-003 +3.67712788284E-003 +2.51717465289E-005 -3.57405006071E-005 +5.44059276581E-001 -7.27214813232E-002 
+1.86100000000E+010 -6.38263046741E-001 -3.97295892239E-001 +2.27561593056E-003 +3.63825866953E-003 +1.34780975714E-005 -8.07586002338E-006 +5.44521212578E-001 -1.29720672965E-001 
+1.88100000000E+010 -6.39389455318E-001 -3.95187526941E-001 +4.05385997146E-003 -6.19149941485E-004 +8.76489866641E-006 -1.40477513924E-005 +5.39036154747E-001 -1.87304660678E-001 
+1.90100000000E+010 -6.41360163689E-001 -3.93384993076E-001 +9.34185460210E-004 -3.75115848146E-003 -2.88326700684E-005 -2.35820916714E-005 +5.27853608131E-001 -2.44319021702E-001 
+1.92100000000E+010 -6.44572019577E-001 -3.91949534416E-001 -2.89303297177E-003 -2.35827430151E-003 -2.53513426287E-005 -1.87810110219E-005 +5.09483218193E-001 -3.02784830332E-001 
+1.94100000000E+010 -6.47420525551E-001 -3.89410048723E-001 -3.17944423296E-003 +1.74629432149E-003 -1.87027744687E-005 -1.11148929136E-005 +4.84157055616E-001 -3.58551084995E-001 
+1.96100000000E+010 -6.47858738899E-001 -3.87006849051E-001 +2.80629290501E-004 +3.42953763902E-003 +2.45658957283E-005 -2.13497196455E-006 +4.53462779522E-001 -4.11100238562E-001 
+1.98100000000E+010 -6.46970450878E-001 -3.84147197008E-001 +3.15226358362E-003 +1.06727390084E-003 -1.10986693471E-005 -3.97469484597E-005 +4.19188350439E-001 -4.59234327078E-001 
+2.00100000000E+010 -6.45830392838E-001 -3.83653998375E-001 +2.12307390757E-003 -2.42581171915E-003 -2.11196274904E-005 -2.95306908811E-005 +3.77231389284E-001 -5.06418347359E-001 
