!;Filter: kein Filter
!auto
!3/21/2019 9:27:54 AM
!3/21/2019 9:28:10 AM
!SP-Measurements Prober G4
!SP-Measurements Prober G4
!01103_448C
!134
!233
!12
!30
!-20
!0.00599970
!2.02
!0.74959551
!0.74959551
# Hz S  RI   R 50
+1.00000000000E+007 +2.33654648066E-001 +6.57509826124E-003 +4.53185103834E-002 -1.70148517936E-002 -1.06802675873E-004 -2.38402833929E-004 +4.80090733618E-003 +6.10299990512E-004 
+2.10000000000E+008 +2.48315110803E-001 -2.25534755737E-002 -1.76972965710E-003 -4.69677448273E-002 -6.80540251778E-005 -2.84089728666E-005 +8.97377356887E-003 -4.36109537259E-003 
+4.10000000000E+008 +2.51458555460E-001 -5.29785454273E-002 -4.40229810774E-002 -1.45887173712E-002 -3.13921482302E-005 +4.01841025450E-005 +1.04177212343E-002 -7.16104870662E-003 
+6.10000000000E+008 +2.50901997089E-001 -8.43104273081E-002 -2.81782560050E-002 +3.54946143925E-002 +3.31929732056E-006 +1.27282346511E-005 +9.36027057469E-003 -1.14005869254E-002 
+8.10000000000E+008 +2.46930137277E-001 -1.16458766162E-001 +2.31029577553E-002 +3.87422181666E-002 +1.50468404172E-005 -1.89454294741E-005 +6.79779099301E-003 -1.52078121901E-002 
+1.01000000000E+009 +2.40275993943E-001 -1.47441640496E-001 +4.45634685457E-002 -7.76543468237E-003 +1.25138922158E-005 -3.89009983337E-006 +2.91764386930E-003 -1.87897924334E-002 
+1.21000000000E+009 +2.31548249722E-001 -1.77073955536E-001 +8.03054217249E-003 -4.32577356696E-002 -1.09498087113E-005 +2.11407150346E-005 -1.73082971014E-003 -2.13597081602E-002 
+1.41000000000E+009 +2.20917284489E-001 -2.06534802914E-001 -3.70812639594E-002 -2.30270233005E-002 -5.33173351869E-006 +1.16588980745E-005 -7.77533696964E-003 -2.44761835784E-002 
+1.61000000000E+009 +2.08879619837E-001 -2.34609410167E-001 -3.44821885228E-002 +2.67753563821E-002 +2.10087782762E-005 -7.00861664882E-006 -1.36796375737E-002 -2.68835071474E-002 
+1.81000000000E+009 +1.95145383477E-001 -2.61103540659E-001 +1.24918427318E-002 +4.06953357160E-002 -1.70431667357E-005 -1.38326940942E-005 -1.78174041212E-002 -2.80176177621E-002 
+2.01000000000E+009 +1.80875048041E-001 -2.86692917347E-001 +4.20755594969E-002 +3.17398668267E-003 +4.48563368991E-005 -1.60234185387E-006 -2.31730733067E-002 -2.69877575338E-002 
+2.21000000000E+009 +1.64877951145E-001 -3.11166524887E-001 +1.76776200533E-002 -3.81307005882E-002 -3.48038440734E-007 -5.66728715512E-007 -2.89791319519E-002 -2.48458106071E-002 
+2.41000000000E+009 +1.47854298353E-001 -3.33729386330E-001 -2.86946538836E-002 -2.95895263553E-002 +2.08690671570E-005 -3.81703330277E-007 -3.56026291847E-002 -2.25128959864E-002 
+2.61000000000E+009 +1.30327612162E-001 -3.55084866285E-001 -3.76866199076E-002 +1.57783925533E-002 +1.74255455931E-005 +7.24013762010E-006 -4.07666265965E-002 -1.95436831564E-002 
+2.81000000000E+009 +1.11936099827E-001 -3.75004261732E-001 +1.34123559110E-003 +4.06090393662E-002 +7.69348480389E-006 -5.49794776816E-006 -4.47658374906E-002 -1.46278804168E-002 
+3.01000000000E+009 +9.29319187999E-002 -3.93270045519E-001 +3.77507545054E-002 +1.30836218596E-002 +1.54884273798E-005 -2.77981343970E-005 -4.86211329699E-002 -8.76383669674E-003 
+3.21000000000E+009 +7.35986605287E-002 -4.10311609507E-001 +2.57769506425E-002 -3.01469471306E-002 +5.16287354912E-006 +3.10558461933E-005 -5.26624768972E-002 -2.38549266942E-003 
+3.41000000000E+009 +5.42728863657E-002 -4.25932705402E-001 -1.88685934991E-002 -3.46503369510E-002 -3.11013100145E-005 -7.88199258750E-007 -5.56791275740E-002 +4.78250160813E-003 
+3.61000000000E+009 +3.47958244383E-002 -4.40392106771E-001 -3.85068692267E-002 +5.08635165170E-003 -1.04294931589E-005 -3.03636788885E-005 -5.74679300189E-002 +1.18834525347E-002 
+3.81000000000E+009 +1.48718552664E-002 -4.53462064266E-001 -9.28301736712E-003 +3.74111495912E-002 -1.01840323623E-005 +2.88792193714E-006 -5.74147775769E-002 +1.93857066333E-002 
+4.01000000000E+009 -4.50942851603E-003 -4.65510874987E-001 +3.14743779600E-002 +2.18679569662E-002 -6.10316374150E-006 +2.41446487053E-005 -5.64627833664E-002 +2.73775644600E-002 
+4.21000000000E+009 -2.40383092314E-002 -4.76224362850E-001 +3.13214175403E-002 -2.11300179362E-002 -1.62861597346E-005 -1.41454847835E-005 -5.46689815819E-002 +3.60457003117E-002 
+4.41000000000E+009 -4.34098243713E-002 -4.85890090466E-001 -8.16446542740E-003 -3.66853587329E-002 +1.66175705090E-005 +3.75816598535E-005 -5.16656227410E-002 +4.43573072553E-002 
+4.61000000000E+009 -6.24814853072E-002 -4.94544476271E-001 -3.70085537434E-002 -5.43999765068E-003 -2.37677295445E-006 -2.44780608227E-006 -4.73007038236E-002 +5.17217144370E-002 
+4.81000000000E+009 -8.16214904189E-002 -5.02323150635E-001 -1.81853305548E-002 +3.20961736143E-002 -1.49194011101E-006 +1.72885138454E-005 -4.08144518733E-002 +5.89874386787E-002 
+5.01000000000E+009 -1.00138016045E-001 -5.09521663189E-001 +2.31851786375E-002 +2.85182371736E-002 -8.48482898164E-007 +4.10833126807E-006 -3.41610834002E-002 +6.56693950295E-002 
+5.21000000000E+009 -1.18212826550E-001 -5.16069352627E-001 +3.47041748464E-002 -1.15212518722E-002 +1.62041578733E-005 +6.62433058096E-006 -2.67125517130E-002 +7.17580541968E-002 
+5.41000000000E+009 -1.36053264141E-001 -5.21501660347E-001 +1.75693409983E-003 -3.60808745027E-002 -1.22332021419E-005 +6.87520287102E-006 -1.77649594843E-002 +7.67067968845E-002 
+5.61000000000E+009 -1.54022082686E-001 -5.26556491852E-001 -3.28861139715E-002 -1.46478544921E-002 -9.04638397969E-007 +1.78559230335E-006 -7.83083681017E-003 +8.00429061055E-002 
+5.81000000000E+009 -1.71135917306E-001 -5.30638039112E-001 -2.50458121300E-002 +2.53642201424E-002 +5.83011797062E-006 -4.81874076286E-006 +2.66181514598E-003 +8.11648517847E-002 
+6.01000000000E+009 -1.87680020928E-001 -5.33844769001E-001 +1.43822440878E-002 +3.20783257484E-002 -2.29411998589E-005 +1.25763554024E-005 +1.40348840505E-002 +8.27525556087E-002 
+6.21000000000E+009 -2.04171836376E-001 -5.36553204060E-001 +3.49027216434E-002 -1.85432191938E-003 +1.43655461216E-005 -2.12354170799E-005 +2.50536240637E-002 +8.24059396982E-002 
+6.41000000000E+009 -2.19911456108E-001 -5.38716852665E-001 +1.05576654896E-002 -3.29198651016E-002 -4.56350026070E-005 +1.41514919960E-005 +3.65152768791E-002 +8.04522559047E-002 
+6.61000000000E+009 -2.35659420490E-001 -5.40267646313E-001 -2.64742653817E-002 -2.15745791793E-002 +8.90355204319E-006 +2.25916028285E-005 +4.77668605745E-002 +7.56917670369E-002 
+6.81000000000E+009 -2.50878542662E-001 -5.41496753693E-001 -2.95633785427E-002 +1.68112851679E-002 -1.60055278684E-005 +8.78935134097E-006 +5.88427819312E-002 +7.01427608728E-002 
+7.01000000000E+009 -2.65485674143E-001 -5.42348682880E-001 +5.03590144217E-003 +3.33462916315E-002 +1.55090328917E-005 +1.25419501273E-005 +6.90721273422E-002 +6.36316388845E-002 
+7.21000000000E+009 -2.79926985502E-001 -5.42566597462E-001 +3.27126793563E-002 +7.39138992503E-003 +4.03267767979E-006 -1.12177285700E-005 +7.81189799309E-002 +5.52264302969E-002 
+7.41000000000E+009 -2.93603062630E-001 -5.42827546597E-001 +1.86297520995E-002 -2.79180891812E-002 +2.53809776041E-005 +1.86742890946E-005 +8.71114283800E-002 +4.50123585761E-002 
+7.61000000000E+009 -3.06597322226E-001 -5.42337059975E-001 -1.93961821496E-002 -2.72088050842E-002 -1.03336496977E-005 +8.25448387332E-006 +9.37869101763E-002 +3.30753363669E-002 
+7.81000000000E+009 -3.19955289364E-001 -5.41334986687E-001 -3.23335155845E-002 +8.39620921761E-003 -5.70409883949E-006 +2.10027410503E-005 +9.91751253605E-002 +2.03771702945E-002 
+8.01000000000E+009 -3.32306951284E-001 -5.40113568306E-001 -3.46827274188E-003 +3.32818441093E-002 -7.64631113270E-006 +1.25561682580E-005 +1.02763332427E-001 +6.82315370068E-003 
+8.21000000000E+009 -3.44442546368E-001 -5.38478255272E-001 +2.99321021885E-002 +1.46800661460E-002 +2.33720911638E-005 +4.20049730110E-007 +1.05177097023E-001 -7.51846050844E-003 
+8.41000000000E+009 -3.56202185154E-001 -5.36565124989E-001 +2.41142455488E-002 -2.28797905147E-002 -2.44342527367E-006 -2.18533568841E-005 +1.04682572186E-001 -2.27146446705E-002 
+8.61000000000E+009 -3.67849439383E-001 -5.34895956516E-001 -1.32291028276E-002 -3.04244067520E-002 +3.91275580114E-006 -3.61700995199E-006 +1.01385787129E-001 -3.83205488324E-002 
+8.81000000000E+009 -3.78848552704E-001 -5.32926380634E-001 -3.28278355300E-002 +2.22839508206E-003 +1.48651088239E-006 +1.02292933661E-005 +9.60046947002E-002 -5.41253089905E-002 
+9.01000000000E+009 -3.89597296715E-001 -5.30627131462E-001 -8.91264248639E-003 +3.12551707029E-002 -8.24057860882E-006 -1.79682410817E-005 +8.92184600234E-002 -6.81876763701E-002 
+9.21000000000E+009 -3.99958372116E-001 -5.28270542622E-001 +2.60985754430E-002 +1.86861585826E-002 +3.85367457056E-006 +6.44834301511E-007 +7.93254524469E-002 -8.31228122115E-002 
+9.41000000000E+009 -4.09629076719E-001 -5.26046872139E-001 +2.57930383086E-002 -1.81357432157E-002 -2.05308861041E-005 +1.05951930891E-005 +6.68138116598E-002 -9.70083326101E-002 
+9.61000000000E+009 -4.19357866049E-001 -5.23383677006E-001 -8.25591478497E-003 -2.96070836484E-002 -3.33615048476E-006 -1.19400119729E-005 +5.13807386160E-002 -1.09153546393E-001 
+9.81000000000E+009 -4.28226143122E-001 -5.21204233170E-001 -2.99215689301E-002 -2.05165194348E-003 +8.73822136782E-006 -4.14819733123E-005 +3.63352820277E-002 -1.18764266372E-001 
+1.00100000000E+010 -4.37372922897E-001 -5.18399596214E-001 -1.15122701973E-002 +2.66746953130E-002 +1.80582992471E-005 +2.03219940431E-007 +1.92327331752E-002 -1.26774564385E-001 
+1.02100000000E+010 -4.45811659098E-001 -5.15418171883E-001 +2.04636491835E-002 +1.90892927349E-002 -1.57020240295E-005 +1.67980542756E-005 +1.08911748976E-003 -1.33942201734E-001 
+1.04100000000E+010 -4.54326927662E-001 -5.12794196606E-001 +2.40458622575E-002 -1.23557392508E-002 +1.84916389117E-005 +1.15301036203E-005 -1.95459239185E-002 -1.39373421669E-001 
+1.06100000000E+010 -4.62567389011E-001 -5.09901523590E-001 -3.51666449569E-003 -2.56232507527E-002 -3.02615771943E-005 +5.73052057007E-006 -4.16425913572E-002 -1.42279699445E-001 
+1.08100000000E+010 -4.69631820917E-001 -5.07670819759E-001 -2.40571368486E-002 -5.24771306664E-003 -2.99732837448E-005 -1.27517332658E-005 -6.32922649384E-002 -1.41777992249E-001 
+1.10100000000E+010 -4.77128803730E-001 -5.04778087139E-001 -1.27089302987E-002 +1.98810771108E-002 -2.01324801310E-005 -4.12910458181E-006 -8.55874717236E-002 -1.38252452016E-001 
+1.12100000000E+010 -4.84201997519E-001 -5.02676725388E-001 +1.36091122404E-002 +1.77404154092E-002 +1.94010681298E-006 -5.27879092260E-006 -1.09641492367E-001 -1.31632521749E-001 
+1.14100000000E+010 -4.91309016943E-001 -4.99613821507E-001 +2.02166978270E-002 -6.07339385897E-003 -3.60447643288E-006 +2.66478446065E-006 -1.32800981402E-001 -1.21432155371E-001 
+1.16100000000E+010 -4.97031360865E-001 -4.97144401073E-001 +1.43808778375E-003 -2.01104339212E-002 +1.55525358423E-005 -1.07019559437E-005 -1.54748350382E-001 -1.07923552394E-001 
+1.18100000000E+010 -5.03341257572E-001 -4.94487285614E-001 -1.73713397235E-002 -7.88491498679E-003 +9.79561446002E-006 -1.18602674775E-005 -1.74428239465E-001 -9.12215486169E-002 
+1.20100000000E+010 -5.09772598743E-001 -4.91295188665E-001 -1.29061546177E-002 +1.25043196604E-002 -1.05346362034E-005 -1.62890828506E-005 -1.92207530141E-001 -7.17677474022E-002 
+1.22100000000E+010 -5.16287088394E-001 -4.87842261791E-001 +6.67047221214E-003 +1.57740842551E-002 -8.89342754817E-006 -1.77791498572E-005 -2.09785863757E-001 -4.94868569076E-002 
+1.24100000000E+010 -5.22008597851E-001 -4.84880000353E-001 +1.62022560835E-002 -5.69267838728E-004 +1.48134870415E-006 -5.52692063138E-006 -2.24482432008E-001 -2.39407178015E-002 
+1.26100000000E+010 -5.27723789215E-001 -4.81705129147E-001 +5.15987724066E-003 -1.44183961675E-002 -5.21396032127E-006 -8.33887611407E-007 -2.34821200371E-001 +3.82830062881E-003 
+1.28100000000E+010 -5.33089816570E-001 -4.78563100100E-001 -1.10117187724E-002 -9.64603945613E-003 +2.78464140138E-005 +5.03866431245E-006 -2.41435855627E-001 +3.31269130111E-002 
+1.30100000000E+010 -5.38464426994E-001 -4.74792271852E-001 -1.22201116756E-002 +6.37768348679E-003 +1.46066040543E-005 +1.11291901703E-005 -2.45162665844E-001 +6.32427483797E-002 
+1.32100000000E+010 -5.43248534203E-001 -4.71509516239E-001 +1.21413148008E-003 +1.29987159744E-002 -2.17923443415E-005 +5.90069339523E-006 -2.45534151793E-001 +9.51981619000E-002 
+1.34100000000E+010 -5.48153877258E-001 -4.67527955770E-001 +1.20198447257E-002 +3.47433984280E-003 -1.16561604955E-005 +1.74664683072E-006 -2.42270380259E-001 +1.26876175404E-001 
+1.36100000000E+010 -5.51073014736E-001 -4.64244842529E-001 +7.21069425344E-003 -9.33337956667E-003 -2.38839390931E-007 -1.53639921336E-005 -2.34322845936E-001 +1.60126477480E-001 
+1.38100000000E+010 -5.56009054184E-001 -4.61439192295E-001 -5.53717883304E-003 -9.69522073865E-003 -4.75687229482E-005 +3.34845790348E-005 -2.21393287182E-001 +1.92560195923E-001 
+1.40100000000E+010 -5.60594737530E-001 -4.58394348621E-001 -1.06120165437E-002 +1.46912969649E-003 +1.85394983419E-005 +2.22625044444E-006 -2.04802170396E-001 +2.24216476083E-001 
+1.42100000000E+010 -5.64920544624E-001 -4.55577194691E-001 -2.43047531694E-003 +9.82234999537E-003 +1.17480176414E-005 +2.31649355555E-005 -1.84262543917E-001 +2.55763709545E-001 
+1.44100000000E+010 -5.69343209267E-001 -4.52046424150E-001 +7.77809973806E-003 +5.74572244659E-003 +1.06362231236E-005 +1.19537235150E-005 -1.58371895552E-001 +2.84741491079E-001 
+1.46100000000E+010 -5.72894573212E-001 -4.49145317078E-001 +7.87120219320E-003 -4.89246705547E-003 -1.78824338946E-005 +9.83449263003E-006 -1.27536088228E-001 +3.10474157333E-001 
+1.48100000000E+010 -5.76095700264E-001 -4.43960130215E-001 -1.56108557712E-003 -8.59464239329E-003 -9.16568933462E-006 +1.56376245286E-005 -9.46819186211E-002 +3.32605808973E-001 
+1.50100000000E+010 -5.77561497688E-001 -4.43222969770E-001 -8.12408700585E-003 -1.80158310104E-003 +4.85532473249E-006 +1.30735297716E-005 -5.90003617108E-002 +3.52215349674E-001 
+1.52100000000E+010 -5.80261230469E-001 -4.42542910576E-001 -4.49407612905E-003 +6.55370578170E-003 -1.21510865938E-005 -2.73202622338E-005 -1.98160838336E-002 +3.67650985718E-001 
+1.54100000000E+010 -5.83580970764E-001 -4.40599381924E-001 +4.15308820084E-003 +6.25309906900E-003 -1.31788146973E-005 +1.94738368009E-005 +2.28374134749E-002 +3.77745121717E-001 
+1.56100000000E+010 -5.86983978748E-001 -4.37501221895E-001 +6.99474941939E-003 -1.29978230689E-003 -1.35189302455E-005 +3.74466276298E-006 +6.71797916293E-002 +3.82059782743E-001 
+1.58100000000E+010 -5.88030576706E-001 -4.37194585800E-001 +1.42692006193E-003 -6.68907398358E-003 -2.12428130908E-005 +3.14967110171E-005 +1.11741960049E-001 +3.82659465075E-001 
+1.60100000000E+010 -5.90402007103E-001 -4.36346054077E-001 -5.33206807449E-003 -3.62939736806E-003 +4.68224880024E-006 +1.57993927132E-005 +1.57464325428E-001 +3.77779066563E-001 
+1.62100000000E+010 -5.92541217804E-001 -4.34969902039E-001 -5.15315029770E-003 +3.28829023056E-003 -5.63932462683E-006 +1.19218866530E-005 +2.05549493432E-001 +3.67402523756E-001 
+1.64100000000E+010 -5.94570994377E-001 -4.33808982372E-001 +1.05339754373E-003 +5.75700215995E-003 +2.54540263995E-005 -2.03274885280E-005 +2.52873897552E-001 +3.51163446903E-001 
+1.66100000000E+010 -5.98007321358E-001 -4.32605475187E-001 +5.36493817344E-003 +1.15978019312E-003 -2.59353219008E-005 -3.98915944970E-005 +2.97373265028E-001 +3.27747136354E-001 
+1.68100000000E+010 -6.01280152798E-001 -4.30400997400E-001 +3.08172800578E-003 -4.21651499346E-003 -3.09188664005E-007 -7.05789534550E-006 +3.41250717640E-001 +3.00633013248E-001 
+1.70100000000E+010 -6.03039383888E-001 -4.28561002016E-001 -2.59396084584E-003 -4.27883304656E-003 +4.04456477554E-005 -1.06677734948E-005 +3.81993532181E-001 +2.69366919994E-001 
+1.72100000000E+010 -6.05500578880E-001 -4.27068799734E-001 -4.67859441414E-003 +6.67836167850E-004 +2.77625422314E-005 +1.67967355083E-005 +4.20104891062E-001 +2.30630904436E-001 
+1.74100000000E+010 -6.08837068081E-001 -4.25500154495E-001 -1.26845133491E-003 +4.34780865908E-003 +3.54457142748E-006 +1.99647274712E-006 +4.53932166100E-001 +1.87419682741E-001 
+1.76100000000E+010 -6.11952126026E-001 -4.23704177141E-001 +3.36700771004E-003 +2.77386675589E-003 +1.72198688233E-005 +4.17761148128E-005 +4.82051432133E-001 +1.41064018011E-001 
+1.78100000000E+010 -6.15182697773E-001 -4.21734899282E-001 +3.69529169984E-003 -1.91362865735E-003 -2.50851062447E-005 +2.11585629586E-005 +5.05893528461E-001 +9.20013859868E-002 
+1.80100000000E+010 -6.17787539959E-001 -4.19632494450E-001 -2.31763930060E-004 -4.03883494437E-003 -8.83818847797E-006 +1.74514480022E-005 +5.25221824646E-001 +4.02918681502E-002 
+1.82100000000E+010 -6.20933115482E-001 -4.17918801308E-001 -3.72281926684E-003 -1.30388152320E-003 +3.97400725660E-007 -2.69316137747E-006 +5.37886321545E-001 -1.48844439536E-002 
+1.84100000000E+010 -6.23916387558E-001 -4.16491955519E-001 -2.55695520900E-003 +2.79558077455E-003 -1.71185511135E-005 +1.83492193173E-005 +5.44112443924E-001 -7.29019045830E-002 
+1.86100000000E+010 -6.27305328846E-001 -4.14609640837E-001 +1.50383205619E-003 +3.33808735013E-003 -1.61666212080E-005 +1.07803789433E-005 +5.44540286064E-001 -1.29898861051E-001 
+1.88100000000E+010 -6.30112409592E-001 -4.12323236465E-001 +3.55741218664E-003 -1.06355873868E-004 -4.55460713056E-006 -2.05868072953E-005 +5.38996100426E-001 -1.87480866909E-001 
+1.90100000000E+010 -6.32261335850E-001 -4.10576552153E-001 +1.21663801838E-003 -3.15759144723E-003 +4.54310293208E-006 -1.43707557072E-005 +5.27802646160E-001 -2.44461953640E-001 
+1.92100000000E+010 -6.35108470917E-001 -4.09320503473E-001 -2.31866375543E-003 -2.29687686078E-003 -5.17313219461E-006 -1.12044317575E-005 +5.09432673454E-001 -3.02890092134E-001 
+1.94100000000E+010 -6.38150513172E-001 -4.07085537910E-001 -2.91931885295E-003 +1.21782545466E-003 +1.97773556465E-006 -5.28759574081E-006 +4.84101295471E-001 -3.58622580767E-001 
+1.96100000000E+010 -6.39286994934E-001 -4.04888600111E-001 -6.45746040391E-005 +3.02709895186E-003 -1.86953966477E-005 +3.71390378859E-005 +4.53467190266E-001 -4.11209672689E-001 
+1.98100000000E+010 -6.39246582985E-001 -4.02159869671E-001 +2.67624226399E-003 +1.19965791237E-003 +7.93528556642E-007 -2.81476859527E-005 +4.19080317020E-001 -4.59375530481E-001 
+2.00100000000E+010 -6.39235138893E-001 -4.00873214006E-001 +2.10141832940E-003 -1.96237512864E-003 -2.65968683379E-005 +7.28923805582E-006 +3.77103567123E-001 -5.06503641605E-001 
