!;Filter: kein Filter
!auto
!3/21/2019 9:26:39 AM
!3/21/2019 9:26:51 AM
!SP-Measurements Prober G4
!SP-Measurements Prober G4
!01103_448C
!134
!233
!12
!60
!-20
!0.00099996
!1.65
!0.05816927
!0.05816927
# Hz S  RI   R 50
+1.00000000000E+007 +4.52097058296E-001 +2.64514330775E-003 +4.08336259425E-002 -1.63090024143E-002 +1.53330736794E-004 -2.37040858337E-005 +4.60938084871E-003 +1.89499568660E-003 
+2.10000000000E+008 +4.59781378508E-001 -4.43758554757E-002 -3.01049696282E-003 -4.22413498163E-002 -1.86587465123E-006 +1.98812740564E-005 +8.78306478262E-003 -4.80489945039E-003 
+4.10000000000E+008 +4.56042468548E-001 -8.93650501966E-002 -4.05469685793E-002 -1.08895022422E-002 +7.03914265614E-005 +1.61621319421E-005 +1.01877665147E-002 -7.78342876583E-003 
+6.10000000000E+008 +4.48217123747E-001 -1.32930934429E-001 -2.39542592317E-002 +3.47131453454E-002 +3.68563887605E-005 -1.75500317710E-005 +9.61320847273E-003 -1.16378962994E-002 
+8.10000000000E+008 +4.37911927700E-001 -1.75933495164E-001 +2.55132131279E-002 +3.43056283891E-002 +1.74898980276E-006 -2.50139964919E-005 +7.17842532322E-003 -1.54487015679E-002 
+1.01000000000E+009 +4.24463301897E-001 -2.17364236712E-001 +4.13500294089E-002 -1.33015885949E-002 -3.91668709199E-006 +7.40909172237E-006 +2.83490936272E-003 -1.91420782357E-002 
+1.21000000000E+009 +4.07944470644E-001 -2.56080001593E-001 +1.34647579398E-003 -4.48985099792E-002 -3.31914361595E-006 -1.92615625565E-005 -1.79158034734E-003 -2.11050063372E-002 
+1.41000000000E+009 +3.90526443720E-001 -2.96178579330E-001 -4.33820411563E-002 -1.37935886160E-002 +9.59740737017E-006 -3.92911942981E-006 -7.56605574861E-003 -2.43711788207E-002 
+1.61000000000E+009 +3.68682861328E-001 -3.32130432129E-001 -2.79673878103E-002 +3.63319888711E-002 -2.25462772505E-005 +1.19698906929E-005 -1.35693466291E-002 -2.68164109439E-002 
+1.81000000000E+009 +3.45653057098E-001 -3.64446461201E-001 +2.53581181169E-002 +4.07935678959E-002 +1.14492468128E-006 -1.96345226868E-005 -1.78142804652E-002 -2.79062036425E-002 
+2.01000000000E+009 +3.24214994907E-001 -3.95502448082E-001 +5.10774627328E-002 -1.31101403385E-002 +1.04755044958E-005 +2.12369195651E-005 -2.31008343399E-002 -2.66107656062E-002 
+2.21000000000E+009 +3.02777796984E-001 -4.26804393530E-001 -2.31180121773E-004 -5.98799437284E-002 -3.84699415008E-005 +7.82151528256E-006 -2.87140496075E-002 -2.45024729520E-002 
+2.41000000000E+009 +2.78833240271E-001 -4.60991263390E-001 -6.68263360858E-002 -7.53600848839E-003 +2.97668284475E-005 -1.26064569486E-005 -3.54186482728E-002 -2.21997257322E-002 
+2.61000000000E+009 +2.46577993035E-001 -4.96998697519E-001 -6.22334890068E-003 +6.97939395905E-002 -6.63412538415E-006 -3.21315055771E-005 -4.06906418502E-002 -1.94045286626E-002 
+2.81000000000E+009 +2.09878370166E-001 -5.23513376713E-001 +6.87530115247E-002 +1.11282402650E-002 -2.75446541309E-006 -3.72844042431E-005 -4.47426848114E-002 -1.44969737157E-002 
+3.01000000000E+009 +1.74424573779E-001 -5.41830360889E-001 +2.13148649782E-002 -6.28482550383E-002 -8.72520558914E-006 +6.90608430887E-006 -4.85068261623E-002 -8.64457897842E-003 
+3.21000000000E+009 +1.41479730606E-001 -5.54608166218E-001 -5.08168861270E-002 -3.07505633682E-002 -3.94770104322E-005 +2.74973026535E-005 -5.23682646453E-002 -2.24568252452E-003 
+3.41000000000E+009 +1.11675679684E-001 -5.65060853958E-001 -3.79800125957E-002 +3.65921109915E-002 -3.44847139786E-005 +3.62185055565E-005 -5.53749240935E-002 +4.82889963314E-003 
+3.61000000000E+009 +8.31703618169E-002 -5.74335277081E-001 +2.35989298671E-002 +4.01950106025E-002 +4.41946795036E-005 -7.45964098314E-006 -5.72127848864E-002 +1.16990096867E-002 
+3.81000000000E+009 +5.73331937194E-002 -5.81805348396E-001 +3.77099663019E-002 -7.65362195671E-003 +7.17383863957E-006 +9.79670949164E-006 -5.69949410856E-002 +1.91510356963E-002 
+4.01000000000E+009 +3.17084901035E-002 -5.88607668877E-001 -3.93184629502E-004 -3.23509611189E-002 -3.63966937584E-005 +1.94284148165E-005 -5.58886155486E-002 +2.69837006927E-002 
+4.21000000000E+009 +7.95754604042E-003 -5.96254289150E-001 -2.64372136444E-002 -1.13164242357E-002 +2.26328347708E-006 -8.64884805196E-006 -5.39533719420E-002 +3.56087200344E-002 
+4.41000000000E+009 -1.60192865878E-002 -6.02137267590E-001 -1.60301104188E-002 +2.01345048845E-002 -1.05293183879E-005 +2.53351754509E-006 -5.08956052363E-002 +4.41571548581E-002 
+4.61000000000E+009 -3.83289493620E-002 -6.07059299946E-001 +1.10621685162E-002 +1.62422209978E-002 +6.88083764544E-006 -1.48519466165E-005 -4.65405285358E-002 +5.14592304826E-002 
+4.81000000000E+009 -6.08577691019E-002 -6.12571299076E-001 +1.82261597365E-002 -2.24831607193E-003 +1.63559634530E-005 -2.42334886025E-006 -4.00371551514E-002 +5.86546920240E-002 
+5.01000000000E+009 -8.28029885888E-002 -6.16739869118E-001 +2.39002471790E-003 -1.65773034096E-002 +1.98741017812E-005 -7.13670885943E-007 -3.33569720387E-002 +6.52171745896E-002 
+5.21000000000E+009 -1.03543862700E-001 -6.20578646660E-001 -1.11103737727E-002 -6.40013534576E-003 -1.06891029645E-005 -1.63017866726E-005 -2.58445627987E-002 +7.11597278714E-002 
+5.41000000000E+009 -1.24352782965E-001 -6.23701572418E-001 -1.03499749675E-002 +6.56212447211E-003 +1.22478586491E-005 +1.40163274409E-005 -1.70912314206E-002 +7.65410438180E-002 
+5.61000000000E+009 -1.45086854696E-001 -6.26060605049E-001 +3.11406515539E-003 +1.10981073231E-002 -1.32650047817E-005 +8.27384883451E-006 -7.48915039003E-003 +7.96722471714E-002 
+5.81000000000E+009 -1.64525046945E-001 -6.27663254738E-001 +9.09600872546E-003 +1.19005097076E-003 -2.67501545750E-005 -2.26077991101E-005 +3.18492273800E-003 +8.05083960295E-002 
+6.01000000000E+009 -1.83531224728E-001 -6.28548979759E-001 +5.03234099597E-003 -7.25614279509E-003 +6.74445163895E-006 -5.45700140719E-006 +1.41386138275E-002 +8.24206024408E-002 
+6.21000000000E+009 -2.02203780413E-001 -6.28596544266E-001 -5.24144712836E-003 -6.60406146199E-003 -4.29749998148E-005 +1.67411180882E-005 +2.49146558344E-002 +8.20579603314E-002 
+6.41000000000E+009 -2.19822868705E-001 -6.28387928009E-001 -6.65714731440E-003 +1.83195376303E-003 -2.04456664505E-005 -4.69413789688E-005 +3.65421772003E-002 +8.01229402423E-002 
+6.61000000000E+009 -2.37447693944E-001 -6.27867639065E-001 -1.37237110175E-003 +6.51044258848E-003 -3.08411608785E-006 +1.25766400743E-005 +4.77389246225E-002 +7.49425068498E-002 
+6.81000000000E+009 -2.54556983709E-001 -6.26643478870E-001 +5.53445424885E-003 +3.16526414827E-003 +1.27122611957E-005 +1.87429923244E-005 +5.84581606090E-002 +6.89034834504E-002 
+7.01000000000E+009 -2.70747423172E-001 -6.25225424767E-001 +4.20238217339E-003 -3.21755046025E-003 -1.33597295644E-005 -2.20185575017E-005 +6.82628899813E-002 +6.29413723946E-002 
+7.21000000000E+009 -2.86660254002E-001 -6.23319804668E-001 -9.30711510591E-004 -5.14298025519E-003 +6.29195312740E-007 -1.96573819267E-005 +7.75418132544E-002 +5.41666820645E-002 
+7.41000000000E+009 -3.01759064198E-001 -6.21310055256E-001 -4.93677752092E-003 -6.71195448376E-004 -3.27796369675E-005 -8.20061814011E-006 +8.67145508528E-002 +4.38793189824E-002 
+7.61000000000E+009 -3.15950989723E-001 -6.18760287762E-001 -2.18010204844E-003 +3.65751772188E-003 +2.39207420236E-005 +4.28777184425E-007 +9.30050835013E-002 +3.18511873484E-002 
+7.81000000000E+009 -3.30435276031E-001 -6.15616261959E-001 +2.22598831169E-003 +3.49160749465E-003 +2.42658516072E-005 -2.32927177422E-005 +9.83788073063E-002 +1.96661259979E-002 
+8.01000000000E+009 -3.43783885241E-001 -6.12413406372E-001 +3.82555974647E-003 -9.41953563597E-004 +2.02965202334E-005 -6.40706275590E-006 +1.02201677859E-001 +5.85862435400E-003 
+8.21000000000E+009 -3.56820940971E-001 -6.08989953995E-001 +5.58550818823E-004 -3.32848099060E-003 +1.91926119442E-006 +4.24420704803E-006 +1.04326196015E-001 -8.40557552874E-003 
+8.41000000000E+009 -3.69526863098E-001 -6.05066418648E-001 -2.69293622114E-003 -1.93862256128E-003 -1.23242898553E-005 -2.41784073296E-005 +1.03715457022E-001 -2.36465483904E-002 
+8.61000000000E+009 -3.81746560335E-001 -6.01485848427E-001 -2.57817306556E-003 +1.83463108260E-003 -2.43163030973E-005 +3.75967974833E-005 +1.00386939943E-001 -3.89958582819E-002 
+8.81000000000E+009 -3.93418729305E-001 -5.97772300243E-001 +5.63135312404E-004 +2.69555044360E-003 -3.61068123311E-005 -1.19149517559E-005 +9.50885862112E-002 -5.44811226428E-002 
+9.01000000000E+009 -4.04783457518E-001 -5.93759953976E-001 +2.64099263586E-003 +6.74011360388E-004 -3.10181130772E-005 +5.02743787365E-005 +8.84618982673E-002 -6.82981535792E-002 
+9.21000000000E+009 -4.15720134974E-001 -5.89710175991E-001 +1.41063518822E-003 -2.20402167179E-003 +3.56508207915E-005 -5.75823150939E-006 +7.85072669387E-002 -8.30515697598E-002 
+9.41000000000E+009 -4.25807714462E-001 -5.85767149925E-001 -1.18254742119E-003 -1.89596251585E-003 +4.24395238952E-006 +2.99192779494E-005 +6.59960955381E-002 -9.65227931738E-002 
+9.61000000000E+009 -4.35841679573E-001 -5.81480443478E-001 -2.17733695172E-003 +2.72620760370E-004 +7.09624555384E-006 +7.77604072937E-005 +5.07622174919E-002 -1.08724750578E-001 
+9.81000000000E+009 -4.45177763700E-001 -5.77975332737E-001 -4.85063705128E-004 +2.09055584855E-003 -3.19525024679E-005 -1.33932808239E-005 +3.54492999613E-002 -1.18021093309E-001 
+1.00100000000E+010 -4.54809337854E-001 -5.73756635189E-001 +1.53508014046E-003 +1.10914255492E-003 -5.25756377101E-006 +6.67873064231E-006 +1.85220949352E-002 -1.25701323152E-001 
+1.02100000000E+010 -4.63518917561E-001 -5.69136857986E-001 +1.65262073278E-003 -8.42924579047E-004 +9.88467490970E-006 +9.35086518439E-006 +4.10667707911E-004 -1.32591828704E-001 
+1.04100000000E+010 -4.72157567739E-001 -5.65190672874E-001 -2.24583840463E-004 -1.76050397567E-003 +1.09049842649E-005 +1.54472727445E-005 -2.01543606818E-002 -1.37880221009E-001 
+1.06100000000E+010 -4.80520397425E-001 -5.61032295227E-001 -1.53438374400E-003 -4.80864982819E-004 -8.21810044727E-006 -3.60434969480E-005 -4.19299975038E-002 -1.40353992581E-001 
+1.08100000000E+010 -4.87736254930E-001 -5.57716369629E-001 -1.04947341606E-003 +1.17633852642E-003 +1.56048226927E-005 -1.40896490848E-005 -6.37160614133E-002 -1.39773905277E-001 
+1.10100000000E+010 -4.95245933533E-001 -5.53765356541E-001 +7.26945872884E-004 +1.34141289163E-003 +9.07948674467E-007 -3.33666503138E-005 -8.55449363589E-002 -1.36305809021E-001 
+1.12100000000E+010 -5.02187609673E-001 -5.50641715527E-001 +1.33651972283E-003 -1.24069687445E-004 -1.16237924885E-005 +1.51353324327E-005 -1.09387241304E-001 -1.30020946264E-001 
+1.14100000000E+010 -5.09468376637E-001 -5.46788394451E-001 +4.79324808111E-004 -1.23522907961E-003 -6.42438237719E-007 +7.84094208939E-006 -1.32372364402E-001 -1.19963496923E-001 
+1.16100000000E+010 -5.15058159828E-001 -5.43279290199E-001 -9.40978585277E-004 -8.20096815005E-004 -3.19645660056E-005 +9.41537382460E-006 -1.54558077455E-001 -1.06412447989E-001 
+1.18100000000E+010 -5.21110415459E-001 -5.39793193340E-001 -1.10903463792E-003 +5.06805721670E-004 -1.01838732007E-005 -7.45662373447E-006 -1.73836663365E-001 -8.95155742764E-002 
+1.20100000000E+010 -5.27227461338E-001 -5.35984218121E-001 -1.14435770229E-005 +1.13142770715E-003 +1.90822083823E-005 -1.34278861879E-005 -1.90768301487E-001 -7.01472759247E-002 
+1.22100000000E+010 -5.33428370953E-001 -5.31830251217E-001 +1.06266303919E-003 +4.18991665356E-004 -3.58735087502E-005 +1.09854618131E-005 -2.07939118147E-001 -4.82835099101E-002 
+1.24100000000E+010 -5.38840055466E-001 -5.28164863586E-001 +6.89107400831E-004 -7.31291598640E-004 -1.05342032839E-005 -1.15726197691E-005 -2.22665756941E-001 -2.30577066541E-002 
+1.26100000000E+010 -5.44180214405E-001 -5.24443566799E-001 -3.38501093211E-004 -9.14183503482E-004 +2.18337081606E-005 -3.19485457112E-006 -2.32632011175E-001 +4.53466922045E-003 
+1.28100000000E+010 -5.49354970455E-001 -5.20517349243E-001 -9.13821335416E-004 -4.02226942242E-005 +1.80194177801E-007 -8.82993117557E-006 -2.39049702883E-001 +3.35122421384E-002 
+1.30100000000E+010 -5.54493248463E-001 -5.16049563885E-001 -3.65014653653E-004 +7.88596284110E-004 +2.40718463829E-006 -1.15740149340E-005 -2.42712348700E-001 +6.33841529489E-002 
+1.32100000000E+010 -5.59202671051E-001 -5.12022435665E-001 +5.59783948120E-004 +6.72242080327E-004 +4.55758083717E-007 -2.56296243606E-005 -2.43115961552E-001 +9.49143171310E-002 
+1.34100000000E+010 -5.63895821571E-001 -5.07363557816E-001 +7.95369094703E-004 -2.29267752729E-004 -1.36771568577E-005 -5.03458250023E-006 -2.39515259862E-001 +1.26778155565E-001 
+1.36100000000E+010 -5.66583335400E-001 -5.03267705441E-001 +7.11487082299E-005 -7.90433667134E-004 -1.80390252353E-005 +9.62183548836E-006 -2.31434375048E-001 +1.59572839737E-001 
+1.38100000000E+010 -5.71316421032E-001 -5.00068545341E-001 -6.40742830001E-004 -4.06366278185E-004 +7.00763193890E-005 -5.07875593030E-005 -2.18318343163E-001 +1.91309243441E-001 
+1.40100000000E+010 -5.75937747955E-001 -4.96485382318E-001 -5.61002816539E-004 +4.71516454127E-004 +3.70605848730E-005 -1.48020235429E-005 -2.01618537307E-001 +2.22239390016E-001 
+1.42100000000E+010 -5.80111384392E-001 -4.93083566427E-001 +1.90414779354E-004 +6.45046820864E-004 +5.54083908355E-006 +5.59586405871E-005 -1.81142210960E-001 +2.53385722637E-001 
+1.44100000000E+010 -5.84501683712E-001 -4.88971710205E-001 +6.29056245089E-004 +1.28850588226E-004 -1.01539726529E-005 +5.90754007135E-006 -1.55503213406E-001 +2.81917423010E-001 
+1.46100000000E+010 -5.87767958641E-001 -4.85474914312E-001 +3.22026782669E-004 -5.56862039957E-004 -1.21554221550E-005 -3.56577606908E-006 -1.24755658209E-001 +3.07222753763E-001 
+1.48100000000E+010 -5.90862035751E-001 -4.79678332806E-001 -3.41604871210E-004 -4.89808851853E-004 +1.19973610708E-005 -5.52164528926E-005 -9.17570292950E-002 +3.29200357199E-001 
+1.50100000000E+010 -5.92031419277E-001 -4.78482067585E-001 -5.95662975684E-004 +9.92018467514E-005 +1.99249589059E-005 +5.61802622201E-008 -5.60648329556E-002 +3.48395913839E-001 
+1.52100000000E+010 -5.94479084015E-001 -4.77518081665E-001 -1.39745374327E-004 +5.35329687409E-004 -3.10152718157E-005 -1.99004261958E-005 -1.72425918281E-002 +3.63502711058E-001 
+1.54100000000E+010 -5.97740232944E-001 -4.75328326225E-001 +4.42951510195E-004 +2.97263235552E-004 +4.50216430181E-006 -3.29502909153E-005 +2.49751918018E-002 +3.73417735100E-001 
+1.56100000000E+010 -6.01192176342E-001 -4.71494466066E-001 +4.70618368126E-004 -2.63769557932E-004 +5.34322025487E-005 -8.23961363494E-006 +6.87606632710E-002 +3.77467572689E-001 
+1.58100000000E+010 -6.02218210697E-001 -4.70595210791E-001 -2.24758114200E-005 -5.14150829986E-004 -1.30077523863E-005 +1.57887211572E-006 +1.12302094698E-001 +3.78076225519E-001 
+1.60100000000E+010 -6.04422748089E-001 -4.68983143568E-001 -4.25886159064E-004 -1.58443450346E-004 -7.30569809093E-006 -1.03700358522E-005 +1.57403364778E-001 +3.73204678297E-001 
+1.62100000000E+010 -6.06586933136E-001 -4.67210143805E-001 -2.76865204796E-004 +3.22801875882E-004 +2.24279483518E-005 +2.80902950180E-005 +2.04642295837E-001 +3.62936884165E-001 
+1.64100000000E+010 -6.08430862427E-001 -4.65545982122E-001 +2.31787416851E-004 +3.95450217184E-004 -3.73947186745E-005 -2.37733875110E-005 +2.51403838396E-001 +3.46746146679E-001 
+1.66100000000E+010 -6.11827194691E-001 -4.63918685913E-001 +4.19099233113E-004 -3.00122792396E-005 -5.22779082530E-005 -1.75929963007E-005 +2.95168131590E-001 +3.22859346867E-001 
+1.68100000000E+010 -6.14981293678E-001 -4.61428642273E-001 +1.97322238819E-004 -4.15086396970E-004 +5.41668578080E-006 +3.20628441841E-006 +3.38064193726E-001 +2.95374870300E-001 
+1.70100000000E+010 -6.16925954819E-001 -4.59190726280E-001 -3.23921296513E-004 -2.83209112240E-004 +5.08390758114E-006 +3.27725786065E-007 +3.77893388271E-001 +2.64004856348E-001 
+1.72100000000E+010 -6.19303703308E-001 -4.56924527884E-001 -3.28090973198E-004 +1.39808194945E-004 +1.60757026606E-005 -8.92038406164E-006 +4.15160685778E-001 +2.25474730134E-001 
+1.74100000000E+010 -6.22320175171E-001 -4.54989969730E-001 -5.89365699852E-005 +3.11373471050E-004 +4.33951790910E-005 -2.68245439656E-005 +4.48325634003E-001 +1.82755514979E-001 
+1.76100000000E+010 -6.25013649464E-001 -4.52779054642E-001 +3.17100668326E-004 +1.48397884914E-004 +8.86125126272E-005 +2.56593211816E-005 +4.76251453161E-001 +1.36901915073E-001 
+1.78100000000E+010 -6.27966284752E-001 -4.50579226017E-001 +1.63411299582E-004 -1.67311387486E-004 -7.52897540224E-005 +1.24713551486E-005 +4.99773651361E-001 +8.82312804461E-002 
+1.80100000000E+010 -6.30434155464E-001 -4.48227137327E-001 -9.64095161180E-005 -2.96102312859E-004 +4.01189608965E-005 +8.67252492753E-006 +5.18772721291E-001 +3.70975658298E-002 
+1.82100000000E+010 -6.33201956749E-001 -4.46331590414E-001 -2.99757346511E-004 -4.97516230098E-005 -4.55975823570E-005 -3.66795029549E-005 +5.31756281853E-001 -1.73614472151E-002 
+1.84100000000E+010 -6.35976195335E-001 -4.44713056087E-001 -9.75585717242E-005 +2.20961213927E-004 +1.04228984128E-005 -1.67848011188E-005 +5.38055002689E-001 -7.45119005442E-002 
+1.86100000000E+010 -6.39194726944E-001 -4.42510366440E-001 +1.58187904162E-004 +2.28667850024E-004 -1.36000408020E-005 +8.25057213660E-007 +5.37772715092E-001 -1.31098583341E-001 
+1.88100000000E+010 -6.41832888126E-001 -4.40015017986E-001 +2.53913720371E-004 -7.10998428985E-005 +9.32643160922E-006 -2.16406606341E-005 +5.31817913055E-001 -1.87305450439E-001 
+1.90100000000E+010 -6.43598616123E-001 -4.37897473574E-001 +7.87370809121E-005 -2.82781053102E-004 +8.30578483146E-006 -2.68633539235E-005 +5.20293116570E-001 -2.43247821927E-001 
+1.92100000000E+010 -6.45878136158E-001 -4.36772584915E-001 -2.30710458709E-004 -1.62090524100E-004 -1.85804346984E-005 +2.75256006717E-005 +5.02324581146E-001 -3.00167173147E-001 
+1.94100000000E+010 -6.48557245731E-001 -4.34847056866E-001 -1.73991895281E-004 +1.84372314834E-004 +3.84852355637E-005 +2.50932566814E-006 +4.76970434189E-001 -3.54973912239E-001 
+1.96100000000E+010 -6.49676203728E-001 -4.32572573423E-001 +3.77440628654E-005 +2.74846330285E-004 +5.53725913051E-005 -5.71913951717E-005 +4.46228474379E-001 -4.06823039055E-001 
+1.98100000000E+010 -6.49508178234E-001 -4.29628312588E-001 +2.24196977797E-004 +8.86578054633E-005 +1.25716633192E-005 -2.23031147470E-005 +4.11309331656E-001 -4.54077810049E-001 
+2.00100000000E+010 -6.48922026157E-001 -4.28156226873E-001 +1.37258903123E-004 -2.12762199226E-004 +3.24276479660E-005 +4.60000155726E-005 +3.69708240032E-001 -5.00326693058E-001 
