!;Filter: kein Filter
!auto
!3/21/2019 9:25:24 AM
!3/21/2019 9:25:40 AM
!SP-Measurements Prober G4
!SP-Measurements Prober G4
!01103_448C
!134
!237
!12
!60
!-20
!0.00399976
!1.88
!0.54220246
!0.54220246
# Hz S  RI   R 50
+1.00000000000E+007 +1.25073567033E-001 +8.10918118805E-003 +6.48150146008E-002 -2.58816853166E-002 -2.29705809033E-004 +4.83530806378E-004 +5.04372222349E-003 +1.59355183132E-003 
+2.10000000000E+008 +1.42785638571E-001 -2.26286929101E-002 -2.72562797181E-003 -6.74198195338E-002 -1.07172772914E-005 -3.67990360246E-005 +8.71290080249E-003 -4.78498497978E-003 
+4.10000000000E+008 +1.43338456750E-001 -5.15256710351E-002 -6.30529150367E-002 -2.13467199355E-002 +4.14118767367E-005 -2.22218313866E-005 +1.00594023243E-002 -7.75723392144E-003 
+6.10000000000E+008 +1.40605285764E-001 -8.03003460169E-002 -4.18763346970E-002 +5.14686182141E-002 -5.24086362930E-006 +1.82360909093E-005 +9.62547957897E-003 -1.15535864606E-002 
+8.10000000000E+008 +1.35244756937E-001 -1.08008824289E-001 +3.27635109425E-002 +5.70557303727E-002 -1.90780538105E-005 +1.16234614325E-005 +7.19186244532E-003 -1.54099753127E-002 
+1.01000000000E+009 +1.28994554281E-001 -1.34602352977E-001 +6.59531280398E-002 -1.07665983960E-002 -1.89847480669E-006 +3.21893421642E-005 +2.78821215034E-003 -1.91400237381E-002 
+1.21000000000E+009 +1.19884856045E-001 -1.60632565618E-001 +1.34868789464E-002 -6.38766586781E-002 +7.31973477741E-006 +2.61937420873E-005 -1.82093598414E-003 -2.09895614535E-002 
+1.41000000000E+009 +1.10196560621E-001 -1.85747325420E-001 -5.53192347288E-002 -3.60874794424E-002 -1.02991371023E-005 -1.06383167804E-005 -7.57184438407E-003 -2.42862906307E-002 
+1.61000000000E+009 +9.97785255313E-002 -2.10913941264E-001 -5.27698397636E-002 +4.01298590004E-002 -1.29452500914E-005 -3.86770580008E-006 -1.35430879891E-002 -2.67536118627E-002 
+1.81000000000E+009 +8.66420418024E-002 -2.33697593212E-001 +1.70529466122E-002 +6.31772279739E-002 +2.14144038182E-005 +1.14741151265E-005 -1.77907403558E-002 -2.78203450143E-002 
+2.01000000000E+009 +7.40877836943E-002 -2.55729168653E-001 +6.66334554553E-002 +6.90212193877E-003 +3.56412215297E-006 +5.97903454036E-006 -2.30776015669E-002 -2.65160668641E-002 
+2.21000000000E+009 +5.97710311413E-002 -2.77289897203E-001 +2.91877742857E-002 -6.00211285055E-002 +9.96415565169E-006 -1.79704748007E-005 -2.86827571690E-002 -2.44905166328E-002 
+2.41000000000E+009 +4.46501933038E-002 -2.96398490667E-001 -4.47473376989E-002 -5.00988811255E-002 -4.74243506687E-006 +1.83666106750E-005 -3.53792570531E-002 -2.21631769091E-002 
+2.61000000000E+009 +2.98027768731E-002 -3.14899623394E-001 -6.48922845721E-002 +2.51656193286E-002 +2.02001538128E-005 -1.06527049866E-005 -4.06231805682E-002 -1.93277541548E-002 
+2.81000000000E+009 +1.36407827958E-002 -3.32397729158E-001 +1.62762135733E-003 +6.94656521082E-002 +5.30403849552E-006 -9.56508938543E-006 -4.46134246886E-002 -1.44806886092E-002 
+3.01000000000E+009 -2.52732634544E-003 -3.48041117191E-001 +6.63977116346E-002 +2.50372551382E-002 +1.53924302140E-005 -1.24728312585E-005 -4.84112799168E-002 -8.63397866488E-003 
+3.21000000000E+009 -1.85822751373E-002 -3.63406985998E-001 +4.79344688356E-002 -5.65887726843E-002 -1.99736859940E-005 +3.61227694157E-006 -5.22993579507E-002 -2.21028248779E-003 
+3.41000000000E+009 -3.52349281311E-002 -3.77616643906E-001 -3.67392227054E-002 -6.41029700637E-002 +2.53238158621E-005 +1.59160390467E-005 -5.52366487682E-002 +4.85300645232E-003 
+3.61000000000E+009 -5.15573285520E-002 -3.90586286783E-001 -7.58112892509E-002 +1.12458290532E-002 +6.48773175271E-006 -1.87036384887E-005 -5.70185631514E-002 +1.17040593177E-002 
+3.81000000000E+009 -6.82442486286E-002 -4.02966350317E-001 -1.43512943760E-002 +7.89692699909E-002 +1.06021734609E-005 -1.91240505956E-005 -5.68295530975E-002 +1.90393533558E-002 
+4.01000000000E+009 -8.48562717438E-002 -4.14303779602E-001 +6.97995573282E-002 +4.07445020974E-002 +7.16312842997E-006 +1.11816052595E-005 -5.57827576995E-002 +2.68649160862E-002 
+4.21000000000E+009 -1.01193562150E-001 -4.24636065960E-001 +6.62293508649E-002 -5.41616901755E-002 -2.55013674177E-005 -2.59796161117E-005 -5.38329109550E-002 +3.55134643614E-002 
+4.41000000000E+009 -1.17702603340E-001 -4.34608161449E-001 -3.40559072793E-002 -8.39328616858E-002 +4.84994370709E-006 +1.85183907320E-007 -5.07726445794E-002 +4.40317094326E-002 
+4.61000000000E+009 -1.34319752455E-001 -4.43301200867E-001 -9.18210893869E-002 +5.53302606568E-003 -9.73256283032E-006 +2.97105458458E-007 -4.65043261647E-002 +5.14019615948E-002 
+4.81000000000E+009 -1.50561630726E-001 -4.51683163643E-001 -2.52776946872E-002 +9.60132256150E-002 +2.48721935350E-005 -8.83873781277E-006 -3.99254076183E-002 +5.84877654910E-002 
+5.01000000000E+009 -1.67399168015E-001 -4.59978044033E-001 +9.17965024710E-002 +4.93616610765E-002 +2.64539230557E-005 -1.44889545481E-005 -3.33168655634E-002 +6.50853887200E-002 
+5.21000000000E+009 -1.83946162462E-001 -4.66660916805E-001 +7.28875324130E-002 -7.33345523477E-002 -2.48742071562E-006 -5.73885881749E-006 -2.57951486856E-002 +7.09953531623E-002 
+5.41000000000E+009 -2.00461566448E-001 -4.72762703896E-001 -5.61791695654E-002 -9.36803743243E-002 -2.39011988015E-005 -1.64595894603E-005 -1.70856434852E-002 +7.63767808676E-002 
+5.61000000000E+009 -2.17867344618E-001 -4.77565407753E-001 -9.93548184633E-002 +3.64961326122E-002 -7.02318459389E-007 +7.85537054071E-007 -7.51814618707E-003 +7.94800519943E-002 
+5.81000000000E+009 -2.33303576708E-001 -4.80884373188E-001 +5.84558723494E-003 +9.99700874090E-002 +1.26678169181E-005 +1.36553899210E-005 +3.11973784119E-003 +8.02870169282E-002 
+6.01000000000E+009 -2.48756378889E-001 -4.83582615852E-001 +9.70456823707E-002 +1.53288850561E-002 +1.33183120852E-005 -1.71346091520E-005 +1.41166429967E-002 +8.22598263621E-002 
+6.21000000000E+009 -2.63437300920E-001 -4.84947055578E-001 +3.24105508626E-002 -8.02505612373E-002 -1.32830027724E-005 -2.34017970797E-005 +2.47754994780E-002 +8.18383246660E-002 
+6.41000000000E+009 -2.76741534472E-001 -4.86627161503E-001 -6.02944903076E-002 -5.16557358205E-002 -9.66562083704E-007 +6.66321011522E-006 +3.63871343434E-002 +7.99375921488E-002 
+6.61000000000E+009 -2.90329426527E-001 -4.87794816494E-001 -5.95498122275E-002 +4.20197509229E-002 -2.60533415712E-005 +3.66666208720E-005 +4.75505515933E-002 +7.48062357306E-002 
+6.81000000000E+009 -3.03041994572E-001 -4.88619118929E-001 +1.86441168189E-002 +5.92009685934E-002 +1.89257957572E-006 -1.91825656657E-005 +5.82770481706E-002 +6.87546133995E-002 
+7.01000000000E+009 -3.15275579691E-001 -4.89623606205E-001 +5.71859069169E-002 +3.12103889883E-003 +4.42649798060E-006 -2.98113191093E-005 +6.80205300450E-002 +6.28300309181E-002 
+7.21000000000E+009 -3.27393770218E-001 -4.89991843700E-001 +1.75254400820E-002 -4.84780371189E-002 -1.29722548081E-005 +1.12710695248E-005 +7.73330181837E-002 +5.40995486081E-002 
+7.41000000000E+009 -3.38739305735E-001 -4.90716427565E-001 -3.39007116854E-002 -2.90542654693E-002 -2.80033000308E-005 +7.56649023970E-006 +8.64724740386E-002 +4.38291244209E-002 
+7.61000000000E+009 -3.49674969912E-001 -4.90924060345E-001 -3.66600714624E-002 +1.97237785906E-002 -1.52823431563E-005 +1.22294404719E-005 +9.27685648203E-002 +3.18215377629E-002 
+7.81000000000E+009 -3.60943317413E-001 -4.90539610386E-001 +6.37371279299E-003 +3.68949174881E-002 -3.18795878229E-006 -4.10930351791E-006 +9.81416031718E-002 +1.97007507086E-002 
+8.01000000000E+009 -3.71246606112E-001 -4.90246027708E-001 +3.22990976274E-002 +7.02734617516E-003 +9.98158066068E-006 -3.30274706357E-005 +1.01919747889E-001 +5.92134054750E-003 
+8.21000000000E+009 -3.81668210030E-001 -4.89651739597E-001 +1.71074662358E-002 -2.54419948906E-002 -7.49182390791E-006 -1.47202263179E-005 +1.04053072631E-001 -8.29030107707E-003 
+8.41000000000E+009 -3.91794949770E-001 -4.88631546497E-001 -1.61486938596E-002 -2.24629845470E-002 +4.69600627184E-006 +3.13123314299E-006 +1.03456720710E-001 -2.34940014780E-002 
+8.61000000000E+009 -4.01719182730E-001 -4.87966209650E-001 -2.44287494570E-002 +5.41849434376E-003 -4.23464962296E-006 -1.53884357132E-005 +1.00145094097E-001 -3.88426966965E-002 
+8.81000000000E+009 -4.11279320717E-001 -4.87022787333E-001 -3.83802433498E-003 +2.33637783676E-002 +3.96433788410E-005 +9.18727073440E-006 +9.48858857155E-002 -5.42735643685E-002 
+9.01000000000E+009 -4.20565664768E-001 -4.85793739557E-001 +1.85621418059E-002 +1.08007807285E-002 +4.29847841588E-006 -3.02009038933E-006 +8.82961452007E-002 -6.80365338922E-002 
+9.21000000000E+009 -4.29713308811E-001 -4.84586924314E-001 +1.58969480544E-002 -1.16160744801E-002 +4.66608207716E-006 -4.46810508947E-006 +7.83903449774E-002 -8.27746242285E-002 
+9.41000000000E+009 -4.38286602497E-001 -4.83480900526E-001 -4.65126428753E-003 -1.80731080472E-002 -3.63988547178E-005 +4.43829151209E-007 +6.59282207489E-002 -9.61929857731E-002 
+9.61000000000E+009 -4.46752488613E-001 -4.81812477112E-001 -1.68194603175E-002 -2.16650916263E-003 -8.69481937116E-006 +1.37010129038E-005 +5.07276654243E-002 -1.08356140554E-001 
+9.81000000000E+009 -4.54743683338E-001 -4.80995774269E-001 -8.21351725608E-003 +1.35431447998E-002 -1.30475007154E-006 +8.80130119185E-006 +3.54949645698E-002 -1.17703966796E-001 
+1.00100000000E+010 -4.63211238384E-001 -4.79236274958E-001 +8.97280499339E-003 +1.20329959318E-002 +1.20516087918E-005 -6.23895232366E-007 +1.86249949038E-002 -1.25333741307E-001 
+1.02100000000E+010 -4.70878720284E-001 -4.77161169052E-001 +1.34372469038E-002 -3.37141496129E-003 -1.13715361749E-006 +1.10696464617E-005 +5.43764908798E-004 -1.32182389498E-001 
+1.04100000000E+010 -4.78537708521E-001 -4.75665569305E-001 +2.16502160765E-003 -1.29425609484E-002 +2.34071630985E-005 +1.34611591420E-005 -1.99628099799E-002 -1.37530967593E-001 
+1.06100000000E+010 -4.86043959856E-001 -4.73821938038E-001 -1.07558099553E-002 -6.51036947966E-003 +1.43246870721E-005 -2.25258190767E-006 -4.17157933116E-002 -1.40021800995E-001 
+1.08100000000E+010 -4.92415904999E-001 -4.72752422094E-001 -9.32415015996E-003 +6.88204728067E-003 -6.73817021379E-006 +1.92197535398E-006 -6.34928196669E-002 -1.39376878738E-001 
+1.10100000000E+010 -4.99279350042E-001 -4.71037536860E-001 +2.48769554310E-003 +1.07002230361E-002 -1.05962562884E-005 +1.96328755919E-007 -8.52515250444E-002 -1.35966762900E-001 
+1.12100000000E+010 -5.05500197411E-001 -4.70082849264E-001 +1.03162601590E-002 +1.63704971783E-003 +1.02357739706E-006 -3.95038259740E-005 -1.08975782990E-001 -1.29790008068E-001 
+1.14100000000E+010 -5.12174844742E-001 -4.68326210976E-001 +5.11691207066E-003 -8.29862989485E-003 +9.14457177714E-006 +3.80605638384E-006 -1.31994470954E-001 -1.19729392231E-001 
+1.16100000000E+010 -5.17375469208E-001 -4.66939151287E-001 -5.26101747528E-003 -7.60790146887E-003 +6.73521162753E-006 -3.18576894642E-005 -1.54049858451E-001 -1.06218509376E-001 
+1.18100000000E+010 -5.23039817810E-001 -4.65334743261E-001 -8.60396027565E-003 +1.96919240989E-003 -1.18599682537E-005 -9.77515901468E-006 -1.73326775432E-001 -8.93793329597E-002 
+1.20100000000E+010 -5.28744697571E-001 -4.63421016932E-001 -1.42953568138E-003 +8.07419046760E-003 +1.60600102390E-005 -1.57805952767E-005 -1.90250650048E-001 -7.01396167278E-002 
+1.22100000000E+010 -5.34535169601E-001 -4.61190164089E-001 +6.55328854918E-003 +4.35013975948E-003 -4.93350444231E-006 -5.76185357204E-006 -2.07442224026E-001 -4.83130328357E-002 
+1.24100000000E+010 -5.39785027504E-001 -4.59444284439E-001 +6.16959948093E-003 -4.22641588375E-003 -1.62379692483E-005 -4.28148524634E-007 -2.22213894129E-001 -2.31556948274E-002 
+1.26100000000E+010 -5.45039117336E-001 -4.57509011030E-001 -1.38708564918E-003 -6.86369370669E-003 +6.67775793772E-006 -4.27577060691E-006 -2.32148721814E-001 +4.36036894098E-003 
+1.28100000000E+010 -5.50224959850E-001 -4.55435812473E-001 -6.57661957666E-003 -1.41992897261E-003 -4.69316801173E-005 -3.21807738146E-006 -2.38586604595E-001 +3.32151465118E-002 
+1.30100000000E+010 -5.55297434330E-001 -4.52685445547E-001 -3.60513245687E-003 +5.27568906546E-003 +1.52992997755E-005 -1.57719587150E-005 -2.42268413305E-001 +6.30649477243E-002 
+1.32100000000E+010 -5.60049474239E-001 -4.50303196907E-001 +3.19279730320E-003 +5.07483258843E-003 -1.21933308037E-005 -1.65575165738E-005 -2.42713883519E-001 +9.44936946034E-002 
+1.34100000000E+010 -5.64905703068E-001 -4.47258085012E-001 +5.73043106124E-003 -8.86469963007E-004 -5.76972297495E-006 +5.22095149336E-008 -2.39167511463E-001 +1.26335829496E-001 
+1.36100000000E+010 -5.67724287510E-001 -4.44749236107E-001 +1.24670192599E-003 -5.33897057176E-003 +1.49152583617E-005 +2.61564528046E-005 -2.31173723936E-001 +1.59077718854E-001 
+1.38100000000E+010 -5.72660446167E-001 -4.42916840315E-001 -4.14415076375E-003 -3.09891765937E-003 +1.95038023776E-006 +2.85356890117E-007 -2.18072235584E-001 +1.90781652927E-001 
+1.40100000000E+010 -5.77461659908E-001 -4.40674781799E-001 -4.37491992489E-003 +2.51363962889E-003 -2.00599097298E-005 -1.08198664748E-005 -2.01506033540E-001 +2.21634224057E-001 
+1.42100000000E+010 -5.81928908825E-001 -4.38553899527E-001 +5.92205440626E-004 +4.72407042980E-003 -1.50598061737E-005 +1.08777003334E-005 -1.81065246463E-001 +2.52760589123E-001 
+1.44100000000E+010 -5.86578547955E-001 -4.35737490654E-001 +4.31632157415E-003 +1.26314407680E-003 -3.02748662762E-006 -2.43697631959E-005 -1.55523046851E-001 +2.81297236681E-001 
+1.46100000000E+010 -5.90259253979E-001 -4.33464884758E-001 +2.78320466168E-003 -3.38655267842E-003 +2.81197770846E-007 -1.67238376889E-005 -1.24810487032E-001 +3.06638717651E-001 
+1.48100000000E+010 -5.93885004520E-001 -4.28893893957E-001 -1.97147275321E-003 -3.61107429489E-003 +2.04581829166E-006 -1.43783017847E-005 -9.18691009283E-002 +3.28584730625E-001 
+1.50100000000E+010 -5.95521211624E-001 -4.28560137749E-001 -3.90290236101E-003 +2.51346937148E-004 -8.55689631862E-006 +1.36723092510E-005 -5.63288666308E-002 +3.47815215588E-001 
+1.52100000000E+010 -5.98482608795E-001 -4.28459912539E-001 -1.22996501159E-003 +3.61837423407E-003 +3.92455694964E-005 +1.10880846478E-005 -1.76240149885E-002 +3.62916886806E-001 
+1.54100000000E+010 -6.02162659168E-001 -4.26969349384E-001 +2.69948597997E-003 +2.37815128639E-003 +6.62030288368E-006 -1.01784316939E-005 +2.45315358043E-002 +3.72918933630E-001 
+1.56100000000E+010 -6.06137573719E-001 -4.23930555582E-001 +3.12310410663E-003 -1.39578396920E-003 -1.74188771780E-005 +2.62083231064E-005 +6.82490840554E-002 +3.77055972815E-001 
+1.58100000000E+010 -6.07556760311E-001 -4.23463582993E-001 -3.57088138117E-005 -3.32505116239E-003 -3.83843253076E-005 +1.31644026169E-006 +1.11774384975E-001 +3.77717733383E-001 
+1.60100000000E+010 -6.09951555729E-001 -4.22314554453E-001 -2.92836921290E-003 -1.16023398004E-003 -1.05922044895E-005 +5.05559000885E-006 +1.56778067350E-001 +3.72925251722E-001 
+1.62100000000E+010 -6.12374722958E-001 -4.21120852232E-001 -2.18621455133E-003 +2.12177378125E-003 +2.48940723395E-005 -2.00713329832E-005 +2.04041317105E-001 +3.62722903490E-001 
+1.64100000000E+010 -6.14520370960E-001 -4.19821232557E-001 +1.10283645336E-003 +2.74890800938E-003 -1.32976028908E-005 +4.19328944190E-006 +2.50662654638E-001 +3.46588343382E-001 
+1.66100000000E+010 -6.18095636368E-001 -4.18455153704E-001 +2.78351502493E-003 +8.55807447806E-005 -1.86260058399E-006 -1.28396250147E-005 +2.94385462999E-001 +3.22809785604E-001 
+1.68100000000E+010 -6.21275246143E-001 -4.16394829750E-001 +1.12742139027E-003 -2.43563787080E-003 +1.31400829559E-005 -1.06709403553E-005 +3.37226271629E-001 +2.95411288738E-001 
+1.70100000000E+010 -6.23265087605E-001 -4.14551734924E-001 -1.71529524960E-003 -1.95591407828E-003 +9.61776822805E-006 -1.45486237670E-005 +3.77130270004E-001 +2.64149546623E-001 
+1.72100000000E+010 -6.25781953335E-001 -4.12544161081E-001 -2.34160432592E-003 +7.79738766141E-004 +2.48184533120E-005 -2.65342569037E-005 +4.14503216743E-001 +2.25717037916E-001 
+1.74100000000E+010 -6.28702104092E-001 -4.10884886980E-001 -2.89466202958E-004 +2.36654561013E-003 +1.50830992425E-005 +9.79372907750E-006 +4.47727173567E-001 +1.83066636324E-001 
+1.76100000000E+010 -6.31382524967E-001 -4.08946931362E-001 +2.02313484624E-003 +1.09891744796E-003 -3.10643517878E-005 +9.23515835893E-006 +4.75638121367E-001 +1.37276291847E-001 
+1.78100000000E+010 -6.34272038937E-001 -4.07129794359E-001 +1.70579040423E-003 -1.38844735920E-003 -1.88126923604E-005 -9.06400430267E-007 +4.99279886484E-001 +8.86120349169E-002 
+1.80100000000E+010 -6.36613845825E-001 -4.05093967915E-001 -5.00016962178E-004 -2.08119140007E-003 +1.05869166873E-005 -5.10143991050E-006 +5.18358111382E-001 +3.76168414950E-002 
+1.82100000000E+010 -6.39282226563E-001 -4.03469324112E-001 -2.04850919545E-003 -3.21298663039E-004 -1.10567607408E-005 +1.63281401910E-005 +5.31417727470E-001 -1.67621299624E-002 
+1.84100000000E+010 -6.41912758350E-001 -4.02257055044E-001 -1.10715976916E-003 +1.72377109993E-003 -5.05210118718E-005 -8.11597237771E-006 +5.37755131721E-001 -7.38718956709E-002 
+1.86100000000E+010 -6.44962370396E-001 -4.00473773479E-001 +1.04559923057E-003 +1.64358667098E-003 +1.89164475159E-005 +3.21643301504E-006 +5.37546455860E-001 -1.30412802100E-001 
+1.88100000000E+010 -6.47334575653E-001 -3.98286551237E-001 +1.83504028246E-003 -3.48408066202E-004 -1.75377579126E-006 -2.86791619146E-005 +5.31683981419E-001 -1.86527013779E-001 
+1.90100000000E+010 -6.48999691010E-001 -3.96755069494E-001 +3.96202318370E-004 -1.70110922772E-003 -3.83966034860E-005 -2.71580138360E-005 +5.20246803761E-001 -2.42501333356E-001 
+1.92100000000E+010 -6.51156127453E-001 -3.96102845669E-001 -1.37926382013E-003 -1.04577431921E-003 -1.72473883140E-005 -1.49221168613E-005 +5.02376079559E-001 -2.99484491348E-001 
+1.94100000000E+010 -6.53867840767E-001 -3.94404292107E-001 -1.43642153125E-003 +8.35976214148E-004 +6.73176009514E-006 +2.31553240155E-005 +4.77108746767E-001 -3.54260593653E-001 
+1.96100000000E+010 -6.54927134514E-001 -3.92267793417E-001 +2.14512401726E-004 +1.56796653755E-003 +2.50240445894E-005 -4.76894319945E-006 +4.46453630924E-001 -4.06184762716E-001 
+1.98100000000E+010 -6.54240727425E-001 -3.89345973730E-001 +1.51726917829E-003 +4.30021085776E-004 +2.12957493204E-005 +1.78200134542E-005 +4.11651700735E-001 -4.53402012587E-001 
+2.00100000000E+010 -6.52815818787E-001 -3.89116615057E-001 +9.43065911997E-004 -1.14138692152E-003 -4.10457641919E-006 -1.58378898050E-005 +3.69979590178E-001 -4.99625027180E-001 
