!;Filter: kein Filter
!auto
!3/21/2019 9:26:52 AM
!3/21/2019 9:27:07 AM
!SP-Measurements Prober G4
!SP-Measurements Prober G4
!01103_448C
!134
!237
!12
!60
!-20
!0.00199954
!1.75
!0.22129449
!0.22129449
# Hz S  RI   R 50
+1.00000000000E+007 +2.26419463754E-001 +7.72852171212E-003 +6.19225613773E-002 -2.54886504263E-002 +4.57331363577E-004 -3.58973193215E-004 +4.77988692001E-003 +1.02052127477E-003 
+2.10000000000E+008 +2.38214239478E-001 -3.19004878402E-002 -5.05328970030E-003 -6.41821548343E-002 -2.27678065130E-005 +5.26350158907E-005 +8.77022743225E-003 -4.78210905567E-003 
+4.10000000000E+008 +2.36379817128E-001 -6.74543380737E-002 -6.08662664890E-002 -1.55267650262E-002 -5.30383258592E-005 -5.01732829434E-005 +1.01124802604E-002 -7.80711276457E-003 
+6.10000000000E+008 +2.30450689793E-001 -1.03623956442E-001 -3.32915559411E-002 +4.99140843749E-002 -8.42580357130E-006 -4.09555468650E-005 +9.63472574949E-003 -1.15388957784E-002 
+8.10000000000E+008 +2.19925478101E-001 -1.36912524700E-001 +3.40768471360E-002 +4.75987866521E-002 -2.59088460552E-006 +5.47566833120E-006 +7.20775313675E-003 -1.54776945710E-002 
+1.01000000000E+009 +2.08268895745E-001 -1.67416796088E-001 +5.58448061347E-002 -1.49010000750E-002 -1.28003775899E-005 -1.67628677445E-005 +2.82708927989E-003 -1.91811453551E-002 
+1.21000000000E+009 +1.95075526834E-001 -1.96407079697E-001 +6.33030291647E-003 -5.64530752599E-002 +1.56846381287E-005 -1.38394725582E-005 -1.78049842361E-003 -2.10496298969E-002 
+1.41000000000E+009 +1.80904030800E-001 -2.23511427641E-001 -5.08578717709E-002 -2.70523820072E-002 -2.00662793759E-006 -8.70341045811E-006 -7.52589711919E-003 -2.43387240916E-002 
+1.61000000000E+009 +1.67112231255E-001 -2.49396532774E-001 -4.42294068635E-002 +3.91464792192E-002 -1.08570648081E-005 -1.42358394442E-005 -1.35737108067E-002 -2.68208701164E-002 
+1.81000000000E+009 +1.51236578822E-001 -2.74511545897E-001 +2.11165118963E-002 +5.55221475661E-002 -7.75296575739E-006 +1.12654188342E-005 -1.77855249494E-002 -2.78699956834E-002 
+2.01000000000E+009 +1.35455951095E-001 -2.97879546881E-001 +6.16712532938E-002 +6.14951932221E-005 -1.77611836989E-005 +1.37650013130E-005 -2.30913925916E-002 -2.65497975051E-002 
+2.21000000000E+009 +1.19075104594E-001 -3.20397496223E-001 +2.19954587519E-002 -6.06997907162E-002 -1.48436702148E-005 +1.38006987527E-006 -2.86855287850E-002 -2.45141331106E-002 
+2.41000000000E+009 +1.00966371596E-001 -3.41514229774E-001 -5.01150004566E-002 -4.23478111625E-002 -6.02135805821E-005 -3.98725796913E-006 -3.53895798326E-002 -2.21589989960E-002 
+2.61000000000E+009 +8.34390670061E-002 -3.60751450062E-001 -6.16435408592E-002 +3.39371077716E-002 -7.30964393370E-006 +1.54484644099E-006 -4.06800210476E-002 -1.93598270416E-002 
+2.81000000000E+009 +6.62112981081E-002 -3.79692047834E-001 +1.49857904762E-002 +7.61844068766E-002 +7.12117298463E-006 +2.13193488889E-005 -4.46765795350E-002 -1.45259629935E-002 
+3.01000000000E+009 +4.71340231597E-002 -3.97554993629E-001 +7.99277201295E-002 +9.85182542354E-003 +1.44922287291E-005 -3.21413790516E-005 -4.84020374715E-002 -8.63896775991E-003 
+3.21000000000E+009 +2.89746299386E-002 -4.14607793093E-001 +3.65572310984E-002 -8.18832293153E-002 +1.23401550809E-005 -6.23561663815E-006 -5.23247309029E-002 -2.23890552297E-003 
+3.41000000000E+009 +1.05132600293E-002 -4.32651519775E-001 -8.24636369944E-002 -5.93905225396E-002 -6.47772822049E-006 +9.27739347389E-006 -5.52670061588E-002 +4.84310369939E-003 
+3.61000000000E+009 -1.05493925512E-002 -4.48954075575E-001 -7.89094194770E-002 +7.09626972675E-002 -6.60161867927E-006 +8.67321887199E-006 -5.71036525071E-002 +1.17116384208E-002 
+3.81000000000E+009 -3.38658280671E-002 -4.64311599731E-001 +6.32246434689E-002 +9.13272798061E-002 -2.56147213804E-005 +3.63235380973E-006 -5.69028556347E-002 +1.90673861653E-002 
+4.01000000000E+009 -5.82762248814E-002 -4.77034419775E-001 +9.85869690776E-002 -5.46023398638E-002 -1.00929701148E-005 +5.26419280504E-005 -5.58130033314E-002 +2.69289650023E-002 
+4.21000000000E+009 -8.14263448119E-002 -4.84649598598E-001 -3.15578430891E-002 -9.77082327008E-002 -5.30555325895E-006 +1.01094756246E-005 -5.38544133306E-002 +3.56131829321E-002 
+4.41000000000E+009 -1.03466160595E-001 -4.90509718657E-001 -9.36490520835E-002 +1.31871709600E-002 -1.39296716952E-005 +6.38743222225E-006 -5.07779084146E-002 +4.41302694380E-002 
+4.61000000000E+009 -1.23684242368E-001 -4.93991702795E-001 -4.94223902933E-004 +7.93180912733E-002 +3.51105381924E-006 -1.64864957242E-006 -4.65454868972E-002 +5.14340437949E-002 
+4.81000000000E+009 -1.40986815095E-001 -4.98421251774E-001 +6.32879734039E-002 +2.41038519889E-002 -2.84890188595E-006 -2.47458028753E-005 -3.99563461542E-002 +5.85706830025E-002 
+5.01000000000E+009 -1.58571362495E-001 -5.02694129944E-001 +3.41697223485E-002 -5.08280210197E-002 -1.87492753412E-006 +6.35252172287E-006 -3.33634279668E-002 +6.51521831751E-002 
+5.21000000000E+009 -1.74524724483E-001 -5.06378829479E-001 -3.06768827140E-002 -3.65334749222E-002 -5.34916216566E-006 +1.36148457841E-006 -2.58129313588E-002 +7.10838437080E-002 
+5.41000000000E+009 -1.90276995301E-001 -5.10449707508E-001 -4.05692905188E-002 +1.14473877475E-002 -3.03535252897E-005 -1.88584817806E-005 -1.70757621527E-002 +7.64795765281E-002 
+5.61000000000E+009 -2.06629395485E-001 -5.14000952244E-001 -1.91547209397E-004 +3.84002514184E-002 -4.41333895651E-006 -1.34183637783E-005 -7.50621035695E-003 +7.95788690448E-002 
+5.81000000000E+009 -2.21622332931E-001 -5.16869068146E-001 +2.90363710374E-002 +1.08039360493E-002 +4.49932571200E-007 -5.90567060499E-006 +3.17002506927E-003 +8.04192498326E-002 
+6.01000000000E+009 -2.36524552107E-001 -5.19503474236E-001 +2.00103372335E-002 -1.98649708182E-002 -7.99374902272E-006 -3.85006887882E-006 +1.41273243353E-002 +8.23742747307E-002 
+6.21000000000E+009 -2.51455724239E-001 -5.21395027637E-001 -1.16813816130E-002 -2.32024863362E-002 +4.16066177422E-006 -1.19894084492E-005 +2.48486362398E-002 +8.19282457232E-002 
+6.41000000000E+009 -2.65372872353E-001 -5.23063540459E-001 -2.14472878724E-002 +2.09988863207E-003 +4.91736273034E-006 -1.51004996951E-005 +3.64709384739E-002 +8.00375342369E-002 
+6.61000000000E+009 -2.79665201902E-001 -5.24508655071E-001 -6.70575303957E-003 +1.88055988401E-002 +4.66618621431E-006 +7.33090291760E-006 +4.76548746228E-002 +7.48861730099E-002 
+6.81000000000E+009 -2.93597251177E-001 -5.25377094746E-001 +1.44704980776E-002 +1.15660959855E-002 +2.31957278629E-006 -1.22436767924E-005 +5.83459697664E-002 +6.88067749143E-002 
+7.01000000000E+009 -3.06849777699E-001 -5.26050627232E-001 +1.38186048716E-002 -7.67361279577E-003 +2.20927813643E-005 -2.68170169875E-005 +6.81213811040E-002 +6.28650262952E-002 
+7.21000000000E+009 -3.19998443127E-001 -5.26260256767E-001 -1.05736730620E-003 -1.48351844400E-002 +4.91099535793E-006 -8.82252606971E-006 +7.74117037654E-002 +5.40844909847E-002 
+7.41000000000E+009 -3.32580596209E-001 -5.26456177235E-001 -1.33747002110E-002 -3.75759182498E-003 -2.30087152886E-006 -1.19315041047E-006 +8.66080746055E-002 +4.38474938273E-002 
+7.61000000000E+009 -3.44399958849E-001 -5.26096403599E-001 -7.50164035708E-003 +9.51334275305E-003 -1.16539649753E-005 +2.32371603488E-005 +9.29082557559E-002 +3.17921228707E-002 
+7.81000000000E+009 -3.56625318527E-001 -5.25184988976E-001 +5.14963036403E-003 +1.02321589366E-002 -6.52714743410E-006 -7.62155696066E-006 +9.82532650232E-002 +1.96304041892E-002 
+8.01000000000E+009 -3.67932856083E-001 -5.24222850800E-001 +1.07403434813E-002 -1.25661154743E-003 -1.98986049327E-006 +2.93046214210E-005 +1.02041617036E-001 +5.82283502445E-003 
+8.21000000000E+009 -3.79079610109E-001 -5.22983133793E-001 +2.71699647419E-003 -9.12051927298E-003 -1.43819534060E-005 -2.64966593022E-006 +1.04164086282E-001 -8.36454425007E-003 
+8.41000000000E+009 -3.90023350716E-001 -5.21297633648E-001 -6.79956749082E-003 -5.98382763565E-003 -1.79061189556E-005 -1.79474191100E-005 +1.03581458330E-001 -2.35787983984E-002 
+8.61000000000E+009 -4.00685012341E-001 -5.19855976105E-001 -7.56310857832E-003 +4.08324925229E-003 -2.69251290774E-006 -2.26831671171E-005 +1.00257784128E-001 -3.89448292553E-002 
+8.81000000000E+009 -4.10854190588E-001 -5.18228590488E-001 +7.01967044733E-004 +7.65893002972E-003 -2.16925485574E-007 +1.39231659091E-007 +9.49437096715E-002 -5.43915107846E-002 
+9.01000000000E+009 -4.20854985714E-001 -5.16329050064E-001 +6.96155242622E-003 +2.44225095958E-003 -1.58390848810E-005 +2.36269715970E-005 +8.83842334151E-002 -6.81704208255E-002 
+9.21000000000E+009 -4.30556893349E-001 -5.14383137226E-001 +4.51709050685E-003 -5.34047326073E-003 +1.00850302260E-005 -5.26061194250E-006 +7.84566774964E-002 -8.29371511936E-002 
+9.41000000000E+009 -4.39620405436E-001 -5.12558162212E-001 -2.82242218964E-003 -5.62481489033E-003 +3.40752412740E-005 -3.07619811792E-005 +6.59421980381E-002 -9.63863655925E-002 
+9.61000000000E+009 -4.48578894138E-001 -5.10221421719E-001 -6.06424827129E-003 +2.05616481253E-004 -1.74907163455E-005 +5.93156741502E-008 +5.07088154554E-002 -1.08584240079E-001 
+9.81000000000E+009 -4.57035332918E-001 -5.08726477623E-001 -1.86108972412E-003 +5.44053222984E-003 -2.04632633540E-005 -1.77041401912E-005 +3.54616343975E-002 -1.17864906788E-001 
+1.00100000000E+010 -4.65870946646E-001 -5.06346106529E-001 +3.87695059180E-003 +3.56491236016E-003 +1.95090456145E-006 -9.59103999776E-006 +1.85451488942E-002 -1.25509679317E-001 
+1.02100000000E+010 -4.73929673433E-001 -5.03602981567E-001 +4.62888740003E-003 -1.98257947341E-003 +1.15063585326E-005 -2.01785933314E-005 +4.40879346570E-004 -1.32375553250E-001 
+1.04100000000E+010 -4.81987059116E-001 -5.01361668110E-001 -1.76696092240E-004 -4.80007147416E-003 +3.35855547746E-005 +1.25518117784E-005 -2.00872458518E-002 -1.37737110257E-001 
+1.06100000000E+010 -4.89754259586E-001 -4.98913347721E-001 -4.07876772806E-003 -1.60883355420E-003 -2.93146058539E-005 -1.22045839817E-005 -4.18466813862E-002 -1.40175148845E-001 
+1.08100000000E+010 -4.96431678534E-001 -4.97252702713E-001 -3.03654209711E-003 +2.95828678645E-003 +1.01089644886E-005 -1.31661954583E-005 -6.36767670512E-002 -1.39576122165E-001 
+1.10100000000E+010 -5.03502309322E-001 -4.94906932116E-001 +1.58097292297E-003 +3.75730451196E-003 +1.72402669705E-005 -5.31052683073E-006 -8.54477733374E-002 -1.36078447104E-001 
+1.12100000000E+010 -5.09995043278E-001 -4.93383049965E-001 +3.72349726968E-003 +6.61009180476E-005 +1.02494550447E-005 -6.80165112499E-006 -1.09203502536E-001 -1.29897996783E-001 
+1.14100000000E+010 -5.16918778419E-001 -4.91061538458E-001 +1.50751636829E-003 -3.28763015568E-003 +2.36689647863E-005 -3.17204467137E-006 -1.32217288017E-001 -1.19775168598E-001 
+1.16100000000E+010 -5.22304296494E-001 -4.89056974649E-001 -2.39809229970E-003 -2.48147174716E-003 +2.59241478489E-005 +3.99317696065E-006 -1.54295116663E-001 -1.06291614473E-001 
+1.18100000000E+010 -5.28168022633E-001 -4.86948192120E-001 -3.01276403479E-003 +1.06647657230E-003 -3.58120269084E-005 +1.89899492398E-005 -1.73566550016E-001 -8.93668085337E-002 
+1.20100000000E+010 -5.34013748169E-001 -4.84516113997E-001 -2.27389376960E-004 +3.06340493262E-003 -1.91067538253E-005 -3.45567309523E-006 -1.90463244915E-001 -7.00883045793E-002 
+1.22100000000E+010 -5.39985418320E-001 -4.81759995222E-001 +2.63796653599E-003 +1.30314589478E-003 -1.92962852452E-006 +5.94688572164E-006 -2.07680791616E-001 -4.82794083655E-002 
+1.24100000000E+010 -5.45420050621E-001 -4.79509294033E-001 +2.05506384373E-003 -1.79248489439E-003 +1.89251943539E-006 -1.61411226145E-005 -2.22431689501E-001 -2.30718292296E-002 
+1.26100000000E+010 -5.50784885883E-001 -4.77097898722E-001 -7.51145533286E-004 -2.53053288907E-003 -2.59640128206E-005 -2.56627299677E-005 -2.32356235385E-001 +4.51773079112E-003 
+1.28100000000E+010 -5.56038439274E-001 -4.74521785975E-001 -2.53867171705E-003 -2.20254805754E-004 -1.16673822959E-006 -3.52901370206E-005 -2.38789081573E-001 +3.34355421364E-002 
+1.30100000000E+010 -5.61301290989E-001 -4.71331447363E-001 -1.14348204806E-003 +2.10591801442E-003 +7.91479487816E-006 +1.30233902382E-005 -2.42407381535E-001 +6.32628351450E-002 
+1.32100000000E+010 -5.66186964512E-001 -4.68502759933E-001 +1.37802213430E-003 +1.83078390546E-003 -3.30095354002E-005 +1.96433102246E-005 -2.42851495743E-001 +9.47121977806E-002 
+1.34100000000E+010 -5.71165442467E-001 -4.64950531721E-001 +2.13787727989E-003 -5.88508264627E-004 -1.15646353152E-005 +1.56538844749E-005 -2.39248409867E-001 +1.26626595855E-001 
+1.36100000000E+010 -5.74009895325E-001 -4.61990684271E-001 +3.09632276185E-004 -2.01239506714E-003 +4.27839449912E-006 +6.34070147498E-006 -2.31224551797E-001 +1.59397765994E-001 
+1.38100000000E+010 -5.78991532326E-001 -4.59784656763E-001 -1.66049110703E-003 -1.05588068254E-003 +1.65029196069E-005 +1.55437146532E-006 -2.18065723777E-001 +1.91114038229E-001 
+1.40100000000E+010 -5.83852946758E-001 -4.57116931677E-001 -1.58254697453E-003 +1.08809827361E-003 +4.76525565318E-006 +6.19715910943E-006 -2.01449006796E-001 +2.21923604608E-001 
+1.42100000000E+010 -5.88382959366E-001 -4.54612106085E-001 +3.65836458514E-004 +1.75857916474E-003 -2.12406994251E-005 +8.80576681084E-006 -1.80968716741E-001 +2.53051400185E-001 
+1.44100000000E+010 -5.93169391155E-001 -4.51418012381E-001 +1.69650174212E-003 +3.69347369997E-004 -7.91087404650E-006 +3.99690798076E-005 -1.55289068818E-001 +2.81614959240E-001 
+1.46100000000E+010 -5.96844673157E-001 -4.48728054762E-001 +9.64872888289E-004 -1.37070578057E-003 -3.85049997931E-006 -6.98567828294E-006 -1.24629966915E-001 +3.06876450777E-001 
+1.48100000000E+010 -6.00503683090E-001 -4.43727493286E-001 -8.25356983114E-004 -1.33868411649E-003 +5.71728560317E-006 -9.34106719797E-006 -9.16621908545E-002 +3.28818261623E-001 
+1.50100000000E+010 -6.02112412453E-001 -4.43024605513E-001 -1.50832731742E-003 +2.11057384149E-004 +4.05367836720E-006 +1.63901304973E-007 -5.60481436551E-002 +3.48007529974E-001 
+1.52100000000E+010 -6.05083227158E-001 -4.42549169064E-001 -4.27980296081E-004 +1.40987033956E-003 -3.53076643478E-006 +3.01593286167E-006 -1.72528065741E-002 +3.63070964813E-001 
+1.54100000000E+010 -6.08780205250E-001 -4.40767049789E-001 +1.11032719724E-003 +8.71495110914E-004 -2.29664965445E-005 -8.11308746052E-006 +2.48862914741E-002 +3.73046696186E-001 
+1.56100000000E+010 -6.12723529339E-001 -4.37360167503E-001 +1.20088527910E-003 -5.97616482992E-004 -3.33233991512E-008 +1.82380445040E-005 +6.86323642731E-002 +3.77137094736E-001 
+1.58100000000E+010 -6.14143013954E-001 -4.36559200287E-001 -1.10304288683E-004 -1.32533407304E-003 -2.21107911784E-005 +1.50164646584E-006 +1.12132407725E-001 +3.77753555775E-001 
+1.60100000000E+010 -6.16559326649E-001 -4.35155540705E-001 -1.18437712081E-003 -4.00340213673E-004 -2.28393546422E-005 +2.24191899179E-005 +1.57156392932E-001 +3.72911483049E-001 
+1.62100000000E+010 -6.18920922279E-001 -4.33663427830E-001 -8.40700755361E-004 +8.75170109794E-004 -2.04660932468E-006 -1.30141224872E-005 +2.04403132200E-001 +3.62598299980E-001 
+1.64100000000E+010 -6.21060371399E-001 -4.32104915380E-001 +5.28875796590E-004 +1.06194766704E-003 -7.32293210604E-006 -2.22667840717E-005 +2.51094520092E-001 +3.46440613270E-001 
+1.66100000000E+010 -6.24563336372E-001 -4.30444687605E-001 +1.10583379865E-003 -1.20911145132E-005 +4.49057297374E-005 -4.13690395362E-006 +2.94803678989E-001 +3.22572737932E-001 
+1.68100000000E+010 -6.27746164799E-001 -4.28039938211E-001 +3.97916766815E-004 -9.90541884676E-004 +2.14237279579E-005 -1.52982684085E-005 +3.37583303452E-001 +2.95177012682E-001 
+1.70100000000E+010 -6.29767775536E-001 -4.25947993994E-001 -7.16323149391E-004 -7.34463799745E-004 -8.97513382370E-006 +2.31054345932E-005 +3.77453058958E-001 +2.63839304447E-001 
+1.72100000000E+010 -6.32169365883E-001 -4.23711150885E-001 -9.31705813855E-004 +3.51171969669E-004 +1.87733567145E-005 -2.26379452215E-005 +4.14762288332E-001 +2.25372135639E-001 
+1.74100000000E+010 -6.35146617889E-001 -4.21787887812E-001 -1.85951266758E-005 +9.57491283771E-004 +4.58832801087E-005 -3.01381878671E-005 +4.47898238897E-001 +1.82603463531E-001 
+1.76100000000E+010 -6.37738943100E-001 -4.19558197260E-001 +7.97397922724E-004 +4.13120083977E-004 +6.06934190728E-006 +2.69182073680E-005 +4.75831300020E-001 +1.36750429869E-001 
+1.78100000000E+010 -6.40626430511E-001 -4.17509496212E-001 +6.41734572127E-004 -5.72175718844E-004 +4.18014824390E-005 -6.10538472756E-006 +4.99376535416E-001 +8.81938934326E-002 
+1.80100000000E+010 -6.42974674702E-001 -4.15202319622E-001 -2.49731208896E-004 -8.13128135633E-004 -1.89090987988E-005 +2.39932633121E-005 +5.18355786800E-001 +3.70895452797E-002 
+1.82100000000E+010 -6.45553171635E-001 -4.13429379463E-001 -8.48329218570E-004 -8.22386864456E-005 +1.19697660921E-005 +7.93471463112E-006 +5.31369209290E-001 -1.73152107745E-002 
+1.84100000000E+010 -6.48130714893E-001 -4.11967366934E-001 -3.16485529765E-004 +6.85421226081E-004 -2.73594250757E-005 +2.78144352706E-006 +5.37663638592E-001 -7.43625089526E-002 
+1.86100000000E+010 -6.51201963425E-001 -4.10089075565E-001 +4.35947848018E-004 +6.55475072563E-004 -9.28789722821E-006 -1.08629601527E-005 +5.37422060966E-001 -1.30942359567E-001 
+1.88100000000E+010 -6.53582036495E-001 -4.07596886158E-001 +7.12692155503E-004 -1.14395137643E-004 +6.41854694550E-006 -5.92852120462E-006 +5.31446099281E-001 -1.87046185136E-001 
+1.90100000000E+010 -6.55200779438E-001 -4.05794113874E-001 +1.31388485897E-004 -6.98336050846E-004 -5.16055160915E-006 -7.02860188539E-006 +5.19973874092E-001 -2.42983058095E-001 
+1.92100000000E+010 -6.57348334789E-001 -4.04906451702E-001 -5.51389821339E-004 -4.16530878283E-004 -4.03304102292E-006 +1.58996863320E-005 +5.02079606056E-001 -2.99974590540E-001 
+1.94100000000E+010 -6.59959733486E-001 -4.03000682592E-001 -5.68662129808E-004 +3.22960986523E-004 +1.14387758003E-005 -5.09870587848E-005 +4.76657867432E-001 -3.54703158140E-001 
+1.96100000000E+010 -6.60902202129E-001 -4.00689303875E-001 +1.08495354652E-004 +6.05470209848E-004 +3.83334700018E-005 +1.17291601782E-005 +4.45891529322E-001 -4.06512588263E-001 
+1.98100000000E+010 -6.60228073597E-001 -3.97568315268E-001 +5.48482697923E-004 +1.32450775709E-004 -7.00712735124E-006 +2.05141313927E-005 +4.11001503468E-001 -4.53657478094E-001 
+2.00100000000E+010 -6.58674240112E-001 -3.97043704987E-001 +3.38520883815E-004 -4.77203400806E-004 -1.68613387359E-005 -5.20997200510E-005 +3.69345873594E-001 -4.99912619591E-001 
