!;Filter: kein Filter
!auto
!3/21/2019 9:27:07 AM
!3/21/2019 9:27:22 AM
!SP-Measurements Prober G4
!SP-Measurements Prober G4
!01103_448C
!134
!233
!12
!60
!-20
!0.00299959
!1.83
!0.38139174
!0.38139174
# Hz S  RI   R 50
+1.00000000000E+007 +3.12986522913E-001 +3.00801149569E-003 +4.45368550718E-002 -1.74691416323E-002 +6.32134673651E-004 -5.31564000994E-004 +5.73465321213E-003 +9.40255238675E-004 
+2.10000000000E+008 +3.26302677393E-001 -3.16712111235E-002 -1.40885624569E-003 -4.63757105172E-002 +6.51642312732E-006 -7.50386825530E-005 +8.70884954929E-003 -4.81238681823E-003 
+4.10000000000E+008 +3.26087236404E-001 -6.83071464300E-002 -4.34056781232E-002 -1.54962288216E-002 +5.21502006450E-005 +2.65525886789E-005 +1.01171256974E-002 -7.75596406311E-003 
+6.10000000000E+008 +3.22198927402E-001 -1.04500792921E-001 -2.95639261603E-002 +3.54837179184E-002 -1.79823000508E-005 -2.68798303296E-005 +9.63239930570E-003 -1.15347728133E-002 
+8.10000000000E+008 +3.15261006355E-001 -1.40555769205E-001 +2.32482813299E-002 +4.04916815460E-002 -2.25407038670E-005 -7.59268186812E-006 +7.19176186249E-003 -1.54419261962E-002 
+1.01000000000E+009 +3.05998533964E-001 -1.75260081887E-001 +4.68920506537E-002 -8.35618935525E-003 +2.98380473396E-006 -5.21873835169E-006 +2.77863675728E-003 -1.91612746567E-002 
+1.21000000000E+009 +2.93877810240E-001 -2.09330990911E-001 +7.65783945099E-003 -4.58269082010E-002 -2.63336751232E-005 -2.48926589848E-005 -1.78865774069E-003 -2.10010502487E-002 
+1.41000000000E+009 +2.79761105776E-001 -2.42429852486E-001 -4.03021387756E-002 -2.25760806352E-002 -2.02199225896E-005 -2.26441170526E-005 -7.58773647249E-003 -2.43059955537E-002 
+1.61000000000E+009 +2.64625936747E-001 -2.73800909519E-001 -3.44629399478E-002 +3.08702085167E-002 -1.52055974922E-006 +2.12904014916E-005 -1.35963447392E-002 -2.68148854375E-002 
+1.81000000000E+009 +2.46334686875E-001 -3.03017526865E-001 +1.56526155770E-002 +4.18387949467E-002 +1.16564315249E-005 -5.97135567659E-006 -1.78260505199E-002 -2.78767533600E-002 
+2.01000000000E+009 +2.27843254805E-001 -3.30899268389E-001 +4.41273376346E-002 -1.43593613757E-004 -6.29838996247E-006 -2.69250813290E-006 -2.30905488133E-002 -2.65521910042E-002 
+2.21000000000E+009 +2.07756042480E-001 -3.57351809740E-001 +1.44036551937E-002 -4.06565740705E-002 +1.12824918688E-005 -2.05250962608E-005 -2.87070125341E-002 -2.45155245066E-002 
+2.41000000000E+009 +1.86447784305E-001 -3.80971401930E-001 -3.14926952124E-002 -2.81239394099E-002 -4.16085931647E-005 +1.62020423886E-005 -3.53636927903E-002 -2.21701059490E-002 
+2.61000000000E+009 +1.64941936731E-001 -4.03212249279E-001 -3.73844429851E-002 +1.92999243736E-002 -7.22471611425E-007 -5.03106593897E-006 -4.06745187938E-002 -1.93892754614E-002 
+2.81000000000E+009 +1.42685160041E-001 -4.23713117838E-001 +4.77276835591E-003 +4.11436147988E-002 +5.33246520718E-006 -1.34972187880E-005 -4.46795038879E-002 -1.44618982449E-002 
+3.01000000000E+009 +1.20092138648E-001 -4.42036747932E-001 +3.94215099514E-002 +1.10880620778E-002 +1.89601576039E-006 +3.80363030672E-006 -4.84410524368E-002 -8.59587639570E-003 
+3.21000000000E+009 +9.75919067860E-002 -4.59187895060E-001 +2.48728375882E-002 -3.30159366131E-002 -1.26731674754E-005 -1.48080516738E-005 -5.23259900510E-002 -2.19894875772E-003 
+3.41000000000E+009 +7.51337856054E-002 -4.74878877401E-001 -2.21060328186E-002 -3.46477031708E-002 -4.00423305109E-005 -1.90295468201E-005 -5.52815496922E-002 +4.86306939274E-003 
+3.61000000000E+009 +5.27232699096E-002 -4.88980770111E-001 -4.02608029544E-002 +7.31198443100E-003 +2.07540306292E-005 -5.61081833439E-006 -5.71221299469E-002 +1.16832535714E-002 
+3.81000000000E+009 +3.02375350147E-002 -5.01659631729E-001 -7.87776988000E-003 +4.10250872374E-002 +1.85907392733E-005 -3.37783973237E-007 -5.69357275963E-002 +1.90891493112E-002 
+4.01000000000E+009 +8.30055586994E-003 -5.13390421867E-001 +3.58644612134E-002 +2.14243959635E-002 -8.49417631343E-007 +2.82788569166E-005 -5.58418259025E-002 +2.69387364388E-002 
+4.21000000000E+009 -1.35803287849E-002 -5.23510634899E-001 +3.34000661969E-002 -2.53124851733E-002 +5.40459541298E-006 +5.05400430484E-006 -5.38869686425E-002 +3.55634801090E-002 
+4.41000000000E+009 -3.50031778216E-002 -5.32636463642E-001 -1.21622681618E-002 -4.14633974433E-002 +2.64708105533E-005 -1.42104163388E-005 -5.08687943220E-002 +4.40985001624E-002 
+4.61000000000E+009 -5.60816638172E-002 -5.40661513805E-001 -4.32994067669E-002 -2.40831659175E-003 -8.70692838362E-006 +6.52468770568E-006 -4.65703755617E-002 +5.14519065619E-002 
+4.81000000000E+009 -7.68932923675E-002 -5.47683417797E-001 -1.82862468064E-002 +3.98404896259E-002 -1.52423754116E-005 +3.19157948070E-006 -3.99923436344E-002 +5.85699677467E-002 
+5.01000000000E+009 -9.70256850123E-002 -5.54272472858E-001 +3.23455482721E-002 +3.20436954498E-002 -9.04912121769E-006 +1.23258350868E-005 -3.33508402109E-002 +6.51535615325E-002 
+5.21000000000E+009 -1.16870455444E-001 -5.60107290745E-001 +4.09217663109E-002 -2.03945711255E-002 -3.68025735042E-006 -2.13045550481E-005 -2.58286353201E-002 +7.11007788777E-002 
+5.41000000000E+009 -1.36144742370E-001 -5.64587533474E-001 -4.63997991756E-003 -4.62371706963E-002 +1.46566708281E-005 +1.74100423465E-005 -1.71225778759E-002 +7.64460414648E-002 
+5.61000000000E+009 -1.55444115400E-001 -5.68946301937E-001 -4.73537072539E-002 -1.10814608634E-002 +1.71442370629E-005 -1.41071723192E-005 -7.47842574492E-003 +7.95613825321E-002 
+5.81000000000E+009 -1.74028024077E-001 -5.72006225586E-001 -2.49595548958E-002 +4.15406897664E-002 +1.12219886432E-005 +3.57383601113E-006 +3.14779370092E-003 +8.04307237267E-002 
+6.01000000000E+009 -1.91860884428E-001 -5.74253559113E-001 +3.12889106572E-002 +3.79685647786E-002 +5.42230873180E-006 -1.01467121567E-005 +1.41251301393E-002 +8.23541805148E-002 
+6.21000000000E+009 -2.09559738636E-001 -5.75927734375E-001 +4.72570955753E-002 -1.91899370402E-002 -1.64411676451E-006 -3.47056447936E-005 +2.48255878687E-002 +8.19210112095E-002 
+6.41000000000E+009 -2.26466789842E-001 -5.76929748058E-001 -4.54566115513E-003 -4.98677566648E-002 -1.83713036677E-005 +1.96079254238E-005 +3.64425666630E-002 +8.00487324595E-002 
+6.61000000000E+009 -2.43230134249E-001 -5.77514708042E-001 -4.87021282315E-002 -1.12774409354E-002 -1.99649434762E-006 -5.87197610002E-006 +4.76739667356E-002 +7.49040395021E-002 
+6.81000000000E+009 -2.59622931480E-001 -5.77513515949E-001 -2.44801547378E-002 +4.40624728799E-002 -2.93521770800E-005 -7.02226134308E-006 +5.83159402013E-002 +6.88306763768E-002 
+7.01000000000E+009 -2.75122255087E-001 -5.76877772808E-001 +3.36726158857E-002 +3.44978496432E-002 +6.39195650365E-006 -2.31061130762E-005 +6.81435465813E-002 +6.28926157951E-002 
+7.21000000000E+009 -2.90160506964E-001 -5.75813353062E-001 +4.16283831000E-002 -2.10534352809E-002 +1.12723118946E-005 -1.48455874296E-005 +7.73960575461E-002 +5.41316494346E-002 
+7.41000000000E+009 -3.04538547993E-001 -5.74724316597E-001 -8.49401671439E-003 -4.42271828651E-002 -2.60720207734E-006 -1.15165330499E-005 +8.66252928972E-002 +4.38998304307E-002 
+7.61000000000E+009 -3.17893207073E-001 -5.72964727879E-001 -4.17061448097E-002 -4.72722388804E-003 +7.31876343707E-006 +1.08618696686E-005 +9.29106250405E-002 +3.18595506251E-002 
+7.81000000000E+009 -3.31428080797E-001 -5.70691406727E-001 -1.63873173296E-002 +3.57620716095E-002 -7.80748268880E-006 +4.37911603512E-006 +9.82837155461E-002 +1.96916740388E-002 
+8.01000000000E+009 -3.43953639269E-001 -5.68375825882E-001 +2.74640657008E-002 +2.46492736042E-002 -3.72767099179E-005 -7.92128139437E-006 +1.02061934769E-001 +5.92857738957E-003 
+8.21000000000E+009 -3.56151729822E-001 -5.65805792809E-001 +2.94464901090E-002 -1.67985484004E-002 -3.32200215780E-005 -2.82606579276E-005 +1.04194924235E-001 -8.32593534142E-003 
+8.41000000000E+009 -3.67960035801E-001 -5.62822282314E-001 -5.54348947480E-003 -3.06407753378E-002 -2.61783657152E-006 -1.37222559715E-005 +1.03654831648E-001 -2.35189385712E-002 
+8.61000000000E+009 -3.79431575537E-001 -5.60168266296E-001 -2.85811256617E-002 -4.43273596466E-003 -2.41343786911E-005 +3.18415404763E-005 +1.00257173181E-001 -3.89124415815E-002 
+8.81000000000E+009 -3.90363961458E-001 -5.57415783405E-001 -1.24977901578E-002 +2.33942009509E-002 -6.94375955845E-007 -9.54631332206E-007 +9.49998348951E-002 -5.43428398669E-002 
+9.01000000000E+009 -4.01017665863E-001 -5.54365396500E-001 +1.59121993929E-002 +1.82109046727E-002 -2.27522959904E-005 -1.19775922940E-005 +8.84108841419E-002 -6.81549012661E-002 
+9.21000000000E+009 -4.11301434040E-001 -5.51344394684E-001 +2.10054069757E-002 -7.94586353004E-003 -5.74817795496E-006 +2.49401665542E-007 +7.85020142794E-002 -8.29202085733E-002 
+9.41000000000E+009 -4.20820266008E-001 -5.48379719257E-001 -2.51889432548E-004 -2.06774789840E-002 +3.96499081035E-006 -7.92867649579E-006 +6.59842342138E-002 -9.63485017419E-002 
+9.61000000000E+009 -4.30334538221E-001 -5.45110702515E-001 -1.76244918257E-002 -6.70876400545E-003 +1.52916493334E-006 +1.53883629537E-005 +5.07769733667E-002 -1.08538560569E-001 
+9.81000000000E+009 -4.39150661230E-001 -5.42499065399E-001 -1.18232620880E-002 +1.29865715280E-002 -1.71724593656E-006 +2.14373576455E-005 +3.55052836239E-002 -1.17860928178E-001 
+1.00100000000E+010 -4.48381155729E-001 -5.39214551449E-001 +7.40978214890E-003 +1.45238684490E-002 -2.60293218162E-005 -6.93977017363E-006 +1.86116639525E-002 -1.25558927655E-001 
+1.02100000000E+010 -4.56686556339E-001 -5.35485088825E-001 +1.48684065789E-002 -1.22140685562E-003 +9.73175460217E-008 +1.74013912329E-005 +4.87716868520E-004 -1.32389485836E-001 
+1.04100000000E+010 -4.65002447367E-001 -5.32482087612E-001 +4.16568014771E-003 -1.34490784258E-002 +7.79043512011E-006 -1.04581185951E-005 -2.00391281396E-002 -1.37766852975E-001 
+1.06100000000E+010 -4.73067730665E-001 -5.29180526733E-001 -1.02537916973E-002 -8.03229585290E-003 +6.18457761448E-006 +3.28592204824E-006 -4.17719259858E-002 -1.40215277672E-001 
+1.08100000000E+010 -4.79990214109E-001 -5.26706755161E-001 -1.05412425473E-002 +5.83044532686E-003 -1.54626668518E-005 +9.35068055696E-006 -6.35867267847E-002 -1.39627218246E-001 
+1.10100000000E+010 -4.87272769213E-001 -5.23585021496E-001 +1.34375179186E-003 +1.13127809018E-002 -6.01071997153E-006 +3.25473888552E-006 -8.53576660156E-002 -1.36185601354E-001 
+1.12100000000E+010 -4.93961095810E-001 -5.21332204342E-001 +1.02516943589E-002 +2.62264814228E-003 -7.51946208766E-006 +3.76514822165E-006 -1.09152644873E-001 -1.29938378930E-001 
+1.14100000000E+010 -5.01023590565E-001 -5.18240630627E-001 +5.98396221176E-003 -7.78193306178E-003 -1.43284160004E-005 +1.72895772721E-006 -1.32173851132E-001 -1.19941703975E-001 
+1.16100000000E+010 -5.06495296955E-001 -5.15509843826E-001 -4.61052265018E-003 -8.16421583295E-003 -9.45627652982E-006 +1.03675411083E-005 -1.54255494475E-001 -1.06391109526E-001 
+1.18100000000E+010 -5.12410759926E-001 -5.12727320194E-001 -8.65619909018E-003 +1.28523260355E-003 -8.15063413029E-006 -1.35930285978E-005 -1.73558056355E-001 -8.94719064236E-002 
+1.20100000000E+010 -5.18317639828E-001 -5.09631991386E-001 -2.08807829767E-003 +7.87094142288E-003 +1.25976457639E-005 +3.75950075977E-005 -1.90535411239E-001 -7.01667070389E-002 
+1.22100000000E+010 -5.24360656738E-001 -5.06209492683E-001 +6.17488659918E-003 +4.79418644682E-003 +1.46281381603E-005 +2.06861532206E-005 -2.07710638642E-001 -4.84057888389E-002 
+1.24100000000E+010 -5.29781162739E-001 -5.03244459629E-001 +6.26338552684E-003 -3.68591281585E-003 +3.56015480065E-005 -2.66588881459E-006 -2.22471654415E-001 -2.31953505427E-002 
+1.26100000000E+010 -5.35006642342E-001 -5.00098109245E-001 -8.32010118756E-004 -6.77180569619E-003 -1.06769393824E-005 +9.87841212918E-006 -2.32427269220E-001 +4.38775727525E-003 
+1.28100000000E+010 -5.40123403072E-001 -4.96843516827E-001 -6.32076943293E-003 -1.81198492646E-003 -6.83510370436E-006 +1.54336721607E-005 -2.38874852657E-001 +3.32537367940E-002 
+1.30100000000E+010 -5.45166194439E-001 -4.93025988340E-001 -3.76945291646E-003 +4.89216251299E-003 -2.62287449004E-006 -1.36584058055E-005 -2.42554992437E-001 +6.31962344050E-002 
+1.32100000000E+010 -5.49778819084E-001 -4.89575088024E-001 +2.76036374271E-003 +5.03915175796E-003 -1.28761867018E-005 -3.08152971229E-006 -2.42996856570E-001 +9.46186929941E-002 
+1.34100000000E+010 -5.54397284985E-001 -4.85445946455E-001 +5.54045522586E-003 -5.73058496229E-004 +2.26214469876E-005 +3.00962874462E-005 -2.39422366023E-001 +1.26485198736E-001 
+1.36100000000E+010 -5.57133316994E-001 -4.82103615999E-001 +1.45815638825E-003 -5.01323956996E-003 +1.29903992274E-005 +2.59077569353E-005 -2.31410697103E-001 +1.59298315644E-001 
+1.38100000000E+010 -5.61845362186E-001 -4.79409456253E-001 -3.75909218565E-003 -3.15167522058E-003 +8.04205774330E-006 -1.74580054590E-005 -2.18289390206E-001 +1.91045001149E-001 
+1.40100000000E+010 -5.66458582878E-001 -4.76251006126E-001 -4.27208375186E-003 +2.13217525743E-003 +1.87094319699E-005 +2.66757160716E-006 -2.01702013612E-001 +2.21932515502E-001 
+1.42100000000E+010 -5.70629298687E-001 -4.73399162292E-001 +3.94183589378E-004 +4.44926740602E-003 -1.88459671335E-005 -9.73960777628E-006 -1.81213364005E-001 +2.53123611212E-001 
+1.44100000000E+010 -5.75036942959E-001 -4.69790369272E-001 +3.95834399387E-003 +1.39122630935E-003 -2.56571947830E-005 +7.18616456652E-006 -1.55635580420E-001 +2.81584382057E-001 
+1.46100000000E+010 -5.78339993954E-001 -4.66768592596E-001 +2.77175870724E-003 -3.05611384101E-003 -2.86671929643E-005 +2.74784288194E-005 -1.25006958842E-001 +3.06957662106E-001 
+1.48100000000E+010 -5.81439852715E-001 -4.61526751518E-001 -1.68388825841E-003 -3.48012428731E-003 +2.79016762761E-006 -8.93613105291E-006 -9.20148789883E-002 +3.29046964645E-001 
+1.50100000000E+010 -5.82658112049E-001 -4.60771918297E-001 -3.62157681957E-003 +1.01961566543E-004 -1.03420261439E-005 +5.05720890942E-007 -5.63589148223E-002 +3.48238110542E-001 
+1.52100000000E+010 -5.85205137730E-001 -4.60269659758E-001 -1.25114922412E-003 +3.27762169763E-003 +9.49846082676E-007 -3.08548919747E-006 -1.75261721015E-002 +3.63287985325E-001 
+1.54100000000E+010 -5.88603496552E-001 -4.58472788334E-001 +2.39931698889E-003 +2.28218408301E-003 +3.65324813174E-005 -1.99617843464E-005 +2.45710164309E-002 +3.73280823231E-001 
+1.56100000000E+010 -5.92031061649E-001 -4.55115616322E-001 +2.94314115308E-003 -1.19556114078E-003 +2.28142507694E-005 +7.17179727872E-006 +6.83842152357E-002 +3.77426832914E-001 
+1.58100000000E+010 -5.93185901642E-001 -4.54554796219E-001 +1.37697206810E-005 -3.07243573479E-003 -1.67641919688E-005 +1.88490648725E-005 +1.11909151077E-001 +3.78062784672E-001 
+1.60100000000E+010 -5.95426082611E-001 -4.53273266554E-001 -2.66943592578E-003 -1.17616134230E-003 -3.70709244635E-006 -1.11897884381E-006 +1.56928747892E-001 +3.73316437006E-001 
+1.62100000000E+010 -5.97613573074E-001 -4.51902538538E-001 -2.05657957122E-003 +1.85549026355E-003 -1.45625699588E-006 +3.33190473611E-006 +2.04290196300E-001 +3.63062143326E-001 
+1.64100000000E+010 -5.99491715431E-001 -4.50644493103E-001 +8.99106555153E-004 +2.53301532939E-003 +4.14947135141E-006 -1.91159633687E-005 +2.51027792692E-001 +3.46930742264E-001 
+1.66100000000E+010 -6.02999091148E-001 -4.49321687222E-001 +2.50051729381E-003 +1.26370345242E-004 -5.30140596311E-006 -1.13022579171E-005 +2.94809222221E-001 +3.23126941919E-001 
+1.68100000000E+010 -6.06191575527E-001 -4.47139143944E-001 +1.12313753925E-003 -2.14932626113E-003 -2.91318665404E-005 +2.87770744762E-005 +3.37717324495E-001 +2.95675694942E-001 
+1.70100000000E+010 -6.08228921890E-001 -4.45176690817E-001 -1.53250980657E-003 -1.83958548587E-003 +1.83156600997E-006 -4.93010793434E-006 +3.77620935440E-001 +2.64373511076E-001 
+1.72100000000E+010 -6.10678613186E-001 -4.43243712187E-001 -2.13438272476E-003 +6.89626438543E-004 +3.55422635039E-005 -1.18144780572E-005 +4.14945006371E-001 +2.25901827216E-001 
+1.74100000000E+010 -6.13637566566E-001 -4.41556543112E-001 -2.58774525719E-004 +2.11929669604E-003 +1.06609923023E-006 -6.61074091113E-006 +4.48152422905E-001 +1.83194741607E-001 
+1.76100000000E+010 -6.16460204124E-001 -4.39667224884E-001 +1.81428377982E-003 +1.05128693394E-003 -2.27149484999E-006 -3.59176992788E-005 +4.76154565811E-001 +1.37321740389E-001 
+1.78100000000E+010 -6.19488000870E-001 -4.37794029713E-001 +1.58791977447E-003 -1.18913501501E-003 +3.52959177690E-005 +1.73112384800E-005 +4.99744594097E-001 +8.86927098036E-002 
+1.80100000000E+010 -6.22033238411E-001 -4.35701400042E-001 -4.07823623391E-004 -1.85953173786E-003 -2.78634670394E-005 -8.90176215762E-006 +5.18816351891E-001 +3.76463830471E-002 
+1.82100000000E+010 -6.24954164028E-001 -4.34107959270E-001 -1.79894780740E-003 -3.06389440084E-004 +3.98387129508E-007 -4.33298828284E-006 +5.31852602959E-001 -1.68329179287E-002 
+1.84100000000E+010 -6.27827644348E-001 -4.32606458664E-001 -9.87359904684E-004 +1.44296360668E-003 +5.94046605329E-006 -4.43957833340E-006 +5.38171291351E-001 -7.39840492606E-002 
+1.86100000000E+010 -6.31088852882E-001 -4.30730044842E-001 +8.79899016581E-004 +1.42375705764E-003 +1.97312674572E-005 -2.45914397965E-005 +5.37952423096E-001 -1.30661636591E-001 
+1.88100000000E+010 -6.33729457855E-001 -4.28447425365E-001 +1.59285881091E-003 -2.63052148512E-004 +4.67058707727E-005 -1.83596839634E-005 +5.32033026218E-001 -1.86835527420E-001 
+1.90100000000E+010 -6.35522186756E-001 -4.26643103361E-001 +4.05229220632E-004 -1.51065364480E-003 -2.33819409914E-005 -3.43967512890E-005 +5.20619153976E-001 -2.42768675089E-001 
+1.92100000000E+010 -6.37874424458E-001 -4.25832509995E-001 -1.19464658201E-003 -9.56503674388E-004 -4.20114956796E-005 -2.38552347582E-005 +5.02786219120E-001 -2.99853742123E-001 
+1.94100000000E+010 -6.40686213970E-001 -4.24092739820E-001 -1.30697514396E-003 +6.81782490574E-004 +2.61945473312E-007 +2.57192496065E-005 +4.77438569069E-001 -3.54686081409E-001 
+1.96100000000E+010 -6.41907155514E-001 -4.22043681145E-001 +9.67519299593E-005 +1.37312989682E-003 +5.89610635870E-006 +1.52139837155E-005 +4.46796596050E-001 -4.06679898500E-001 
+1.98100000000E+010 -6.41873478889E-001 -4.19322341681E-001 +1.28207507078E-003 +4.14532172726E-004 -2.24548766710E-005 -6.76085255691E-006 +4.11881893873E-001 -4.53914195299E-001 
+2.00100000000E+010 -6.41338527203E-001 -4.18203830719E-001 +8.36912193336E-004 -9.75220173132E-004 -4.31698299508E-006 -1.98360285140E-005 +3.70186150074E-001 -5.00238180161E-001 
