!;Filter: kein Filter
!auto
!3/21/2019 9:27:54 AM
!3/21/2019 9:28:10 AM
!SP-Measurements Prober G4
!SP-Measurements Prober G4
!01103_448C
!134
!235
!12
!60
!-20
!0.00599970
!2.02
!0.74959551
!0.74959551
# Hz S  RI   R 50
+1.00000000000E+007 +1.27001896501E-001 +3.35491145961E-003 +4.72861155868E-002 -1.83137822896E-002 -2.83140136162E-004 +5.45199582120E-005 +5.69781521335E-003 +1.53761031106E-003 
+2.10000000000E+008 +1.39091968536E-001 -1.89246796072E-002 -1.79591483902E-003 -5.01950569451E-002 +2.08854398807E-005 +6.14492964814E-005 +8.69153812528E-003 -4.80838958174E-003 
+4.10000000000E+008 +1.42339453101E-001 -4.48877848685E-002 -4.73431125283E-002 -1.54451234266E-002 -9.62698686635E-006 -1.54714271048E-005 +9.99732408673E-003 -7.80853070319E-003 
+6.10000000000E+008 +1.42500862479E-001 -7.18354433775E-002 -3.01086436957E-002 +3.85934635997E-002 -3.81161976293E-006 -2.47050065809E-005 +9.57642681897E-003 -1.15302465856E-002 
+8.10000000000E+008 +1.39436930418E-001 -9.95447412133E-002 +2.52259802073E-002 +4.13066633046E-002 -2.24726909437E-006 +1.32387485792E-005 +7.16470880434E-003 -1.54454894364E-002 
+1.01000000000E+009 +1.34044691920E-001 -1.26261204481E-001 +4.72372323275E-002 -9.19295661151E-003 -1.42170792969E-005 +5.85369161854E-006 +2.77812732384E-003 -1.91353894770E-002 
+1.21000000000E+009 +1.27146124840E-001 -1.52194693685E-001 +7.76714226231E-003 -4.63586300611E-002 +1.16839910334E-005 -7.42185693525E-006 -1.81960430928E-003 -2.09857132286E-002 
+1.41000000000E+009 +1.18297956884E-001 -1.77916914225E-001 -4.00226488709E-002 -2.37963441759E-002 +3.19184582622E-005 -9.59953467827E-006 -7.59307760745E-003 -2.42727026343E-002 
+1.61000000000E+009 +1.08555495739E-001 -2.02474355698E-001 -3.62053923309E-002 +2.87679005414E-002 -1.15474003906E-005 +4.42830742031E-006 -1.36273521930E-002 -2.67582368106E-002 
+1.81000000000E+009 +9.70495790243E-002 -2.26044803858E-001 +1.35361058637E-002 +4.38354052603E-002 +2.39418404817E-005 -8.61292392074E-006 -1.78168322891E-002 -2.77879834175E-002 
+2.01000000000E+009 +8.49702730775E-002 -2.48603031039E-001 +4.59122806787E-002 +3.05167585611E-003 -1.57742215379E-005 -3.46114688909E-006 -2.30579059571E-002 -2.64415778220E-002 
+2.21000000000E+009 +7.17143937945E-002 -2.70258307457E-001 +1.89406480640E-002 -4.18441742659E-002 +1.78996822342E-006 -1.15435886983E-005 -2.87095978856E-002 -2.44175400585E-002 
+2.41000000000E+009 +5.73098845780E-002 -2.90503472090E-001 -3.22029851377E-002 -3.23625504971E-002 +9.06952664081E-006 +3.47949185198E-006 -3.53539958596E-002 -2.21046581864E-002 
+2.61000000000E+009 +4.23918776214E-002 -3.09570580721E-001 -4.16431613266E-002 +1.84885635972E-002 +3.82582811653E-006 -9.80015101959E-006 -4.06247898936E-002 -1.92625690252E-002 
+2.81000000000E+009 +2.68539991230E-002 -3.27481329441E-001 +2.60059209540E-003 +4.54695485532E-002 -3.84082341043E-006 +4.18849276684E-006 -4.46169637144E-002 -1.44373709336E-002 
+3.01000000000E+009 +1.07094869018E-002 -3.44012916088E-001 +4.32128049433E-002 +1.36858681217E-002 -1.22200690384E-005 +4.05011160183E-005 -4.83695864677E-002 -8.55887588114E-003 
+3.21000000000E+009 -5.55872125551E-003 -3.59598338604E-001 +2.82757040113E-002 -3.55879850686E-002 -7.75676471676E-006 -2.61983245764E-007 -5.22825419903E-002 -2.18046759255E-003 
+3.41000000000E+009 -2.18399018049E-002 -3.74147325754E-001 -2.35243551433E-002 -3.90399843454E-002 +1.70637338215E-006 +1.02310400507E-006 -5.52178435028E-002 +4.89071849734E-003 
+3.61000000000E+009 -3.83994169533E-002 -3.87759298086E-001 -4.48038056493E-002 +8.24834778905E-003 -1.67766738741E-005 -2.10177586268E-005 -5.69958873093E-002 +1.17289954796E-002 
+3.81000000000E+009 -5.52230626345E-002 -4.00070965290E-001 -8.04240256548E-003 +4.51053008437E-002 -3.04425634567E-006 +2.55373811342E-006 -5.68487904966E-002 +1.91044863313E-002 
+4.01000000000E+009 -7.17478096485E-002 -4.11764025688E-001 +3.97122390568E-002 +2.31258217245E-002 +4.27621171184E-006 +4.37550515926E-005 -5.57241179049E-002 +2.69081741571E-002 
+4.21000000000E+009 -8.84214639664E-002 -4.22228664160E-001 +3.53660620749E-002 -2.91592441499E-002 -1.24678035718E-005 +1.62976593856E-005 -5.38659654558E-002 +3.55886556208E-002 
+4.41000000000E+009 -1.05041019619E-001 -4.31752562523E-001 -1.52766248211E-002 -4.33129593730E-002 -2.46292311203E-005 +4.46050726168E-005 -5.07596135139E-002 +4.40301150084E-002 
+4.61000000000E+009 -1.21450588107E-001 -4.40469235182E-001 -4.56525869668E-002 -3.14134813379E-004 -7.69779489929E-006 +1.70948569576E-005 -4.64618392289E-002 +5.14073073864E-002 
+4.81000000000E+009 -1.37749612331E-001 -4.48396891356E-001 -1.59189347178E-002 +4.23473641276E-002 +1.34909914777E-005 -1.42284934554E-005 -3.99109274149E-002 +5.85074163973E-002 
+5.01000000000E+009 -1.53767153621E-001 -4.55943137407E-001 +3.40370498598E-002 +2.93967183679E-002 +2.18789537030E-005 +2.98233362628E-006 -3.33234779537E-002 +6.50534406304E-002 
+5.21000000000E+009 -1.69519558549E-001 -4.62862700224E-001 +3.90340872109E-002 -2.16149669141E-002 -2.31885533140E-005 +7.76778324507E-006 -2.58099958301E-002 +7.09912776947E-002 
+5.41000000000E+009 -1.85090512037E-001 -4.68580335379E-001 -6.58366410062E-003 -4.39226776361E-002 +1.58430557349E-005 +3.00180545310E-005 -1.70631054789E-002 +7.63349384069E-002 
+5.61000000000E+009 -2.00685471296E-001 -4.74092990160E-001 -4.35949936509E-002 -8.92810896039E-003 -2.61718141701E-005 -2.52685390478E-006 -7.49454041943E-003 +7.94646218419E-002 
+5.81000000000E+009 -2.15644136071E-001 -4.78641569614E-001 -2.32157222927E-002 +3.78751233220E-002 +2.39660748775E-005 +1.03806778498E-005 +3.11208749190E-003 +8.02827998996E-002 
+6.01000000000E+009 -2.30241715908E-001 -4.82418447733E-001 +2.77645420283E-002 +3.45765575767E-002 +2.86569229502E-005 +1.05844665086E-005 +1.41029329970E-002 +8.22128206491E-002 
+6.21000000000E+009 -2.44754716754E-001 -4.85599756241E-001 +4.19878214598E-002 -1.46138407290E-002 -1.17544996101E-005 -8.87677560968E-006 +2.47910749167E-002 +8.18013548851E-002 
+6.41000000000E+009 -2.58615881205E-001 -4.88378018141E-001 -8.33622743812E-006 -4.42881099880E-002 -9.14821157494E-006 +1.63322092703E-005 +3.64113077521E-002 +7.99115821719E-002 
+6.61000000000E+009 -2.72606372833E-001 -4.90732133389E-001 -4.15451563895E-002 -1.43980430439E-002 -1.44905197885E-005 +1.31125143525E-005 +4.75888028741E-002 +7.47782886028E-002 
+6.81000000000E+009 -2.86263108253E-001 -4.92596566677E-001 -2.69064866006E-002 +3.43685261905E-002 +2.57968367805E-005 +1.74998058355E-005 +5.82573935390E-002 +6.87477439642E-002 
+7.01000000000E+009 -2.99336612225E-001 -4.94065701962E-001 +2.37278472632E-002 +3.60105670989E-002 -1.09803286250E-005 -9.97214010567E-006 +6.80470615625E-002 +6.28019347787E-002 
+7.21000000000E+009 -3.12224537134E-001 -4.94953960180E-001 +4.08582910895E-002 -1.08682746068E-002 +7.55821986331E-007 -8.51489767228E-006 +7.72970169783E-002 +5.41007742286E-002 
+7.41000000000E+009 -3.24464946985E-001 -4.95881199837E-001 +2.55133281462E-003 -4.13050390780E-002 -2.61665081780E-006 +9.76971296041E-006 +8.64453688264E-002 +4.38628792763E-002 
+7.61000000000E+009 -3.36102873087E-001 -4.96102333069E-001 -3.72350625694E-002 -1.48039609194E-002 -2.56490311585E-005 +1.92165480257E-005 +9.27652865648E-002 +3.17893773317E-002 
+7.81000000000E+009 -3.48040461540E-001 -4.95799303055E-001 -2.48405952007E-002 +2.94541232288E-002 -1.04550990727E-005 +5.81587187298E-007 +9.81533676386E-002 +1.96826718748E-002 
+8.01000000000E+009 -3.59022974968E-001 -4.95377063751E-001 +1.92215479910E-002 +3.15155796707E-002 +2.20724759856E-005 +3.03046545014E-005 +1.01928494871E-001 +5.92044601217E-003 
+8.21000000000E+009 -3.69895875454E-001 -4.94698584080E-001 +3.41223403811E-002 -7.75952870026E-003 +1.52390339281E-005 -1.04721320895E-005 +1.04048535228E-001 -8.28974321485E-003 
+8.41000000000E+009 -3.80482226610E-001 -4.93560850620E-001 +3.65415471606E-003 -3.28896753490E-002 +9.63008460531E-006 -3.01420823234E-006 +1.03450670838E-001 -2.34469231218E-002 
+8.61000000000E+009 -3.90826821327E-001 -4.92638349533E-001 -2.82953642309E-002 -1.34771130979E-002 +7.86446253187E-006 +1.65412382103E-006 +1.00106410682E-001 -3.88159081340E-002 
+8.81000000000E+009 -4.00761932135E-001 -4.91549909115E-001 -2.06864662468E-002 +2.09239944816E-002 -5.66994549445E-006 +1.71877836692E-005 +9.48552861810E-002 -5.42452596128E-002 
+9.01000000000E+009 -4.10432100296E-001 -4.90113973618E-001 +1.18604106829E-002 +2.48030610383E-002 +2.16580356209E-005 -7.67663459555E-006 +8.82898271084E-002 -6.79983943701E-002 
+9.21000000000E+009 -4.19821768999E-001 -4.88668292761E-001 +2.57133599371E-002 -2.52394448034E-003 -2.88826845463E-006 -1.26093254949E-005 +7.84005671740E-002 -8.27386751771E-002 
+9.41000000000E+009 -4.28555041552E-001 -4.87255871296E-001 +5.96007937565E-003 -2.33747251332E-002 +1.00341526377E-006 +1.44759460454E-005 +6.58976435661E-002 -9.62146148086E-002 
+9.61000000000E+009 -4.37274128199E-001 -4.85450953245E-001 -1.83960963041E-002 -1.27663407475E-002 -1.60064355441E-005 -1.31570031954E-005 +5.07225282490E-002 -1.08359746635E-001 
+9.81000000000E+009 -4.45498585701E-001 -4.84417974949E-001 -1.72876864672E-002 +1.18399029598E-002 -9.23924017115E-006 +3.67437769455E-006 +3.54549065232E-002 -1.17673069239E-001 
+1.00100000000E+010 -4.54137861729E-001 -4.82522577047E-001 +4.62888833135E-003 +1.89727116376E-002 -9.35804655455E-006 +9.98733412416E-006 +1.86048299074E-002 -1.25318005681E-001 
+1.02100000000E+010 -4.61946666241E-001 -4.80179458857E-001 +1.80579498410E-002 +2.38064397126E-003 +1.00690044746E-006 -3.04040240735E-005 +5.10523444973E-004 -1.32164552808E-001 
+1.04100000000E+010 -4.69718068838E-001 -4.78473424911E-001 +8.25210474432E-003 -1.49505278096E-002 -7.15063924872E-006 +9.77938179858E-006 -1.99702195823E-002 -1.37538060546E-001 
+1.06100000000E+010 -4.77267175913E-001 -4.76517915726E-001 -1.02329393849E-002 -1.22394701466E-002 +3.83173528462E-006 -3.44629697793E-005 -4.16707918048E-002 -1.39999240637E-001 
+1.08100000000E+010 -4.83744889498E-001 -4.75234389305E-001 -1.41584724188E-002 +4.60189860314E-003 -1.36762282636E-005 -6.14709733782E-006 -6.34293034673E-002 -1.39435261488E-001 
+1.10100000000E+010 -4.90732580423E-001 -4.73418861628E-001 -8.88945942279E-004 +1.40235815197E-002 -1.15710981845E-005 -6.49057346891E-006 -8.51784795523E-002 -1.35973036289E-001 
+1.12100000000E+010 -4.97061192989E-001 -4.72364276648E-001 +1.18993157521E-002 +5.60126546770E-003 -1.02267113107E-005 +2.90254465654E-005 -1.08939215541E-001 -1.29773765802E-001 
+1.14100000000E+010 -5.03841340542E-001 -4.70470279455E-001 +9.08476486802E-003 -8.33988841623E-003 +1.99640344363E-005 +1.22550482047E-005 -1.31928816438E-001 -1.19742356241E-001 
+1.16100000000E+010 -5.09114980698E-001 -4.68902170658E-001 -4.11741388962E-003 -1.08706038445E-002 +1.39890944411E-005 -1.09645861812E-005 -1.54006049037E-001 -1.06281124055E-001 
+1.18100000000E+010 -5.14778256416E-001 -4.67171579599E-001 -1.08818123117E-002 -1.96188499103E-004 +1.57063586812E-005 -6.09942026131E-006 -1.73292800784E-001 -8.93863812089E-002 
+1.20100000000E+010 -5.20558714867E-001 -4.65152382851E-001 -4.00647055358E-003 +9.40241944045E-003 -3.09818801725E-006 -1.30870685098E-005 -1.90225630999E-001 -7.01238214970E-002 
+1.22100000000E+010 -5.26409387589E-001 -4.62796926498E-001 +6.71704206616E-003 +6.85830041766E-003 -1.30267853820E-005 +1.76558205567E-005 -2.07435041666E-001 -4.83629256487E-002 
+1.24100000000E+010 -5.31694889069E-001 -4.60815608501E-001 +8.34844820201E-003 -3.39182117023E-003 +1.15867114800E-005 +2.73594396276E-005 -2.22169205546E-001 -2.32081208378E-002 
+1.26100000000E+010 -5.36926805973E-001 -4.58770811558E-001 +1.06786057586E-004 -8.51543154567E-003 +2.73355472018E-005 +3.79197535949E-006 -2.32147976756E-001 +4.32502850890E-003 
+1.28100000000E+010 -5.42081832886E-001 -4.56530064344E-001 -7.39978393540E-003 -3.16988723353E-003 -2.74244557659E-005 +7.06398759576E-006 -2.38575786352E-001 +3.31704467535E-002 
+1.30100000000E+010 -5.47132790089E-001 -4.53599900007E-001 -5.45477913693E-003 +5.27134025469E-003 +1.02923395389E-005 -1.87826244655E-005 -2.42252886295E-001 +6.30173757672E-002 
+1.32100000000E+010 -5.51933348179E-001 -4.51092690229E-001 +2.56210495718E-003 +6.70660659671E-003 -2.62439539256E-006 +2.37866152020E-006 -2.42750748992E-001 +9.44556519389E-002 
+1.34100000000E+010 -5.56746780872E-001 -4.47801440954E-001 +6.81783584878E-003 +2.10857149796E-004 +1.40728416227E-005 +2.74206086033E-005 -2.39230379462E-001 +1.26267507672E-001 
+1.36100000000E+010 -5.59490442276E-001 -4.45140898228E-001 +2.67890817486E-003 -5.90976187959E-003 +2.42459718720E-005 -2.24463337872E-006 -2.31193423271E-001 +1.59018799663E-001 
+1.38100000000E+010 -5.64404785633E-001 -4.43260252476E-001 -4.15384536609E-003 -4.56741312519E-003 +1.05151293610E-005 +1.60677445820E-005 -2.18151837587E-001 +1.90754517913E-001 
+1.40100000000E+010 -5.69230914116E-001 -4.40902054310E-001 -5.57865668088E-003 +1.96868251078E-003 -1.22955543702E-005 +1.04192067738E-005 -2.01559498906E-001 +2.21614867449E-001 
+1.42100000000E+010 -5.73635876179E-001 -4.38649922609E-001 -2.90474912617E-004 +5.59837464243E-003 -3.77366950488E-006 -4.67357085654E-006 -1.81138217449E-001 +2.52704948187E-001 
+1.44100000000E+010 -5.78259706497E-001 -4.35719519854E-001 +4.80732787400E-003 +2.35203816555E-003 +2.79157097793E-006 -1.08314288809E-005 -1.55604511499E-001 +2.81227260828E-001 
+1.46100000000E+010 -5.81890165806E-001 -4.33319270611E-001 +3.85794951580E-003 -3.36520606652E-003 -9.14954853215E-006 -1.45395979416E-005 -1.24998912215E-001 +3.06619614363E-001 
+1.48100000000E+010 -5.85353314877E-001 -4.28575843573E-001 -1.51375622954E-003 -4.61114756763E-003 +2.97687165585E-007 +2.15500313061E-005 -9.20544117689E-002 +3.28614413738E-001 
+1.50100000000E+010 -5.86869359016E-001 -4.28232669830E-001 -4.61395643651E-003 -3.98966134526E-004 +3.76949765268E-006 +1.37488332257E-005 -5.64886629581E-002 +3.47849160433E-001 
+1.52100000000E+010 -5.89723229408E-001 -4.28061932325E-001 -2.07256549038E-003 +3.91658861190E-003 -8.46580132929E-006 +5.15949886903E-006 -1.77050456405E-002 +3.62975329161E-001 
+1.54100000000E+010 -5.93391954899E-001 -4.26577627659E-001 +2.68698600121E-003 +3.23959626257E-003 -6.77038633512E-006 -1.02087415144E-005 +2.44115665555E-002 +3.72965782881E-001 
+1.56100000000E+010 -5.97138047218E-001 -4.23427194357E-001 +3.88931902125E-003 -1.11652759369E-003 +2.08298770303E-005 -6.53307461107E-006 +6.81519061327E-002 +3.77156555653E-001 
+1.58100000000E+010 -5.98543941975E-001 -4.22917157412E-001 +4.56191890407E-004 -3.85992112570E-003 -2.90523057629E-005 -5.43666965314E-006 +1.11632607877E-001 +3.77798080444E-001 
+1.60100000000E+010 -6.00935816765E-001 -4.21783536673E-001 -3.24613810517E-003 -1.84632942546E-003 +1.28584224512E-005 -4.58261320091E-006 +1.56656563282E-001 +3.73065918684E-001 
+1.62100000000E+010 -6.03316068649E-001 -4.20497953892E-001 -2.86747817881E-003 +2.10176780820E-003 -8.81213782122E-006 -1.24628536469E-006 +2.03923597932E-001 +3.62848699093E-001 
+1.64100000000E+010 -6.05340600014E-001 -4.19197231531E-001 +8.67797236424E-004 +3.31909162924E-003 -1.05265089587E-005 +1.75625755219E-005 +2.50609636307E-001 +3.46743404865E-001 
+1.66100000000E+010 -6.08841121197E-001 -4.17801201344E-001 +3.21107334457E-003 +5.15563704539E-004 +1.07083087642E-005 -6.37901212031E-006 +2.94357985258E-001 +3.23038846254E-001 
+1.68100000000E+010 -6.12015485764E-001 -4.15734201670E-001 +1.67563417926E-003 -2.65221577138E-003 +8.86778650511E-007 -2.21997925109E-005 +3.37268590927E-001 +2.95623362064E-001 
+1.70100000000E+010 -6.13997161388E-001 -4.13882613182E-001 -1.68188172393E-003 -2.47911643237E-003 -1.63058211911E-005 +2.23379975068E-005 +3.77235293388E-001 +2.64373242855E-001 
+1.72100000000E+010 -6.16470396519E-001 -4.11942154169E-001 -2.76355072856E-003 +5.67298615351E-004 +2.50039120147E-005 +2.86611448246E-005 +4.14561569691E-001 +2.25957795978E-001 
+1.74100000000E+010 -6.19368791580E-001 -4.10218000412E-001 -5.52295474336E-004 +2.69382726401E-003 +2.96878879453E-005 -1.51075828398E-005 +4.47750031948E-001 +1.83285027742E-001 
+1.76100000000E+010 -6.21972978115E-001 -4.08289313316E-001 +2.15178239159E-003 +1.52128620539E-003 -1.11101626317E-005 +5.20230241818E-006 +4.75774824619E-001 +1.37527018785E-001 
+1.78100000000E+010 -6.24826192856E-001 -4.06514436007E-001 +2.12587672286E-003 -1.33136706427E-003 +3.02256630675E-005 -5.05834941578E-005 +4.99436289072E-001 +8.88963490725E-002 
+1.80100000000E+010 -6.27173304558E-001 -4.04500782490E-001 -3.26685665641E-004 -2.41878023371E-003 -2.11191872950E-005 -2.46698928095E-005 +5.18524050713E-001 +3.78229916096E-002 
+1.82100000000E+010 -6.29827678204E-001 -4.02897089720E-001 -2.26723402739E-003 -5.89192204643E-004 -4.59853526991E-006 +3.37720024390E-007 +5.31585216522E-001 -1.65543518960E-002 
+1.84100000000E+010 -6.32385909557E-001 -4.01687055826E-001 -1.39641750138E-003 +1.74141011667E-003 +9.70048040472E-006 -1.95809411707E-006 +5.37960588932E-001 -7.36289545894E-002 
+1.86100000000E+010 -6.35429799557E-001 -3.99951308966E-001 +1.02582632098E-003 +1.88973476179E-003 -4.14066962549E-005 +1.98759116756E-005 +5.37783026695E-001 -1.30263850093E-001 
+1.88100000000E+010 -6.37869060040E-001 -3.97796332836E-001 +2.06973101012E-003 -2.12982035009E-004 +1.50839487105E-005 -8.60742420628E-006 +5.31912565231E-001 -1.86406373978E-001 
+1.90100000000E+010 -6.39506936073E-001 -3.96174520254E-001 +6.12409319729E-004 -1.91159395035E-003 +1.97370309252E-006 -1.22559481497E-006 +5.20553529263E-001 -2.42389634252E-001 
+1.92100000000E+010 -6.41639471054E-001 -3.95458847284E-001 -1.40456855297E-003 -1.30980683025E-003 +1.98295197151E-006 -1.37511315188E-005 +5.02701103687E-001 -2.99436330795E-001 
+1.94100000000E+010 -6.44141614437E-001 -3.93876552582E-001 -1.63792411331E-003 +7.90675461758E-004 +1.12034613267E-005 -5.49688547835E-006 +4.77395325899E-001 -3.54200214148E-001 
+1.96100000000E+010 -6.45184814930E-001 -3.91967266798E-001 +5.04640956933E-005 +1.76458328497E-003 +3.06329529849E-005 +4.99598063470E-005 +4.46850150824E-001 -4.06194299459E-001 
+1.98100000000E+010 -6.44672393799E-001 -3.89310806990E-001 +1.58187723719E-003 +6.70907495078E-004 -9.12878931558E-006 +1.42073004099E-005 +4.12074565887E-001 -4.53454136848E-001 
+2.00100000000E+010 -6.43672883511E-001 -3.88837307692E-001 +1.20582629461E-003 -1.11589534208E-003 -3.88175067201E-006 -2.89175568469E-005 +3.70378971100E-001 -4.99809712172E-001 
