!;Filter: kein Filter
!auto
!3/21/2019 9:27:07 AM
!3/21/2019 9:27:22 AM
!SP-Measurements Prober G4
!SP-Measurements Prober G4
!01103_448C
!134
!237
!12
!60
!-20
!0.00299959
!1.83
!0.38139174
!0.38139174
# Hz S  RI   R 50
+1.00000000000E+007 +1.65594995022E-001 +7.68356630579E-003 +6.47908821702E-002 -2.65850182623E-002 -7.69566220697E-004 +2.63026682660E-004 +5.59561280534E-003 +1.25661492348E-003 
+2.10000000000E+008 +1.81298330426E-001 -2.62576825917E-002 -2.24332511425E-003 -6.78003057837E-002 -6.41295191599E-005 -3.55849333573E-005 +8.65544658154E-003 -4.81467647478E-003 
+4.10000000000E+008 +1.80447459221E-001 -5.66101856530E-002 -6.40584453940E-002 -2.18731760979E-002 -3.80660894734E-005 +1.85684530152E-005 +1.00833671167E-002 -7.76869710535E-003 
+6.10000000000E+008 +1.77331715822E-001 -8.64529237151E-002 -4.24585454166E-002 +5.23671396077E-002 +3.81567770091E-005 -1.68494607351E-005 +9.64403804392E-003 -1.15460949019E-002 
+8.10000000000E+008 +1.71906545758E-001 -1.16003200412E-001 +3.44636440277E-002 +5.80319985747E-002 +1.09893844638E-005 +1.44047817230E-006 +7.19604361802E-003 -1.54514517635E-002 
+1.01000000000E+009 +1.65274679661E-001 -1.44005075097E-001 +6.75031244755E-002 -1.26981921494E-002 +3.29807808157E-005 +4.21492695750E-005 +2.79894727282E-003 -1.91601440310E-002 
+1.21000000000E+009 +1.55997529626E-001 -1.72191426158E-001 +1.14236380905E-002 -6.70265257359E-002 +1.87710520549E-005 +6.74605507811E-006 -1.79615465458E-003 -2.10281684995E-002 
+1.41000000000E+009 +1.45024701953E-001 -2.00570002198E-001 -5.86373135448E-002 -3.30108664930E-002 +3.64686957255E-006 -3.08637463604E-005 -7.53324991092E-003 -2.43128277361E-002 
+1.61000000000E+009 +1.33031383157E-001 -2.27203801274E-001 -5.10179288685E-002 +4.37957346439E-002 -2.26873180509E-005 -1.78184582182E-005 -1.35662788525E-002 -2.67832800746E-002 
+1.81000000000E+009 +1.18415012956E-001 -2.51388728619E-001 +2.16191001236E-002 +6.30144551396E-002 -3.23241152955E-007 +2.67430023086E-005 -1.77878979594E-002 -2.78644319624E-002 
+2.01000000000E+009 +1.03636756539E-001 -2.74689108133E-001 +6.71218559146E-002 +2.74095544592E-003 +6.83482085151E-006 -1.55014895427E-005 -2.30798162520E-002 -2.65288017690E-002 
+2.21000000000E+009 +8.78878757358E-002 -2.96544253826E-001 +2.69573908299E-002 -6.24032206833E-002 +3.80317324016E-005 -1.67290163517E-005 -2.87115145475E-002 -2.45079919696E-002 
+2.41000000000E+009 +7.14729726315E-002 -3.16534221172E-001 -4.87521104515E-002 -4.87013794482E-002 -1.10614892037E-005 +2.96863909170E-005 -3.53956595063E-002 -2.21514515579E-002 
+2.61000000000E+009 +5.49153387547E-002 -3.35532695055E-001 -6.52818530798E-002 +2.90286969393E-002 -7.95097730588E-006 +7.26220946490E-007 -4.06510829926E-002 -1.93372201174E-002 
+2.81000000000E+009 +3.78419086337E-002 -3.53315591812E-001 +4.73405700177E-003 +7.32087641954E-002 +1.39016844969E-006 -6.28798761682E-006 -4.46702614427E-002 -1.44750112668E-002 
+3.01000000000E+009 +2.03824508935E-002 -3.69473904371E-001 +7.18847140670E-002 +2.30660121888E-002 +1.48971112139E-005 +2.38224565692E-005 -4.84035499394E-002 -8.65621212870E-003 
+3.21000000000E+009 +3.31499287859E-003 -3.85067492723E-001 +4.96141612530E-002 -6.37565404177E-002 -2.20565907512E-005 -2.81403436020E-006 -5.23343272507E-002 -2.25960020907E-003 
+3.41000000000E+009 -1.38770658523E-002 -3.99884670973E-001 -4.67261709273E-002 -7.09573477507E-002 +1.56949008669E-005 +5.64426045457E-006 -5.52718155086E-002 +4.84726484865E-003 
+3.61000000000E+009 -3.13181988895E-002 -4.13563102484E-001 -8.69802311063E-002 +2.07125339657E-002 -3.71770984202E-005 -1.97959181492E-007 -5.70527277887E-002 +1.16892866790E-002 
+3.81000000000E+009 -4.87988144159E-002 -4.26808267832E-001 -6.64489064366E-003 +9.77853834629E-002 +6.22490733804E-006 -2.10635535041E-005 -5.68703189492E-002 +1.90496277064E-002 
+4.01000000000E+009 -6.65660426021E-002 -4.39671456814E-001 +9.76325273514E-002 +3.51836718619E-002 +4.96678194395E-006 -3.31247542817E-006 -5.57857118547E-002 +2.68867108971E-002 
+4.21000000000E+009 -8.46028253436E-002 -4.51069772243E-001 +6.60471245646E-002 -8.88154953718E-002 -1.22239234770E-005 -2.69377778750E-007 -5.38851134479E-002 +3.55611965060E-002 
+4.41000000000E+009 -1.03541299701E-001 -4.62450742722E-001 -7.86985978484E-002 -9.01281759143E-002 -2.39343280555E-005 +2.09771060327E-005 -5.07770627737E-002 +4.40604723990E-002 
+4.61000000000E+009 -1.23291939497E-001 -4.71821755171E-001 -1.05616346002E-001 +5.90099617839E-002 +1.42885974128E-005 -1.08691501737E-005 -4.64722514153E-002 +5.13681620359E-002 
+4.81000000000E+009 -1.43124699593E-001 -4.79854613543E-001 +3.62623259425E-002 +1.18443891406E-001 -1.42291992233E-005 +1.88908525161E-005 -3.99543568492E-002 +5.85102401674E-002 
+5.01000000000E+009 -1.63500860333E-001 -4.86023306847E-001 +1.17730654776E-001 -1.78388562053E-002 +1.16539413284E-005 -6.68844313623E-006 -3.33538316190E-002 +6.51095435023E-002 
+5.21000000000E+009 -1.81665599346E-001 -4.90034788847E-001 +8.34697019309E-003 -1.06544740498E-001 +7.71336726757E-006 +2.85494957097E-006 -2.58129108697E-002 +7.10277035832E-002 
+5.41000000000E+009 -1.99132069945E-001 -4.93101269007E-001 -9.46105942130E-002 -2.91798673570E-002 -7.65307390793E-007 +2.52995723713E-005 -1.70703530312E-002 +7.63861611485E-002 
+5.61000000000E+009 -2.15657398105E-001 -4.95454639196E-001 -4.32450994849E-002 +7.38643333316E-002 +1.35028622026E-005 +2.50263292401E-005 -7.51499505714E-003 +7.95075967908E-002 
+5.81000000000E+009 -2.30400070548E-001 -4.97755020857E-001 +4.97222281992E-002 +5.54441735148E-002 -5.48535763301E-006 -9.29177622311E-006 +3.16423969343E-003 +8.03797841072E-002 
+6.01000000000E+009 -2.44897350669E-001 -4.99547958374E-001 +6.00024424493E-002 -2.86495760083E-002 -6.78608284943E-006 -7.62357785788E-006 +1.41256805509E-002 +8.23051035404E-002 
+6.21000000000E+009 -2.58829087019E-001 -5.01115798950E-001 -7.43697118014E-003 -5.64561113715E-002 +1.75110362761E-005 -3.44186773873E-005 +2.48240511864E-002 +8.19047167897E-002 
+6.41000000000E+009 -2.72088408470E-001 -5.02761900425E-001 -4.89461682737E-002 -1.09316846356E-002 +1.46961283463E-005 -1.45192989294E-005 +3.63918468356E-002 +7.99651965499E-002 
+6.61000000000E+009 -2.85616755486E-001 -5.04177510738E-001 -2.35685762018E-002 +3.79433780909E-002 +5.05992284161E-006 +1.77725564754E-006 +4.75914478302E-002 +7.48328492045E-002 
+6.81000000000E+009 -2.98720180988E-001 -5.05244195461E-001 +2.37578656524E-002 +3.09157688171E-002 +2.29065153690E-005 -5.18640536029E-006 +5.83340004086E-002 +6.87783285975E-002 
+7.01000000000E+009 -3.11333984137E-001 -5.06144881248E-001 +3.38200218976E-002 -9.72577184439E-003 -1.24976650113E-005 -1.00283150459E-005 +6.80623725057E-002 +6.28450512886E-002 
+7.21000000000E+009 -3.23762387037E-001 -5.06538093090E-001 +2.47493991628E-003 -3.15265133977E-002 -4.11341125073E-006 -1.14623671834E-005 +7.73544311523E-002 +5.40774017572E-002 
+7.41000000000E+009 -3.35670202971E-001 -5.07128596306E-001 -2.53303796053E-002 -1.25776585191E-002 -9.67760911408E-007 +1.32421364469E-005 +8.65652188659E-002 +4.38520833850E-002 
+7.61000000000E+009 -3.46993237734E-001 -5.07081508636E-001 -1.94098688662E-002 +1.72756109387E-002 -9.65339131653E-006 +4.44848274128E-006 +9.28249880672E-002 +3.17781493068E-002 
+7.81000000000E+009 -3.58653724194E-001 -5.06514787674E-001 +8.19836091250E-003 +2.20820456743E-002 -2.19904795813E-005 -5.47647459825E-006 +9.82076004148E-002 +1.96487084031E-002 
+8.01000000000E+009 -3.69462102652E-001 -5.05955398083E-001 +2.13935002685E-002 +8.60276748426E-004 +9.58770579018E-006 +1.75372097146E-005 +1.01969271898E-001 +5.86209911853E-003 
+8.21000000000E+009 -3.80264043808E-001 -5.05088627338E-001 +8.17606505007E-003 -1.81310810149E-002 -1.03314350781E-005 -3.05672656395E-005 +1.04124523699E-001 -8.32695327699E-003 
+8.41000000000E+009 -3.90720814466E-001 -5.03814101219E-001 -1.24789383262E-002 -1.31524000317E-002 -1.18310099424E-005 -4.42799910161E-006 +1.03514008224E-001 -2.35119778663E-002 
+8.61000000000E+009 -4.01062607765E-001 -5.02817869186E-001 -1.57525353134E-002 +5.91889210045E-003 -1.97331482923E-005 -1.97386652872E-005 +1.00194856524E-001 -3.88929285109E-002 
+8.81000000000E+009 -4.10848230124E-001 -5.01573443413E-001 -3.90625675209E-004 +1.56982000917E-002 -3.42289822584E-005 +8.18015178083E-006 +9.49005186558E-002 -5.43365702033E-002 
+9.01000000000E+009 -4.20515030622E-001 -5.00038444996E-001 +1.32737588137E-002 +5.83974504843E-003 -2.10138041439E-005 -1.40981467212E-006 +8.83399024606E-002 -6.81099668145E-002 
+9.21000000000E+009 -4.29891616106E-001 -4.98484849930E-001 +9.85413230956E-003 -9.27275791764E-003 +1.82678900273E-006 +1.45744079418E-005 +7.84201771021E-002 -8.28321054578E-002 
+9.41000000000E+009 -4.38666939735E-001 -4.97034281492E-001 -4.59180120379E-003 -1.18000293151E-002 +1.30137386805E-005 -2.18589284486E-005 +6.59199878573E-002 -9.62676405907E-002 
+9.61000000000E+009 -4.47437763214E-001 -4.95104700327E-001 -1.17018874735E-002 -2.46917188633E-004 +2.34715821534E-006 +6.25663869869E-006 +5.07320389152E-002 -1.08481600881E-001 
+9.81000000000E+009 -4.55636769533E-001 -4.93929505348E-001 -4.60450351238E-003 +1.00040258840E-002 -1.63054198765E-006 -1.45453095683E-005 +3.54566983879E-002 -1.17788054049E-001 
+1.00100000000E+010 -4.64238524437E-001 -4.91949349642E-001 +7.07859778777E-003 +7.56231322885E-003 +5.40510791325E-006 -1.00728793768E-005 +1.85716170818E-002 -1.25415518880E-001 
+1.02100000000E+010 -4.72137719393E-001 -4.89571571350E-001 +9.00972541422E-003 -3.36039112881E-003 +9.49146124185E-006 -8.76410467754E-006 +4.80634655105E-004 -1.32268562913E-001 
+1.04100000000E+010 -4.79994297028E-001 -4.87682223320E-001 +4.78555419249E-004 -9.10645350814E-003 -6.32459477856E-006 -4.60525143353E-006 -2.00307257473E-002 -1.37617409229E-001 
+1.06100000000E+010 -4.87569302320E-001 -4.85545605421E-001 -7.76638183743E-003 -3.64514696412E-003 -2.61763161689E-005 -6.02083503054E-007 -4.17222976685E-002 -1.40079036355E-001 
+1.08100000000E+010 -4.94070023298E-001 -4.84174966812E-001 -5.94337563962E-003 +5.34850452095E-003 +1.71604415300E-006 +9.13232952371E-007 -6.35327994823E-002 -1.39459013939E-001 
+1.10100000000E+010 -5.01055121422E-001 -4.82204943895E-001 +2.41378881037E-003 +7.24784564227E-003 -4.99620091432E-006 -2.60060060100E-005 -8.53444933891E-002 -1.36014029384E-001 
+1.12100000000E+010 -5.07418930531E-001 -4.80978727341E-001 +7.16458680108E-003 +4.36937785707E-004 -7.17225702829E-007 +6.85526856614E-006 -1.09066911042E-001 -1.29810720682E-001 
+1.14100000000E+010 -5.14165043831E-001 -4.79046583176E-001 +3.04051185958E-003 -5.95574686304E-003 +1.06735806185E-005 -1.14278338970E-006 -1.32079064846E-001 -1.19772106409E-001 
+1.16100000000E+010 -5.19521415234E-001 -4.77308452129E-001 -4.07074065879E-003 -5.00035705045E-003 -7.16232989362E-006 +1.80334586730E-006 -1.54168158770E-001 -1.06252528727E-001 
+1.18100000000E+010 -5.25236904621E-001 -4.75492030382E-001 -5.82213280722E-003 +1.83087610640E-003 +2.27222863032E-005 -1.27964913190E-005 -1.73450574279E-001 -8.94230008125E-002 
+1.20100000000E+010 -5.31049728394E-001 -4.73343938589E-001 -6.20152917691E-004 +5.63944783062E-003 -5.64130778002E-006 -2.85357891698E-005 -1.90375089645E-001 -7.00728371739E-002 
+1.22100000000E+010 -5.36886811256E-001 -4.70906794071E-001 +4.78219240904E-003 +2.70970445126E-003 -1.60500246693E-006 +7.28304848963E-006 -2.07505166531E-001 -4.83064204454E-002 
+1.24100000000E+010 -5.42284309864E-001 -4.68910038471E-001 +4.06875368208E-003 -3.21380165406E-003 -3.52207825927E-005 +8.49386105983E-006 -2.22318559885E-001 -2.31301244348E-002 
+1.26100000000E+010 -5.47567009926E-001 -4.66796338558E-001 -1.23950140551E-003 -4.72504971549E-003 -6.68683651384E-006 +5.34909702310E-007 -2.32248052955E-001 +4.42824326456E-003 
+1.28100000000E+010 -5.52781641483E-001 -4.64428722858E-001 -4.67680580914E-003 -7.34476605430E-004 +9.61404748523E-006 -2.09042136703E-005 -2.38622665405E-001 +3.32848951221E-002 
+1.30100000000E+010 -5.57966649532E-001 -4.61474776268E-001 -2.29842425324E-003 +3.79226054065E-003 +4.37937478637E-006 -4.03561934945E-005 -2.42336422205E-001 +6.31430223584E-002 
+1.32100000000E+010 -5.62801897526E-001 -4.58941340446E-001 +2.41196434945E-003 +3.43853072263E-003 -1.23361114674E-005 -9.37578363391E-007 -2.42780461907E-001 +9.45776104927E-002 
+1.34100000000E+010 -5.67670822144E-001 -4.55575764179E-001 +4.00019017980E-003 -8.27204145025E-004 -6.19772981736E-005 -7.63030766393E-006 -2.39252164960E-001 +1.26422181726E-001 
+1.36100000000E+010 -5.70527374744E-001 -4.52930331230E-001 +6.88675325364E-004 -3.84247186594E-003 +1.86793076864E-005 -1.74208707904E-005 -2.31154620647E-001 +1.59178033471E-001 
+1.38100000000E+010 -5.75447976589E-001 -4.50863599777E-001 -3.01760900766E-003 -2.07779323682E-003 +4.39872419520E-005 +5.46987794223E-005 -2.18087136745E-001 +1.90869972110E-001 
+1.40100000000E+010 -5.80333709717E-001 -4.48412001133E-001 -2.99325608648E-003 +1.86580908485E-003 -1.47420068970E-005 -1.81493705895E-005 -2.01469480991E-001 +2.21751078963E-001 
+1.42100000000E+010 -5.84802627563E-001 -4.46175664663E-001 +5.67837269045E-004 +3.31484689377E-003 -1.41392383739E-005 +2.58013315033E-005 -1.80985555053E-001 +2.52868950367E-001 
+1.44100000000E+010 -5.89577734470E-001 -4.43180471659E-001 +3.08191590011E-003 +7.61839386541E-004 -1.01622517832E-005 +1.54283679876E-005 -1.55438721180E-001 +2.81389266253E-001 
+1.46100000000E+010 -5.93214988708E-001 -4.40717279911E-001 +1.86176574789E-003 -2.49597826041E-003 +1.67284069903E-005 -2.73115365417E-005 -1.24761968851E-001 +3.06719005108E-001 
+1.48100000000E+010 -5.96874773502E-001 -4.35972005129E-001 -1.49104162119E-003 -2.50497204252E-003 -9.38967787079E-006 -1.58209295478E-005 -9.17973145843E-002 +3.28657954931E-001 
+1.50100000000E+010 -5.98507821560E-001 -4.35438066721E-001 -2.76129553095E-003 +2.92746466585E-004 +2.72183751804E-005 +1.44782479765E-005 -5.61973154545E-002 +3.47909718752E-001 
+1.52100000000E+010 -6.01468384266E-001 -4.35178607702E-001 -7.67797173467E-004 +2.58534331806E-003 +2.65244689217E-005 +1.57126614795E-005 -1.74458231777E-002 +3.62957268953E-001 
+1.54100000000E+010 -6.05210125446E-001 -4.33552950621E-001 +2.00417125598E-003 +1.62812275812E-003 +7.28839313524E-006 +1.93408754967E-006 +2.46900990605E-002 +3.72958600521E-001 
+1.56100000000E+010 -6.09169125557E-001 -4.30323928595E-001 +2.19585956074E-003 -1.10554380808E-003 +1.45327476275E-005 -7.90517333371E-006 +6.84093087912E-002 +3.77070963383E-001 
+1.58100000000E+010 -6.10582411289E-001 -4.29642051458E-001 -1.45464160596E-004 -2.41610128433E-003 +3.24912689393E-005 +9.91026695374E-007 +1.11944355071E-001 +3.77729386091E-001 
+1.60100000000E+010 -6.12997353077E-001 -4.28408712149E-001 -2.16504232958E-003 -7.49326776713E-004 -2.23709812417E-005 -3.94024027628E-007 +1.56900793314E-001 +3.72935324907E-001 
+1.62100000000E+010 -6.15367233753E-001 -4.27063465118E-001 -1.53512030374E-003 +1.55456271023E-003 +3.82537546102E-005 -4.19915295424E-006 +2.04161360860E-001 +3.62664163113E-001 
+1.64100000000E+010 -6.17495238781E-001 -4.25621896982E-001 +8.35835235193E-004 +1.93781731650E-003 +6.10916686128E-006 -6.86090106683E-006 +2.50842958689E-001 +3.46518754959E-001 
+1.66100000000E+010 -6.21056199074E-001 -4.24113333225E-001 +1.99903734028E-003 -2.91270062007E-005 -1.71961219166E-005 -1.02284593595E-005 +2.94568151236E-001 +3.22726398706E-001 
+1.68100000000E+010 -6.24229371548E-001 -4.21916574240E-001 +7.77531124186E-004 -1.75975495949E-003 -9.85730093817E-006 +5.69296753383E-005 +3.37355136871E-001 +2.95290231705E-001 
+1.70100000000E+010 -6.26230597496E-001 -4.19964343309E-001 -1.30461726803E-003 -1.35482056066E-003 +2.38897519012E-005 +9.05692832021E-006 +3.77263873816E-001 +2.64021128416E-001 
+1.72100000000E+010 -6.28677725792E-001 -4.17822510004E-001 -1.68865488376E-003 +6.16101606283E-004 -3.41043414664E-005 +3.28067908413E-005 +4.14586782455E-001 +2.25579410791E-001 
+1.74100000000E+010 -6.31658732891E-001 -4.16066318750E-001 -1.24399361084E-004 +1.71790446620E-003 +1.85387762031E-005 -3.39542639267E-005 +4.47764456272E-001 +1.82909175754E-001 
+1.76100000000E+010 -6.34272992611E-001 -4.13988947868E-001 +1.53705640696E-003 +8.26872885227E-004 +3.29124741256E-005 -4.34422763647E-005 +4.75735366344E-001 +1.37049272656E-001 
+1.78100000000E+010 -6.37170970440E-001 -4.12058532238E-001 +1.22007424943E-003 -1.01621297654E-003 +5.33728461960E-006 -2.84116031253E-005 +4.99274998903E-001 +8.84357616305E-002 
+1.80100000000E+010 -6.39539420605E-001 -4.09866929054E-001 -3.92759131500E-004 -1.49402953684E-003 -1.47635209942E-005 +4.33141431131E-005 +5.18341660500E-001 +3.73840294778E-002 
+1.82100000000E+010 -6.42179131508E-001 -4.08189535141E-001 -1.48930831347E-003 -2.00260838028E-004 +2.27316759265E-005 -1.14323131584E-006 +5.31392037868E-001 -1.69559717178E-002 
+1.84100000000E+010 -6.44827783108E-001 -4.06815439463E-001 -7.25264661014E-004 +1.23798393179E-003 +7.71714712755E-006 +2.80653262053E-006 +5.37742674351E-001 -7.40606337786E-002 
+1.86100000000E+010 -6.47879719734E-001 -4.04995441437E-001 +7.88546632975E-004 +1.13516510464E-003 -7.35917319616E-006 +5.53384097657E-006 +5.37477850914E-001 -1.30630970001E-001 
+1.88100000000E+010 -6.50180280209E-001 -4.02711808681E-001 +1.28183502238E-003 -3.10267321765E-004 -3.66225663129E-006 -6.62252944039E-007 +5.31574785709E-001 -1.86787173152E-001 
+1.90100000000E+010 -6.51875376701E-001 -4.01077836752E-001 +2.40351393586E-004 -1.28848280292E-003 -3.16755431413E-005 +2.00564918487E-005 +5.20164668560E-001 -2.42650568485E-001 
+1.92100000000E+010 -6.54034912586E-001 -4.00284767151E-001 -9.96168353595E-004 -6.79749937262E-004 +9.59869157668E-006 +6.37027312678E-007 +5.02307951450E-001 -2.99660146236E-001 
+1.94100000000E+010 -6.56705081463E-001 -3.98489803076E-001 -1.04289536830E-003 +6.38374709524E-004 +1.10754799607E-005 +2.33986738749E-005 +4.76891189814E-001 -3.54366868734E-001 
+1.96100000000E+010 -6.57698512077E-001 -3.96281301975E-001 +1.47462560562E-004 +1.16259953938E-003 -2.26244428632E-005 +2.61896711891E-005 +4.46237266064E-001 -4.06334489584E-001 
+1.98100000000E+010 -6.56966149807E-001 -3.93160551786E-001 +1.08592957258E-003 +3.40973696439E-004 +2.48290998570E-005 +9.87227576843E-006 +4.11365836859E-001 -4.53543305397E-001 
+2.00100000000E+010 -6.55532538891E-001 -3.92886161804E-001 +6.93350448273E-004 -8.03632778116E-004 -1.13931337182E-005 -2.77609560726E-005 +3.69665712118E-001 -4.99695688486E-001 
