!;Filter: kein Filter
!auto
!3/21/2019 9:27:39 AM
!3/21/2019 9:27:53 AM
!SP-Measurements Prober G4
!SP-Measurements Prober G4
!01103_448C
!134
!233
!12
!60
!-20
!0.00499992
!1.96
!0.64375220
!0.64375220
# Hz S  RI   R 50
+1.00000000000E+007 +2.24880978465E-001 +3.14840045758E-003 +4.05044369400E-002 -1.49853760377E-002 -7.46447985875E-005 -7.39826820791E-004 +5.30648743734E-003 +9.84126701951E-004 
+2.10000000000E+008 +2.35470473766E-001 -2.46891602874E-002 -1.50329689495E-003 -4.27707731724E-002 -2.67733480541E-006 -3.98476413466E-006 +8.71843192726E-003 -4.82155289501E-003 
+4.10000000000E+008 +2.37131461501E-001 -5.45774213970E-002 -4.00339178741E-002 -1.33697958663E-002 +1.25745063997E-005 +3.36560788128E-006 +1.00661925972E-002 -7.74471508339E-003 
+6.10000000000E+008 +2.35880047083E-001 -8.49979966879E-002 -2.55882348865E-002 +3.20848412812E-002 -7.82358711149E-006 -3.98817028326E-005 +9.60642471910E-003 -1.15520879626E-002 
+8.10000000000E+008 +2.31733188033E-001 -1.16348646581E-001 +2.09676902741E-002 +3.58302481472E-002 +3.96807445213E-006 -2.96295866065E-006 +7.15348403901E-003 -1.54097387567E-002 
+1.01000000000E+009 +2.24958047271E-001 -1.46457836032E-001 +4.12072837353E-002 -7.05174542964E-003 -1.51993253894E-006 +1.22859182738E-005 +2.77925562114E-003 -1.91571544856E-002 
+1.21000000000E+009 +2.16242343187E-001 -1.75784975290E-001 +7.19638727605E-003 -3.95521558821E-002 +1.71641495399E-005 +6.19700676907E-006 -1.81853037793E-003 -2.10331119597E-002 
+1.41000000000E+009 +2.05674722791E-001 -2.04679623246E-001 -3.43840159476E-002 -2.11435258389E-002 -4.84484007757E-006 +2.39839719143E-005 -7.59064732119E-003 -2.42984537035E-002 
+1.61000000000E+009 +1.94015711546E-001 -2.32317939401E-001 -3.17657887936E-002 +2.53069456667E-002 -1.27639705170E-005 -1.17288818728E-005 -1.36093907058E-002 -2.68071349710E-002 
+1.81000000000E+009 +1.80392697453E-001 -2.58777409792E-001 +1.23385805637E-002 +3.73828746378E-002 -2.52395784628E-005 -1.94047734112E-005 -1.78390182555E-002 -2.78392843902E-002 
+2.01000000000E+009 +1.66151911020E-001 -2.84122377634E-001 +3.93377505243E-002 +2.09042895585E-003 -5.00586384078E-006 +4.85888667754E-005 -2.30936780572E-002 -2.65253782272E-002 
+2.21000000000E+009 +1.50585830212E-001 -3.08450102806E-001 +1.52699397877E-002 -3.64217311144E-002 -1.08112235466E-005 -4.68710568384E-005 -2.87158023566E-002 -2.44617834687E-002 
+2.41000000000E+009 +1.33541107178E-001 -3.31176817417E-001 -2.77378465980E-002 -2.61675827205E-002 -2.20479842028E-006 -8.47860064823E-006 -3.53744477034E-002 -2.21420228481E-002 
+2.61000000000E+009 +1.16011671722E-001 -3.52553427219E-001 -3.44843007624E-002 +1.62732135504E-002 -2.03460040211E-005 -4.67303252663E-005 -4.06503491104E-002 -1.93353239447E-002 
+2.81000000000E+009 +9.76294651628E-002 -3.72526824474E-001 +3.59340524301E-003 +3.77833172679E-002 +1.42486205732E-005 +2.32422589761E-005 -4.46304194629E-002 -1.44548406824E-002 
+3.01000000000E+009 +7.85358548164E-002 -3.90798121691E-001 +3.53515557945E-002 +1.00317634642E-002 +1.30072328375E-006 -5.95088340560E-006 -4.84144538641E-002 -8.58014915138E-003 
+3.21000000000E+009 +5.92716634274E-002 -4.07869428396E-001 +2.24282294512E-002 -2.92499847710E-002 -5.42762700206E-006 +4.31188436778E-006 -5.23290932178E-002 -2.18753213994E-003 
+3.41000000000E+009 +3.99982333183E-002 -4.23715412617E-001 -1.97263956070E-002 -3.08767538518E-002 +2.16670036934E-006 -7.64950618759E-006 -5.52632175386E-002 +4.85554151237E-003 
+3.61000000000E+009 +2.04396732152E-002 -4.38207745552E-001 -3.49162183702E-002 +6.71792495996E-003 +1.04831888166E-005 -5.39936252153E-007 -5.70857226849E-002 +1.17361536250E-002 
+3.81000000000E+009 +7.21969408914E-004 -4.51242804527E-001 -6.68691610917E-003 +3.54525148869E-002 -7.04411377228E-006 +2.77794310932E-006 -5.69168590009E-002 +1.91320087761E-002 
+4.01000000000E+009 -1.86362992972E-002 -4.63425666094E-001 +3.07149719447E-002 +1.83519963175E-002 -4.15280192101E-005 -9.27164819586E-007 -5.57989068329E-002 +2.69157234579E-002 
+4.21000000000E+009 -3.80925238132E-002 -4.74172532558E-001 +2.78964452446E-002 -2.11861114949E-002 -2.66313018074E-005 +4.39665018348E-005 -5.38914650679E-002 +3.55810858309E-002 
+4.41000000000E+009 -5.72591125965E-002 -4.83874529600E-001 -9.74128395319E-003 -3.44299301505E-002 +1.44108537370E-006 -1.34965857796E-005 -5.08045665920E-002 +4.40822094679E-002 
+4.61000000000E+009 -7.61143937707E-002 -4.92563009262E-001 -3.54159064591E-002 -2.76026572101E-003 -1.18425032269E-005 -6.20624177827E-006 -4.65495847166E-002 +5.14291748405E-002 
+4.81000000000E+009 -9.48901399970E-002 -5.00400245190E-001 -1.57069731504E-002 +3.15430499613E-002 +1.00841571111E-005 +1.86321904039E-005 -3.99681143463E-002 +5.85291720927E-002 
+5.01000000000E+009 -1.13159887493E-001 -5.07793009281E-001 +2.46211178601E-002 +2.66216322780E-002 -1.78076861630E-005 +1.29369545903E-005 -3.33208367229E-002 +6.51040151715E-002 
+5.21000000000E+009 -1.31046146154E-001 -5.14403700829E-001 +3.33733037114E-002 -1.40131758526E-002 +3.24096345139E-006 +3.33281263920E-006 -2.58361473680E-002 +7.10650831461E-002 
+5.41000000000E+009 -1.48664832115E-001 -5.19760191441E-001 -8.42041044962E-004 -3.63173559308E-002 -2.13183720916E-005 -6.03283660894E-006 -1.70817784965E-002 +7.63676464558E-002 
+5.61000000000E+009 -1.66299790144E-001 -5.24900257587E-001 -3.53818312287E-002 -1.19731435552E-002 +2.98174654745E-006 -1.15308948807E-005 -7.50417169183E-003 +7.95175433159E-002 
+5.81000000000E+009 -1.83212324977E-001 -5.28946578503E-001 -2.30643544346E-002 +2.94028706849E-002 -2.06197710213E-005 +9.22966194139E-007 +3.12566640787E-003 +8.03538486362E-002 
+6.01000000000E+009 -1.99597820640E-001 -5.32087743282E-001 +1.93262342364E-002 +3.21742594242E-002 +2.86387239612E-006 -1.79541275429E-005 +1.41158886254E-002 +8.22652727365E-002 
+6.21000000000E+009 -2.15830415487E-001 -5.34749090672E-001 +3.77168208361E-002 -8.05299822241E-003 -1.01400801213E-005 -9.67687628872E-006 +2.48469375074E-002 +8.19326713681E-002 
+6.41000000000E+009 -2.31282457709E-001 -5.36879062653E-001 +4.53112600371E-003 -3.81497591734E-002 +2.07343309739E-005 -1.47879336510E-005 +3.64321433008E-002 +8.00055637956E-002 
+6.61000000000E+009 -2.46797919273E-001 -5.38546085358E-001 -3.44112925231E-002 -1.73728577793E-002 -3.67284410459E-005 +3.24346146954E-005 +4.76591400802E-002 +7.48474746943E-002 
+6.81000000000E+009 -2.61956363916E-001 -5.39687693119E-001 -2.74257902056E-002 +2.76926420629E-002 -1.15763032227E-006 +1.89216134459E-005 +5.83253987134E-002 +6.88281804323E-002 
+7.01000000000E+009 -2.76415884495E-001 -5.40334761143E-001 +1.73470992595E-002 +3.42872813344E-002 -1.89756667623E-006 +1.32059403768E-005 +6.80897906423E-002 +6.28620237112E-002 
+7.21000000000E+009 -2.90632039309E-001 -5.40512919426E-001 +3.78969609737E-002 -5.16917882487E-003 -2.70684836323E-006 -3.02134571939E-006 +7.73749426007E-002 +5.41145913303E-002 
+7.41000000000E+009 -3.04142922163E-001 -5.40664911270E-001 +6.38924771920E-003 -3.73464263976E-002 -8.21614412416E-006 -2.22862872761E-005 +8.65271613002E-002 +4.38642986119E-002 
+7.61000000000E+009 -3.16909521818E-001 -5.40055871010E-001 -3.25248613954E-002 -1.73356067389E-002 -4.20412743551E-006 -1.79879571078E-005 +9.28372219205E-002 +3.18642593920E-002 
+7.81000000000E+009 -3.29993367195E-001 -5.38907647133E-001 -2.59963944554E-002 +2.48606186360E-002 +5.85593670621E-006 +7.72479597799E-006 +9.82188954949E-002 +1.97099614888E-002 
+8.01000000000E+009 -3.42061668634E-001 -5.37685513496E-001 +1.52867203578E-002 +3.12178768218E-002 -2.20358879233E-006 -2.86979934572E-006 +1.01985871792E-001 +5.91556634754E-003 
+8.21000000000E+009 -3.53937655687E-001 -5.36142230034E-001 +3.27737964690E-002 -4.53069806099E-003 -2.57619431068E-005 +1.44379500853E-005 +1.04157187045E-001 -8.30229744315E-003 
+8.41000000000E+009 -3.65453511477E-001 -5.34014999866E-001 +5.83522813395E-003 -3.11543457210E-002 -2.24584709940E-005 -2.57759234046E-006 +1.03557765484E-001 -2.34966725111E-002 
+8.61000000000E+009 -3.76601666212E-001 -5.32200932503E-001 -2.61661075056E-002 -1.45473387092E-002 -4.04182756029E-005 -1.77228798748E-006 +1.00203208625E-001 -3.88788878918E-002 
+8.81000000000E+009 -3.87237548828E-001 -5.30239760876E-001 -2.08976436406E-002 +1.90257336944E-002 -1.74296856130E-005 +5.02053717355E-006 +9.49603691697E-002 -5.43132238090E-002 
+9.01000000000E+009 -3.97640734911E-001 -5.27915179729E-001 +1.05153406039E-002 +2.42035016418E-002 -3.97477997467E-005 +1.63006043294E-005 +8.83690640330E-002 -6.81025907397E-002 
+9.21000000000E+009 -4.07673358917E-001 -5.25638997555E-001 +2.45678182691E-002 -1.55630661175E-003 +7.87564204074E-006 -1.05568178697E-005 +7.84620940685E-002 -8.28214958310E-002 
+9.41000000000E+009 -4.16980743408E-001 -5.23388504982E-001 +6.17615971714E-003 -2.22813934088E-002 +3.97598632844E-005 -2.25799904001E-005 +6.59664347768E-002 -9.62923243642E-002 
+9.61000000000E+009 -4.26271677017E-001 -5.20704865456E-001 -1.73469949514E-002 -1.23352175578E-002 -1.07283885882E-005 +1.55956495291E-005 +5.07534630597E-002 -1.08487218618E-001 
+9.81000000000E+009 -4.34899240732E-001 -5.18823504448E-001 -1.64634082466E-002 +1.10819470137E-002 +8.48579475132E-006 -1.78479422175E-005 +3.54867652059E-002 -1.17826782167E-001 
+1.00100000000E+010 -4.43938255310E-001 -5.16101837158E-001 +4.47661755607E-003 +1.79374013096E-002 -7.63124171499E-006 -3.02357011606E-006 +1.85903534293E-002 -1.25469192863E-001 
+1.02100000000E+010 -4.52071100473E-001 -5.13030230999E-001 +1.67328920215E-002 +2.07091565244E-003 -4.15749127569E-005 +2.31949343288E-005 +4.95505344588E-004 -1.32328227162E-001 
+1.04100000000E+010 -4.60203438997E-001 -5.10597825050E-001 +7.57840974256E-003 -1.38644967228E-002 -3.62067771675E-006 +1.91230560631E-006 -2.00148653239E-002 -1.37680530548E-001 
+1.06100000000E+010 -4.68150973320E-001 -5.07894873619E-001 -9.51986387372E-003 -1.12375058234E-002 +2.12911563722E-005 +1.31058095576E-005 -4.17436659336E-002 -1.40124931931E-001 
+1.08100000000E+010 -4.74960714579E-001 -5.06008565426E-001 -1.28842163831E-002 +4.27288189530E-003 -3.51770790985E-006 -1.65005803865E-005 -6.35247901082E-002 -1.39572173357E-001 
+1.10100000000E+010 -4.82158571482E-001 -5.03439128399E-001 -8.66155140102E-004 +1.28595177084E-002 +3.32292293024E-005 +6.49958519716E-006 -8.53197872639E-002 -1.36102437973E-001 
+1.12100000000E+010 -4.88753706217E-001 -5.01663923264E-001 +1.10008306801E-002 +5.05143031478E-003 -2.54617043538E-005 +2.30583900702E-005 -1.09058730304E-001 -1.29889100790E-001 
+1.14100000000E+010 -4.95692223310E-001 -4.99103337526E-001 +8.16029775888E-003 -7.64422956854E-003 +1.92489569599E-005 -1.40910219670E-006 -1.32085695863E-001 -1.19843825698E-001 
+1.16100000000E+010 -5.01119792461E-001 -4.96866554022E-001 -3.78164951690E-003 -9.95652936399E-003 +1.53230703290E-005 +1.70258845174E-005 -1.54174014926E-001 -1.06371276081E-001 
+1.18100000000E+010 -5.06886780262E-001 -4.94506686926E-001 -9.96385887265E-003 -5.89117553318E-005 -1.12041589091E-005 -9.22911908674E-007 -1.73469305038E-001 -8.94115418196E-002 
+1.20100000000E+010 -5.12727618217E-001 -4.91841584444E-001 -3.59985069372E-003 +8.44820123166E-003 +2.38721750065E-005 -2.97482692986E-005 -1.90409988165E-001 -7.01607018709E-002 
+1.22100000000E+010 -5.18740713596E-001 -4.88903194666E-001 +6.11454248428E-003 +6.31398102269E-003 +5.47284980712E-006 -1.06072520794E-005 -2.07589447498E-001 -4.83811050653E-002 
+1.24100000000E+010 -5.24092435837E-001 -4.86327320337E-001 +7.62579124421E-003 -3.18468012847E-003 +5.20728349329E-007 +2.92594995699E-005 -2.22361221910E-001 -2.31986697763E-002 
+1.26100000000E+010 -5.29252469540E-001 -4.83664870262E-001 +4.96351203765E-005 -7.74274393916E-003 +1.37871975312E-005 +1.90487007785E-005 -2.32314348221E-001 +4.32322639972E-003 
+1.28100000000E+010 -5.34348726273E-001 -4.80833172798E-001 -6.87949126586E-003 -2.87159369327E-003 +5.69410485696E-006 -8.37104835227E-006 -2.38813519478E-001 +3.32210473716E-002 
+1.30100000000E+010 -5.39350569248E-001 -4.77381139994E-001 -4.85056173056E-003 +5.03038987517E-003 -1.49734223669E-005 +4.81112874695E-006 -2.42498397827E-001 +6.31357133389E-002 
+1.32100000000E+010 -5.43919384480E-001 -4.74306136370E-001 +2.52077449113E-003 +5.98019035533E-003 +2.36839514400E-005 -1.75466411747E-005 -2.42953166366E-001 +9.45478007197E-002 
+1.34100000000E+010 -5.48499763012E-001 -4.70586568117E-001 +6.19768304750E-003 -9.15014388738E-005 +2.15953878069E-005 -7.21792105196E-007 -2.39341422915E-001 +1.26411616802E-001 
+1.36100000000E+010 -5.51243364811E-001 -4.67608809471E-001 +2.06847465597E-003 -5.33116515726E-003 -8.77636296082E-007 +1.96267919819E-005 -2.31346115470E-001 +1.59179598093E-001 
+1.38100000000E+010 -5.55949747562E-001 -4.65251296759E-001 -3.73114924878E-003 -3.77520476468E-003 -2.21569689529E-006 +2.45584487857E-005 -2.18268126249E-001 +1.90910190344E-001 
+1.40100000000E+010 -5.60648977757E-001 -4.62479442358E-001 -4.82033612207E-003 +1.85604835860E-003 +1.60395811690E-005 +1.10144565042E-005 -2.01653540134E-001 +2.21814751625E-001 
+1.42100000000E+010 -5.64757764339E-001 -4.59918171167E-001 -1.65077566635E-004 +4.80094784871E-003 +7.92408627603E-007 -2.35920269915E-005 -1.81249439716E-001 +2.52914905548E-001 
+1.44100000000E+010 -5.69121241570E-001 -4.56636726856E-001 +4.04450437054E-003 +2.03831936233E-003 -1.88432059076E-005 -2.16615189856E-005 -1.55692592263E-001 +2.81503647566E-001 
+1.46100000000E+010 -5.72480440140E-001 -4.53948229551E-001 +3.43643827364E-003 -2.79501802288E-003 -4.59000830233E-006 -1.08328204078E-005 -1.25117138028E-001 +3.06870669127E-001 
+1.48100000000E+010 -5.75570225716E-001 -4.49100583792E-001 -1.24772754498E-003 -4.07291809097E-003 -2.99500129586E-006 -1.25636267967E-006 -9.20803546906E-002 +3.28953862190E-001 
+1.50100000000E+010 -5.76857209206E-001 -4.48671281338E-001 -4.09847637638E-003 -5.08862722199E-004 +1.01207933767E-005 +7.07737308403E-006 -5.64317815006E-002 +3.48140060902E-001 
+1.52100000000E+010 -5.79448878765E-001 -4.48447018862E-001 -1.96664454415E-003 +3.56005714275E-003 -3.02096796077E-005 -1.12748439278E-005 -1.76578182727E-002 +3.63177120686E-001 
+1.54100000000E+010 -5.82822442055E-001 -4.46891784668E-001 +2.42176605389E-003 +2.90647568181E-003 -1.66641399346E-007 +1.86992417639E-006 +2.45015658438E-002 +3.73198926449E-001 
+1.56100000000E+010 -5.86289167404E-001 -4.43841964006E-001 +3.49596492015E-003 -9.65978542808E-004 +7.76724755269E-006 +1.15736465887E-005 +6.82290792465E-002 +3.77351641655E-001 
+1.58100000000E+010 -5.87549924850E-001 -4.43541646004E-001 +3.92223621020E-004 -3.54033149779E-003 -3.46029742104E-006 -7.02204260961E-006 +1.11724585295E-001 +3.78025650978E-001 
+1.60100000000E+010 -5.89823126793E-001 -4.42469835281E-001 -2.93430802412E-003 -1.63105328102E-003 +1.75619479705E-005 +2.56686435023E-005 +1.56781360507E-001 +3.73226583004E-001 
+1.62100000000E+010 -5.92018067837E-001 -4.41331446171E-001 -2.53940513358E-003 +1.89121940639E-003 -1.60189556482E-005 -9.77436502581E-006 +2.04117566347E-001 +3.63097280264E-001 
+1.64100000000E+010 -5.93957483768E-001 -4.40230786800E-001 +7.59690883569E-004 +2.99165491015E-003 +1.28184838104E-005 -1.69017894223E-005 +2.50846654177E-001 +3.46947431564E-001 
+1.66100000000E+010 -5.97472608089E-001 -4.39140945673E-001 +2.87742307410E-003 +3.87704349123E-004 -2.78087700281E-005 -1.03073416540E-005 +2.94699728489E-001 +3.23157995939E-001 
+1.68100000000E+010 -6.00736916065E-001 -4.37175542116E-001 +1.46853656042E-003 -2.37288908102E-003 -2.41023863055E-005 +1.04478413050E-005 +3.37590068579E-001 +2.95762121677E-001 
+1.70100000000E+010 -6.02809488773E-001 -4.35506790876E-001 -1.59401958808E-003 -2.19963863492E-003 +1.66851041286E-005 +3.29765462084E-005 +3.77485275269E-001 +2.64406681061E-001 
+1.72100000000E+010 -6.05300307274E-001 -4.33709055185E-001 -2.49849003740E-003 +5.75327256229E-004 +4.90252568852E-006 +3.59803743777E-005 +4.14785385132E-001 +2.26058527827E-001 
+1.74100000000E+010 -6.08324825764E-001 -4.32296901941E-001 -4.89524449222E-004 +2.35481956042E-003 -6.59666341107E-007 +2.66544284386E-005 +4.48067545891E-001 +1.83376088738E-001 
+1.76100000000E+010 -6.11117005348E-001 -4.30558890104E-001 +1.97275751270E-003 +1.35486968793E-003 -4.63910182589E-005 -1.72340278368E-005 +4.76050496101E-001 +1.37525036931E-001 
+1.78100000000E+010 -6.14202201366E-001 -4.28887337446E-001 +1.81722606067E-003 -1.21969461907E-003 -8.01677106210E-006 +1.62424639711E-005 +4.99697506428E-001 +8.89079421759E-002 
+1.80100000000E+010 -6.16750180721E-001 -4.26987737417E-001 -3.03694367176E-004 -2.13055405766E-003 +3.43995707226E-005 -2.19828489207E-005 +5.18811464310E-001 +3.78063023090E-002 
+1.82100000000E+010 -6.19707345963E-001 -4.25501644611E-001 -2.01708194800E-003 -5.16268308274E-004 -1.24182697618E-005 -1.04244873000E-005 +5.31800389290E-001 -1.66922230273E-002 
+1.84100000000E+010 -6.22617185116E-001 -4.24271315336E-001 -1.15022144746E-003 +1.59613043070E-003 +1.91379276657E-005 -6.07327592661E-006 +5.38224995136E-001 -7.38141462207E-002 
+1.86100000000E+010 -6.25943362713E-001 -4.22636747360E-001 +9.11540002562E-004 +1.65085413028E-003 +8.12815926565E-007 -8.16717874841E-006 +5.37985086441E-001 -1.30483359098E-001 
+1.88100000000E+010 -6.28656506538E-001 -4.20429140329E-001 +1.85357418377E-003 -1.86704302905E-004 -1.71031733771E-005 +4.19979369326E-005 +5.32066702843E-001 -1.86568483710E-001 
+1.90100000000E+010 -6.30458712578E-001 -4.18828308582E-001 +5.45815448277E-004 -1.68896664400E-003 +4.33801596955E-006 -1.47498940350E-005 +5.20731389523E-001 -2.42503166199E-001 
+1.92100000000E+010 -6.32806599140E-001 -4.18125689030E-001 -1.26379576977E-003 -1.10498408321E-003 -2.08004312299E-005 -3.73872376258E-006 +5.02959907055E-001 -2.99621164799E-001 
+1.94100000000E+010 -6.35696709156E-001 -4.16627466679E-001 -1.46063242573E-003 +6.95226830430E-004 -8.15280873212E-005 -7.42462725611E-005 +4.77617412806E-001 -3.54482024908E-001 
+1.96100000000E+010 -6.36980175972E-001 -4.14733052254E-001 +7.03555415384E-005 +1.57620524988E-003 +2.16492135223E-005 -6.95116250427E-006 +4.46974515915E-001 -4.06503885984E-001 
+1.98100000000E+010 -6.36953890324E-001 -4.12201523781E-001 +1.42868014518E-003 +5.48328913283E-004 +4.28407884101E-006 +1.65487581398E-005 +4.12134081125E-001 -4.53811824322E-001 
+2.00100000000E+010 -6.36534631252E-001 -4.11137044430E-001 +1.01808365434E-003 -1.09606480692E-003 -1.41313985296E-005 +2.51608980761E-005 +3.70423287153E-001 -5.00085830688E-001 
