!;Filter: kein Filter
!auto
!3/21/2019 9:26:52 AM
!3/21/2019 9:27:07 AM
!SP-Measurements Prober G4
!SP-Measurements Prober G4
!01103_448C
!134
!233
!12
!60
!-20
!0.00199954
!1.75
!0.22129449
!0.22129449
# Hz S  RI   R 50
+1.00000000000E+007 +3.70911598206E-001 +6.53753615916E-003 +4.55692075193E-002 -2.20060572028E-002 +5.13798207976E-004 +9.63970014709E-005 +5.12688653544E-003 +1.12332624849E-003 
+2.10000000000E+008 +3.88224422932E-001 -3.64038497210E-002 -3.78853268921E-003 -4.62603271008E-002 +3.25092059938E-006 -2.73784826277E-005 +8.72093718499E-003 -4.74407756701E-003 
+4.10000000000E+008 +3.86210203171E-001 -7.93475210667E-002 -4.38042022288E-002 -1.19295669720E-002 -2.07444863918E-005 -2.63116162387E-005 +1.00545091555E-002 -7.80943082646E-003 
+6.10000000000E+008 +3.79578828812E-001 -1.20647303760E-001 -2.53872293979E-002 +3.56983169913E-002 +1.15500897664E-005 -1.63535169122E-005 +9.69979166985E-003 -1.15392096341E-002 
+8.10000000000E+008 +3.69152754545E-001 -1.60267040133E-001 +2.36411709338E-002 +3.54400947690E-002 -3.39976828911E-008 +2.29053239309E-006 +7.20140198246E-003 -1.54747348279E-002 
+1.01000000000E+009 +3.56442719698E-001 -1.98244601488E-001 +4.16520275176E-002 -1.00705893710E-002 +4.84005613544E-006 +4.05603896070E-006 +2.79878568836E-003 -1.91488582641E-002 
+1.21000000000E+009 +3.40859115124E-001 -2.34101012349E-001 +5.33350929618E-003 -4.14394065738E-002 +1.01060795714E-005 -2.46673334914E-005 -1.79757666774E-003 -2.10518240929E-002 
+1.41000000000E+009 +3.23652952909E-001 -2.68199980259E-001 -3.63601744175E-002 -1.98529586196E-002 +2.97249630421E-006 +2.90584921459E-005 -7.57065601647E-003 -2.43477728218E-002 
+1.61000000000E+009 +3.05530965328E-001 -3.00555020571E-001 -3.13514024019E-002 +2.72810924798E-002 +1.27696566778E-005 -1.13689020509E-005 -1.35738821700E-002 -2.68275048584E-002 
+1.81000000000E+009 +2.84851521254E-001 -3.30881983042E-001 +1.37649243698E-002 +3.84170487523E-002 +1.22232349895E-005 -1.00828274299E-005 -1.78124979138E-002 -2.79042683542E-002 
+2.01000000000E+009 +2.64169991016E-001 -3.59188288450E-001 +4.07786443830E-002 +1.23283488210E-003 +9.45267311181E-006 +2.12411941902E-005 -2.30893772095E-002 -2.65545658767E-002 
+2.21000000000E+009 +2.42294609547E-001 -3.86076599360E-001 +1.56108839437E-002 -3.83205153048E-002 -4.24708514402E-006 +2.70111722784E-005 -2.86777485162E-002 -2.45456453413E-002 
+2.41000000000E+009 +2.18865975738E-001 -4.10635232925E-001 -2.95714698732E-002 -2.79200561345E-002 +1.15929133244E-005 -2.80455624306E-005 -3.53985503316E-002 -2.21875999123E-002 
+2.61000000000E+009 +1.95427566767E-001 -4.33211743832E-001 -3.74129004776E-002 +1.74714662135E-002 +3.95744682464E-005 -7.26001235307E-006 -4.06681783497E-002 -1.94007828832E-002 
+2.81000000000E+009 +1.71551898122E-001 -4.54233765602E-001 +3.58940358274E-003 +4.21075746417E-002 +2.23421520786E-005 -4.98608324051E-006 -4.47216778994E-002 -1.45178148523E-002 
+3.01000000000E+009 +1.46851211786E-001 -4.73170727491E-001 +3.99354211986E-002 +1.14873116836E-002 -2.31503145187E-005 +4.93046900374E-006 -4.84584197402E-002 -8.63180868328E-003 
+3.21000000000E+009 +1.22566781938E-001 -4.90365445614E-001 +2.60760504752E-002 -3.37420552969E-002 +1.22827932501E-005 -1.50752457557E-005 -5.23507669568E-002 -2.21287971362E-003 
+3.41000000000E+009 +9.86109152436E-002 -5.06374657154E-001 -2.38080006093E-002 -3.71707528830E-002 -9.61205728345E-007 +2.92961453852E-006 -5.53420223296E-002 +4.85436525196E-003 
+3.61000000000E+009 +7.42816478014E-002 -5.20725786686E-001 -4.28313538432E-002 +9.23551525921E-003 +1.06700299511E-005 -1.02282911030E-006 -5.71452490985E-002 +1.17330476642E-002 
+3.81000000000E+009 +5.02132438123E-002 -5.33211171627E-001 -7.38005060703E-003 +4.48180288076E-002 -1.80843017006E-005 +1.74528358912E-005 -5.69442324340E-002 +1.90982967615E-002 
+4.01000000000E+009 +2.69352924079E-002 -5.45263767242E-001 +4.23480682075E-002 +2.23950985819E-002 +1.83613901754E-005 +2.40266472247E-005 -5.58659322560E-002 +2.69563496113E-002 
+4.21000000000E+009 +3.19724576548E-003 -5.55376887321E-001 +3.49165275693E-002 -3.20349223912E-002 +1.58601742442E-005 +5.83910150453E-006 -5.39711825550E-002 +3.56072783470E-002 
+4.41000000000E+009 -1.95246357471E-002 -5.64227521420E-001 -1.83025784791E-002 -4.64779511094E-002 +2.84916677629E-006 +2.43927388510E-005 -5.08861579001E-002 +4.41488660872E-002 
+4.61000000000E+009 -4.21088188887E-002 -5.72626113892E-001 -5.33451400697E-002 +4.79197455570E-003 +1.14020749606E-005 +2.17857432290E-005 -4.65865246952E-002 +5.14464154840E-002 
+4.81000000000E+009 -6.48123174906E-002 -5.79326212406E-001 -1.21601950377E-002 +5.08435107768E-002 +1.42956660056E-005 -3.92282527173E-005 -4.00305166841E-002 +5.86432293057E-002 
+5.01000000000E+009 -8.62191170454E-002 -5.85752606392E-001 +4.73849475384E-002 +3.05062718689E-002 -1.99952773983E-005 -7.94583684183E-006 -3.33593450487E-002 +6.52079954743E-002 
+5.21000000000E+009 -1.08050964773E-001 -5.91725468636E-001 +4.24809902906E-002 -4.13797684014E-002 -2.50563771260E-005 +1.09153133963E-005 -2.58678346872E-002 +7.10951015353E-002 
+5.41000000000E+009 -1.29218414426E-001 -5.95273613930E-001 -2.55117565393E-002 -5.02636134624E-002 -4.74811968161E-005 +1.45449021147E-005 -1.71008873731E-002 +7.65024647117E-002 
+5.61000000000E+009 -1.50041997433E-001 -5.99171638489E-001 -5.93334995210E-002 +1.04807857424E-002 -1.23130193970E-005 +2.09136869671E-005 -7.48404022306E-003 +7.96004086733E-002 
+5.81000000000E+009 -1.70888960361E-001 -6.01203739643E-001 -2.65057431534E-004 +5.94621598721E-002 -3.35915365213E-006 -6.92093044563E-006 +3.16497660242E-003 +8.04791301489E-002 
+6.01000000000E+009 -1.89771354198E-001 -6.01823449135E-001 +5.14136664569E-002 +1.68783683330E-002 +7.29568955649E-006 +6.39028712612E-007 +1.41771091148E-002 +8.23928937316E-002 
+6.21000000000E+009 -2.08676934242E-001 -6.02332413197E-001 +3.03114112467E-002 -4.66328486800E-002 +8.22969525416E-007 -2.65707385552E-005 +2.48811282218E-002 +8.19832980633E-002 
+6.41000000000E+009 -2.26484268904E-001 -6.01482510567E-001 -3.59142385423E-002 -3.48208509386E-002 -2.42941441684E-005 -9.15065356821E-006 +3.65002602339E-002 +8.00929144025E-002 
+6.61000000000E+009 -2.43198275566E-001 -6.00741744041E-001 -3.99889536202E-002 +1.91103704274E-002 -1.78041807430E-006 -1.12008206088E-006 +4.77211140096E-002 +7.49368816614E-002 
+6.81000000000E+009 -2.59958624840E-001 -5.99600017071E-001 +7.79498182237E-003 +4.27251011133E-002 +5.58570400244E-006 +9.33141473070E-006 +5.84118701518E-002 +6.88753500581E-002 
+7.01000000000E+009 -2.75313049555E-001 -5.97885072231E-001 +3.70380878448E-002 +2.90306750685E-003 +8.05417312222E-006 +1.54871249833E-005 +6.82183280587E-002 +6.29043430090E-002 
+7.21000000000E+009 -2.90280401707E-001 -5.96264481544E-001 +1.50262601674E-002 -2.95525491238E-002 -1.03913052953E-005 +6.96163351677E-006 +7.74563848972E-002 +5.41825965047E-002 
+7.41000000000E+009 -3.04771095514E-001 -5.94588994980E-001 -2.29173824191E-002 -2.18958314508E-002 +1.65282199305E-005 +2.54933256656E-005 +8.66603478789E-002 +4.39142137766E-002 
+7.61000000000E+009 -3.18133682013E-001 -5.92349112034E-001 -2.37825587392E-002 +1.27817671746E-002 +1.84721284313E-005 -9.62274498306E-006 +9.29967686534E-002 +3.18750850856E-002 
+7.81000000000E+009 -3.31807285547E-001 -5.89785695076E-001 +2.02015228570E-003 +2.44298465550E-002 -1.66330337379E-005 +6.12046369497E-006 +9.83300283551E-002 +1.96976959705E-002 
+8.01000000000E+009 -3.44578117132E-001 -5.87093234062E-001 +2.25860904902E-002 +5.37564652041E-003 +2.56521670963E-005 +3.00536594295E-005 +1.02137170732E-001 +5.89214917272E-003 
+8.21000000000E+009 -3.56927633286E-001 -5.84135949612E-001 +1.09837288037E-002 -1.67035721242E-002 +1.41524005812E-005 +4.68926117492E-007 +1.04267358780E-001 -8.38339328766E-003 
+8.41000000000E+009 -3.69021683931E-001 -5.80894887447E-001 -9.93264559656E-003 -1.55202345923E-002 +7.49751598050E-006 +2.41093999875E-007 +1.03658974171E-001 -2.35875658691E-002 
+8.61000000000E+009 -3.80785763264E-001 -5.77815532684E-001 -1.69770885259E-002 +4.05779015273E-003 +1.13161067929E-005 +1.35871277962E-006 +1.00347213447E-001 -3.89622859657E-002 
+8.81000000000E+009 -3.91908377409E-001 -5.74705898762E-001 -1.94073549937E-003 +1.51153970510E-002 +9.37674485613E-006 +2.71985072686E-006 +9.50576961040E-002 -5.44225722551E-002 
+9.01000000000E+009 -4.02852773666E-001 -5.71295261383E-001 +1.20418891311E-002 +7.47335329652E-003 -1.08381173050E-005 +1.00124161690E-005 +8.84711444378E-002 -6.82382732630E-002 
+9.21000000000E+009 -4.13421481848E-001 -5.67831993103E-001 +1.05335451663E-002 -8.36287066340E-003 +3.44854333889E-006 +2.79080941255E-005 +7.85110071301E-002 -8.29858854413E-002 
+9.41000000000E+009 -4.23122614622E-001 -5.64450144768E-001 -3.44690564089E-003 -1.14152934402E-002 +2.42503642767E-006 -9.43500344874E-006 +6.60050138831E-002 -9.64266732335E-002 
+9.61000000000E+009 -4.32869881392E-001 -5.60762166977E-001 -1.10668614507E-002 -1.48277450353E-003 -1.98915095098E-005 +2.71589578915E-006 +5.07927015424E-002 -1.08626350760E-001 
+9.81000000000E+009 -4.41844910383E-001 -5.57741820812E-001 -4.96622733772E-003 +9.35711339116E-003 -9.96916696749E-006 +4.69631504529E-006 +3.54628562927E-002 -1.17999814451E-001 
+1.00100000000E+010 -4.51257824898E-001 -5.54122269154E-001 +6.08387077227E-003 +7.27764097974E-003 +1.35097934617E-005 +6.73444264976E-006 +1.85718610883E-002 -1.25647276640E-001 
+1.02100000000E+010 -4.59755510092E-001 -5.50009250641E-001 +8.64512380213E-003 -2.37522437237E-003 +3.06073002321E-006 -6.22344168733E-006 +4.45414974820E-004 -1.32505118847E-001 
+1.04100000000E+010 -4.68159317970E-001 -5.46516835690E-001 +8.18583706859E-004 -8.49993247539E-003 -2.12371287489E-005 +1.02419635368E-005 -2.00763940811E-002 -1.37827202678E-001 
+1.06100000000E+010 -4.76374447346E-001 -5.42966723442E-001 -6.82780565694E-003 -3.57522373088E-003 -3.27218913299E-005 +1.45704476040E-007 -4.18433323503E-002 -1.40257492661E-001 
+1.08100000000E+010 -4.83383804560E-001 -5.40066599846E-001 -5.79325901344E-003 +4.50424849987E-003 -1.96992714336E-005 -2.30603800446E-005 -6.36571720243E-002 -1.39691635966E-001 
+1.10100000000E+010 -4.90845859051E-001 -5.36596477032E-001 +2.00508767739E-003 +6.68382551521E-003 -4.81905544802E-006 +2.06748190976E-005 -8.54512825608E-002 -1.36229917407E-001 
+1.12100000000E+010 -4.97547268867E-001 -5.33984005451E-001 +6.32395502180E-003 +6.38916913886E-004 +2.04022890102E-005 -1.70212515513E-005 -1.09224073589E-001 -1.30000084639E-001 
+1.14100000000E+010 -5.04709422588E-001 -5.30583262444E-001 +3.07679991238E-003 -5.23033691570E-003 -4.63678316009E-006 +4.33931963926E-005 -1.32296517491E-001 -1.20004080236E-001 
+1.16100000000E+010 -5.10276436806E-001 -5.27522385120E-001 -3.60413524322E-003 -4.55363932997E-003 +1.46887468873E-005 -3.17196427204E-005 -1.54363930225E-001 -1.06408603489E-001 
+1.18100000000E+010 -5.16218364239E-001 -5.24410188198E-001 -5.10240392759E-003 +1.43889628816E-003 -5.80031837671E-006 +1.06344068627E-005 -1.73677861691E-001 -8.95052701235E-002 
+1.20100000000E+010 -5.22212684155E-001 -5.21023094654E-001 -7.51574349124E-004 +5.00766420737E-003 +7.81839662523E-006 -8.57431041368E-006 -1.90648570657E-001 -7.01356455684E-002 
+1.22100000000E+010 -5.28330504894E-001 -5.17263889313E-001 +4.21443022788E-003 +2.45861453004E-003 -5.45354259884E-006 +5.31422983840E-006 -2.07812592387E-001 -4.83393259346E-002 
+1.24100000000E+010 -5.33741950989E-001 -5.13979971409E-001 +3.57711012475E-003 -2.66274693422E-003 +5.37193227501E-006 +1.85605642855E-006 -2.22527325153E-001 -2.31554973871E-002 
+1.26100000000E+010 -5.39052844048E-001 -5.10565817356E-001 -9.20316088013E-004 -4.18110610917E-003 +1.30041789816E-005 +8.46942839416E-006 -2.32551172376E-001 +4.43846452981E-003 
+1.28100000000E+010 -5.44248938560E-001 -5.07127523422E-001 -4.06142463908E-003 -6.92965055350E-004 +1.43363195093E-006 -9.51774472924E-006 -2.38937690854E-001 +3.33464443684E-002 
+1.30100000000E+010 -5.49282252789E-001 -5.02930402756E-001 -2.04735295847E-003 +3.21145541966E-003 -1.38981422424E-005 +1.40919496516E-006 -2.42655530572E-001 +6.32826238871E-002 
+1.32100000000E+010 -5.53876578808E-001 -4.99237000942E-001 +2.02285894193E-003 +3.03449435160E-003 +1.83521624422E-005 -2.92659315164E-005 -2.43086695671E-001 +9.47581678629E-002 
+1.34100000000E+010 -5.58627665043E-001 -4.94871914387E-001 +3.42767452821E-003 -7.22537282854E-004 -1.45054473251E-005 -1.67585112649E-005 -2.39494979382E-001 +1.26620158553E-001 
+1.36100000000E+010 -5.61358094215E-001 -4.91304844618E-001 +6.63648650516E-004 -3.24626918882E-003 +1.33230787469E-005 -9.10132143872E-007 -2.31454610825E-001 +1.59410446882E-001 
+1.38100000000E+010 -5.66071093082E-001 -4.88292008638E-001 -2.52118380740E-003 -1.81853666436E-003 +1.31073629746E-005 +2.23114875553E-005 -2.18312427402E-001 +1.91169559956E-001 
+1.40100000000E+010 -5.70682466030E-001 -4.84918177128E-001 -2.56571709178E-003 +1.62076659035E-003 +1.18044736155E-005 -8.04258434073E-006 -2.01720193028E-001 +2.22030729055E-001 
+1.42100000000E+010 -5.74823796749E-001 -4.81794357300E-001 +4.38838324044E-004 +2.75367940776E-003 -1.51309077410E-005 -1.38805689858E-005 -1.81222736835E-001 +2.53200441599E-001 
+1.44100000000E+010 -5.79230487347E-001 -4.77976948023E-001 +2.60208942927E-003 +6.95858092513E-004 +3.03085344058E-005 -3.49899310095E-005 -1.55606910586E-001 +2.81772315502E-001 
+1.46100000000E+010 -5.82496285439E-001 -4.74796772003E-001 +1.60181964748E-003 -2.05687712878E-003 -1.44978221215E-005 +2.04454754567E-005 -1.24946743250E-001 +3.07135283947E-001 
+1.48100000000E+010 -5.85585832596E-001 -4.69304382801E-001 -1.22797186486E-003 -2.13160994463E-003 -2.43147133006E-005 +2.06459244509E-005 -9.19094458222E-002 +3.29157054424E-001 
+1.50100000000E+010 -5.86785554886E-001 -4.68429058790E-001 -2.33470625244E-003 +2.03437986784E-004 +1.28368028527E-005 +7.59379918236E-006 -5.62480837107E-002 +3.48346889019E-001 
+1.52100000000E+010 -5.89275479317E-001 -4.67676073313E-001 -6.72864320222E-004 +2.16388562694E-003 -4.21043523602E-006 -8.99484621186E-006 -1.74120459706E-002 +3.63410443068E-001 
+1.54100000000E+010 -5.92608928680E-001 -4.65670704842E-001 +1.58033927437E-003 +1.37507531326E-003 +9.74264003162E-006 -2.30784712585E-006 +2.47320048511E-002 +3.73341470957E-001 
+1.56100000000E+010 -5.96058249474E-001 -4.62119579315E-001 +1.86885707080E-003 -8.91975476407E-004 +1.17479166875E-005 +8.38277355797E-006 +6.85345903039E-002 +3.77479046583E-001 
+1.58100000000E+010 -5.97182989120E-001 -4.61429566145E-001 -7.99142726464E-005 -1.98784167878E-003 +5.94269658905E-006 -6.92372441335E-006 +1.12086616457E-001 +3.78093808889E-001 
+1.60100000000E+010 -5.99356591702E-001 -4.59982424974E-001 -1.76063051913E-003 -6.58843375277E-004 +2.61164095718E-005 +1.32168395339E-006 +1.57136932015E-001 +3.73302280903E-001 
+1.62100000000E+010 -6.01507306099E-001 -4.58473503590E-001 -1.28613749985E-003 +1.26460473984E-003 -4.25698708568E-005 -2.32299007621E-005 +2.04480320215E-001 +3.63039731979E-001 
+1.64100000000E+010 -6.03437006474E-001 -4.56991553307E-001 +7.01385666616E-004 +1.62472575903E-003 +3.08000630866E-006 -5.96731888436E-006 +2.51177012920E-001 +3.46831977367E-001 
+1.66100000000E+010 -6.06949388981E-001 -4.55541551113E-001 +1.67549634352E-003 +1.48981307575E-005 +8.76080594026E-006 +3.07229784084E-005 +2.95003473759E-001 +3.22992563248E-001 
+1.68100000000E+010 -6.10093832016E-001 -4.53162580729E-001 +6.05676439591E-004 -1.42868678086E-003 -1.44922805703E-005 +2.73148089036E-006 +3.37848812342E-001 +2.95526862144E-001 
+1.70100000000E+010 -6.12006068230E-001 -4.51074421406E-001 -1.03408424184E-003 -1.12680578604E-003 +4.69803126180E-006 +4.82140194435E-006 +3.77750635147E-001 +2.64187306166E-001 
+1.72100000000E+010 -6.14517807961E-001 -4.49040263891E-001 -1.37959758285E-003 +4.70350787509E-004 +3.65012529073E-005 +2.97372116620E-005 +4.15062725544E-001 +2.25701317191E-001 
+1.74100000000E+010 -6.17500603199E-001 -4.47287291288E-001 -1.01368903415E-004 +1.36214634404E-003 +1.12649868242E-005 +1.64361717907E-005 +4.48271125555E-001 +1.82979092002E-001 
+1.76100000000E+010 -6.20177030563E-001 -4.45162951946E-001 +1.20791909285E-003 +5.95252728090E-004 +2.93546054309E-005 -3.91604407923E-005 +4.76222753525E-001 +1.37143269181E-001 
+1.78100000000E+010 -6.23283386230E-001 -4.43235665560E-001 +1.03058875538E-003 -8.29159980640E-004 +3.50991504092E-005 +2.33702830883E-005 +4.99805122614E-001 +8.85042548180E-002 
+1.80100000000E+010 -6.25828981400E-001 -4.40976351500E-001 -3.06926463963E-004 -1.17624993436E-003 -2.53046709986E-005 -6.67792437525E-006 +5.18811285496E-001 +3.73495891690E-002 
+1.82100000000E+010 -6.28664016724E-001 -4.39291805029E-001 -1.17971270811E-003 -1.90492981346E-004 +1.31628003146E-005 +2.00814320124E-005 +5.31866669655E-001 -1.70597042888E-002 
+1.84100000000E+010 -6.31435096264E-001 -4.37649399042E-001 -6.04649772868E-004 +9.59886761848E-004 -2.86296562990E-005 -2.38717848333E-006 +5.38177490234E-001 -7.42719620466E-002 
+1.86100000000E+010 -6.34594202042E-001 -4.35654431581E-001 +6.31783157587E-004 +9.21710743569E-004 +2.59546004600E-006 +1.77440178959E-005 +5.37876069546E-001 -1.30908608437E-001 
+1.88100000000E+010 -6.37258648872E-001 -4.33322161436E-001 +1.08095107134E-003 -2.57830339251E-004 -2.32599504670E-005 -9.47918579186E-006 +5.31911909580E-001 -1.87034249306E-001 
+1.90100000000E+010 -6.39100313187E-001 -4.31389480829E-001 +2.41033369093E-004 -9.79071366601E-004 -8.20884054065E-007 -1.79582584678E-005 +5.20488739014E-001 -2.42909908295E-001 
+1.92100000000E+010 -6.41466557980E-001 -4.30401474237E-001 -7.96027772594E-004 -5.85159519687E-004 -1.09944594442E-005 -4.89168223794E-006 +5.02588391304E-001 -3.00011813641E-001 
+1.94100000000E+010 -6.44203543663E-001 -4.28487330675E-001 -7.89779180195E-004 +4.92170802318E-004 +2.41991565417E-005 +4.96746870340E-005 +4.77246940136E-001 -3.54757845402E-001 
+1.96100000000E+010 -6.45294964314E-001 -4.26389098167E-001 +1.13995229185E-004 +9.50099376496E-004 -3.97501935367E-005 -1.70446674019E-005 +4.46554541588E-001 -4.06798690557E-001 
+1.98100000000E+010 -6.45248532295E-001 -4.23562258482E-001 +8.51835997310E-004 +2.71382334176E-004 +7.37651225791E-006 -2.82662840618E-005 +4.11643952131E-001 -4.54045891762E-001 
+2.00100000000E+010 -6.44701719284E-001 -4.22333508730E-001 +5.77734317631E-004 -6.71223562676E-004 -2.24906125368E-005 +1.93239993678E-005 +3.69988203049E-001 -5.00203669071E-001 
