!;Filter: kein Filter
!auto
!3/21/2019 9:26:39 AM
!3/21/2019 9:26:51 AM
!SP-Measurements Prober G4
!SP-Measurements Prober G4
!01103_448C
!134
!237
!12
!60
!-20
!0.00099996
!1.65
!0.05816927
!0.05816927
# Hz S  RI   R 50
+1.00000000000E+007 +3.85239481926E-001 +5.39276748896E-003 +3.29557508230E-002 -1.58613640815E-002 -2.21883557970E-004 +7.17449642252E-004 +5.33176306635E-003 +9.60090605076E-004 
+2.10000000000E+008 +3.67934614420E-001 -7.23441690207E-002 -7.68853165209E-003 -3.26672196388E-002 +1.72509709955E-004 +2.48623327934E-005 +8.83538555354E-003 -4.84113208950E-003 
+4.10000000000E+008 +3.43042045832E-001 -1.15790605545E-001 -3.23422253132E-002 +2.17107590288E-003 -8.19494016469E-005 -3.54263029294E-005 +1.00239617750E-002 -7.78846396133E-003 
+6.10000000000E+008 +3.21281552315E-001 -1.52357265353E-001 -4.71637677401E-003 +3.14319953322E-002 +3.13791679218E-005 -3.43560054716E-006 +9.67124477029E-003 -1.15367397666E-002 
+8.10000000000E+008 +3.10673058033E-001 -1.90467566252E-001 +3.36416512728E-002 +4.00091288611E-003 -1.47823730003E-005 +1.71511383087E-005 +7.25928926840E-003 -1.54802519828E-002 
+1.01000000000E+009 +2.89292991161E-001 -2.32637777925E-001 +1.40765972901E-003 -3.16219404340E-002 -7.75367880124E-006 -7.30068950361E-006 +2.82737636007E-003 -1.92095544189E-002 
+1.21000000000E+009 +2.59653180838E-001 -2.65758156776E-001 -2.68042627722E-002 -9.03839885723E-004 -1.53655637405E-005 +1.76106641447E-005 -1.77385134157E-003 -2.10479646921E-002 
+1.41000000000E+009 +2.31503322721E-001 -2.90677696466E-001 -3.15671390854E-003 +2.19052135944E-002 -1.00628330983E-005 +5.90952549828E-006 -7.53402803093E-003 -2.43262834847E-002 
+1.61000000000E+009 +2.07187607884E-001 -3.11901837587E-001 +1.72900054604E-002 +5.72144379839E-003 +6.86766543367E-006 -1.09445672933E-005 -1.35550685227E-002 -2.68568247557E-002 
+1.81000000000E+009 +1.85158818960E-001 -3.32064718008E-001 +8.34999978542E-003 -1.28239439800E-002 +4.30987256550E-007 +8.35718037706E-006 -1.78159344941E-002 -2.78741233051E-002 
+2.01000000000E+009 +1.64801135659E-001 -3.51869255304E-001 -8.36152397096E-003 -1.01120742038E-002 +1.21956118164E-005 -4.56596244476E-005 -2.30505131185E-002 -2.65786852688E-002 
+2.21000000000E+009 +1.44349917769E-001 -3.71246069670E-001 -1.05813490227E-002 +4.39056381583E-003 -1.78679238161E-005 -3.26477529597E-005 -2.87124980241E-002 -2.45563630015E-002 
+2.41000000000E+009 +1.23564116657E-001 -3.89328360558E-001 +7.41531373933E-004 +9.75982379168E-003 +1.16562732728E-005 +2.00697322725E-005 -3.53910662234E-002 -2.21963189542E-002 
+2.61000000000E+009 +1.03095717728E-001 -4.06647711992E-001 +8.02420545369E-003 +2.26611620747E-003 -3.48058565578E-005 -5.96734753344E-006 -4.06975001097E-002 -1.93713475019E-002 
+2.81000000000E+009 +8.23546946049E-002 -4.22805279493E-001 +4.22349758446E-003 -5.92311564833E-003 -2.70597647614E-005 +1.42880628573E-006 -4.46740761399E-002 -1.45039474592E-002 
+3.01000000000E+009 +6.13751485944E-002 -4.37780499458E-001 -3.46985668875E-003 -5.16670197248E-003 -7.94758398115E-006 +2.77354456557E-006 -4.84187342227E-002 -8.67038499564E-003 
+3.21000000000E+009 +4.05246987939E-002 -4.51757907867E-001 -5.22262230515E-003 +1.14285212476E-003 +1.34589718073E-005 +4.16864750150E-005 -5.23176863790E-002 -2.23552109674E-003 
+3.41000000000E+009 +1.99718102813E-002 -4.64757740498E-001 -7.59997230489E-004 +4.64857602492E-003 -1.47684449985E-005 +3.27918610310E-006 -5.53004629910E-002 +4.80495346710E-003 
+3.61000000000E+009 -6.12927251495E-004 -4.76694166660E-001 +3.59102222137E-003 +2.13408377022E-003 +7.00512075014E-008 +3.06520196318E-005 -5.71482442319E-002 +1.16702718660E-002 
+3.81000000000E+009 -2.13332753628E-002 -4.87310826778E-001 +2.88240471855E-003 -2.23802635446E-003 -1.60941344802E-005 -2.51879282587E-005 -5.69347254932E-002 +1.90982129425E-002 
+4.01000000000E+009 -4.12768647075E-002 -4.97332692146E-001 -8.53895209730E-004 -3.14389565028E-003 -1.91964227270E-005 +1.34315578180E-005 -5.58273829520E-002 +2.69284658134E-002 
+4.21000000000E+009 -6.13676086068E-002 -5.06096720695E-001 -2.85687576979E-003 -3.23657499393E-004 +2.26974952966E-005 +5.73054785491E-005 -5.39401434362E-002 +3.56120578945E-002 
+4.41000000000E+009 -8.10120552778E-002 -5.13997733593E-001 -1.27323309425E-003 +2.28126975708E-003 +1.49852376126E-005 +2.35075895034E-005 -5.08470758796E-002 +4.41472046077E-002 
+4.61000000000E+009 -1.00253812969E-001 -5.20972669125E-001 +1.48017716128E-003 +1.81266141590E-003 +4.23811661676E-006 +2.75856218650E-005 -4.65203747153E-002 +5.14403656125E-002 
+4.81000000000E+009 -1.19409330189E-001 -5.27098953724E-001 +2.02603079379E-003 -6.03636435699E-004 -7.60767306929E-006 +1.06440356831E-005 -3.99623587728E-002 +5.85745573044E-002 
+5.01000000000E+009 -1.37820228934E-001 -5.32995462418E-001 +2.00511858566E-004 -1.90371298231E-003 +1.30874532260E-005 -5.25792311237E-005 -3.33491489291E-002 +6.51870295405E-002 
+5.21000000000E+009 -1.55871152878E-001 -5.38265347481E-001 -1.53754267376E-003 -8.66362999659E-004 -3.94992230213E-006 -8.46340844873E-006 -2.57922913879E-002 +7.11188092828E-002 
+5.41000000000E+009 -1.73649474978E-001 -5.42385876179E-001 -1.25754228793E-003 +9.88694373518E-004 -1.53833334480E-005 -8.58951898408E-006 -1.70650091022E-002 +7.65046179295E-002 
+5.61000000000E+009 -1.91343322396E-001 -5.46287000179E-001 +3.85490129702E-004 +1.39495695475E-003 -8.54689824337E-006 -1.20007889564E-005 -7.51488469541E-003 +7.96018838882E-002 
+5.81000000000E+009 -2.08252027631E-001 -5.49243390560E-001 +1.33727700450E-003 +1.56985974172E-004 +2.88038154395E-006 +1.50108471644E-005 +3.19361570291E-003 +8.04225727916E-002 
+6.01000000000E+009 -2.24657356739E-001 -5.51468312740E-001 +6.11523748375E-004 -1.06694083661E-003 -3.54384574166E-005 +7.99954523245E-006 +1.41652030870E-002 +8.23841840029E-002 
+6.21000000000E+009 -2.40745335817E-001 -5.53079783916E-001 -6.56446325593E-004 -8.91536124982E-004 -5.83123835440E-007 +2.61065470113E-005 +2.48459167778E-002 +8.19967538118E-002 
+6.41000000000E+009 -2.56119430065E-001 -5.54371416569E-001 -1.00174534600E-003 +2.90632277029E-004 -1.03764923551E-005 -2.95757745334E-005 +3.64712253213E-002 +8.00898373127E-002 
+6.61000000000E+009 -2.71495044231E-001 -5.55285692215E-001 -1.43138749991E-004 +9.60035074968E-004 -6.17139721726E-006 +2.22151847993E-005 +4.76712174714E-002 +7.48571604490E-002 
+6.81000000000E+009 -2.86468386650E-001 -5.55714488029E-001 +7.32199929189E-004 +4.78656467749E-004 -7.66762013882E-007 -1.44270711644E-006 +5.83701319993E-002 +6.88137188554E-002 
+7.01000000000E+009 -3.00748199224E-001 -5.55825769901E-001 +6.69016328175E-004 -4.57609567093E-004 +2.05834203371E-005 +9.77464787866E-006 +6.82036951184E-002 +6.28534629941E-002 
+7.21000000000E+009 -3.14806610346E-001 -5.55406808853E-001 -1.61854331964E-004 -7.26324447896E-004 +2.93373602744E-007 -2.04437546927E-005 +7.74520337582E-002 +5.40929771960E-002 
+7.41000000000E+009 -3.28152030706E-001 -5.55121362209E-001 -7.59584072512E-004 -9.46996369748E-005 +1.03719121398E-005 -3.99699638365E-006 +8.66312533617E-002 +4.37958836555E-002 
+7.61000000000E+009 -3.40815037489E-001 -5.54143249989E-001 -4.01729019359E-004 +5.65858092159E-004 -3.38436875609E-005 +4.17853152612E-006 +9.29331779480E-002 +3.17420437932E-002 
+7.81000000000E+009 -3.53740066290E-001 -5.52594244480E-001 +3.39124293532E-004 +5.52510144189E-004 +2.51138658314E-006 -5.35556755494E-005 +9.83311086893E-002 +1.96252427995E-002 
+8.01000000000E+009 -3.65761637688E-001 -5.51036715508E-001 +5.77464990783E-004 -1.26854167320E-004 -1.15740967885E-005 +3.08103299176E-005 +1.02110058069E-001 +5.78164868057E-003 
+8.21000000000E+009 -3.77537727356E-001 -5.49216508865E-001 +1.20190255984E-004 -5.72583172470E-004 -8.17938234832E-006 -1.60298695846E-005 +1.04236736894E-001 -8.46372917295E-003 
+8.41000000000E+009 -3.88986557722E-001 -5.46939134598E-001 -4.30064828834E-004 -2.71707307547E-004 -1.84865839401E-005 -5.74958539801E-006 +1.03634178638E-001 -2.36210618168E-002 
+8.61000000000E+009 -4.00228470564E-001 -5.44913947582E-001 -4.35083173215E-004 +2.37127853325E-004 +1.87785753951E-005 +1.02551348391E-005 +1.00284002721E-001 -3.90185490251E-002 
+8.81000000000E+009 -4.10902798176E-001 -5.42706966400E-001 +8.04941228125E-005 +4.58690657979E-004 -2.75523984783E-006 +3.08747366944E-005 +9.50158163905E-002 -5.44673055410E-002 
+9.01000000000E+009 -4.21301394701E-001 -5.40228784084E-001 +4.17636591010E-004 +9.09041991690E-005 -2.56748626271E-006 -2.07680022868E-006 +8.83782282472E-002 -6.82333111763E-002 
+9.21000000000E+009 -4.31442648172E-001 -5.37721514702E-001 +2.37919171923E-004 -3.29589995090E-004 +8.67128892423E-006 +1.10326900540E-005 +7.84770920873E-002 -8.30171629786E-002 
+9.41000000000E+009 -4.40873533487E-001 -5.35325586796E-001 -2.26159609156E-004 -3.48568632035E-004 +1.08086032924E-005 -1.40683334848E-006 +6.59850090742E-002 -9.64625179768E-002 
+9.61000000000E+009 -4.50291395187E-001 -5.32423377037E-001 -3.61302896636E-004 +2.80541025859E-005 -2.84267680399E-005 -1.09051097752E-005 +5.06797619164E-002 -1.08642674983E-001 
+9.81000000000E+009 -4.58999812603E-001 -5.30402064323E-001 -5.32686754013E-005 +2.94329685858E-004 +1.54971694428E-005 -3.00458450511E-005 +3.53903658688E-002 -1.17931783199E-001 
+1.00100000000E+010 -4.68115180731E-001 -5.27490973473E-001 +2.58440384641E-004 +2.19877038035E-004 -7.73540159571E-006 +1.05951721707E-005 +1.84845533222E-002 -1.25588893890E-001 
+1.02100000000E+010 -4.76509064436E-001 -5.24202048779E-001 +3.03642911604E-004 -1.81040319148E-004 -1.14598487926E-005 +1.35247892104E-005 +3.61942249583E-004 -1.32398933172E-001 
+1.04100000000E+010 -4.84786510468E-001 -5.21429061890E-001 -3.96225659642E-005 -3.15704935929E-004 +1.81493305718E-005 -1.85431108548E-005 -2.01541855931E-002 -1.37800723314E-001 
+1.06100000000E+010 -4.92821484804E-001 -5.18527090549E-001 -2.82981898636E-004 -7.79471301939E-005 +2.26857173402E-005 +2.94468263746E-005 -4.19041477144E-002 -1.40187695622E-001 
+1.08100000000E+010 -4.99720096588E-001 -5.16260564327E-001 -1.89779646462E-004 +2.27642914979E-004 -1.67406069522E-005 -2.94688961731E-005 -6.37483894825E-002 -1.39540269971E-001 
+1.10100000000E+010 -5.07013797760E-001 -5.13500630856E-001 +1.25907623442E-004 +1.71454725205E-004 -3.38847676176E-005 -2.04730367841E-005 -8.55145007372E-002 -1.36082395911E-001 
+1.12100000000E+010 -5.13705492020E-001 -5.11521339417E-001 +2.50449724263E-004 +2.47455727731E-006 -7.48435741116E-006 +2.36930209212E-005 -1.09245643020E-001 -1.29859223962E-001 
+1.14100000000E+010 -5.20736634731E-001 -5.08769452572E-001 +1.01140802144E-004 -1.95739907213E-004 -2.23709121201E-005 +2.80472868326E-005 -1.32296383381E-001 -1.19821570814E-001 
+1.16100000000E+010 -5.26286959648E-001 -5.06397008896E-001 -1.28911138745E-004 -1.55230969540E-004 +3.11482981488E-005 +1.89873462659E-005 -1.54400274158E-001 -1.06224440038E-001 
+1.18100000000E+010 -5.32254993916E-001 -5.03839612007E-001 -2.50328070251E-004 +1.98697161977E-005 -3.98339852836E-006 -3.39021098625E-005 -1.73654124141E-001 -8.93086269498E-002 
+1.20100000000E+010 -5.38241803646E-001 -5.00969707966E-001 -3.48599714926E-005 +1.98748850380E-004 +5.25349205418E-005 -1.17946528917E-005 -1.90579324961E-001 -7.00006037951E-002 
+1.22100000000E+010 -5.44380247593E-001 -4.97843086720E-001 +1.83399941307E-004 +4.83896110381E-005 -1.99175938178E-005 -1.84089844879E-006 -2.07792893052E-001 -4.82300966978E-002 
+1.24100000000E+010 -5.49935340881E-001 -4.95158880949E-001 +1.24878395582E-004 -1.13674708700E-004 -2.59166608885E-005 +7.71173836256E-006 -2.22468987107E-001 -2.29968968779E-002 
+1.26100000000E+010 -5.55382132530E-001 -4.92394953966E-001 -5.37509949936E-005 -1.68738552020E-004 -1.52917236846E-005 +1.15098055176E-005 -2.32426568866E-001 +4.62935213000E-003 
+1.28100000000E+010 -5.60745060444E-001 -4.89510744810E-001 -1.70267565409E-004 -1.93726973521E-005 -4.17455021307E-006 -1.77362308023E-005 -2.38762959838E-001 +3.35376784205E-002 
+1.30100000000E+010 -5.66102862358E-001 -4.85900044441E-001 -1.02755424450E-004 +1.21769931866E-004 +1.27149824038E-005 -7.09283494871E-006 -2.42385849357E-001 +6.33861124516E-002 
+1.32100000000E+010 -5.71037292480E-001 -4.82675015926E-001 +1.11870307592E-004 +1.37546419865E-004 +2.55484410445E-005 +1.08441327029E-005 -2.42860257626E-001 +9.48525592685E-002 
+1.34100000000E+010 -5.76052546501E-001 -4.78796511889E-001 +1.43256387673E-004 -4.91374021294E-006 +1.11669351099E-005 -2.93629564112E-005 -2.39275440574E-001 +1.26777246594E-001 
+1.36100000000E+010 -5.78953325748E-001 -4.75463956594E-001 -3.03008691844E-005 -1.67596270330E-004 -5.20671237609E-005 +4.19233874709E-005 -2.31152132154E-001 +1.59476324916E-001 
+1.38100000000E+010 -5.83987414837E-001 -4.72948461771E-001 -1.14599024528E-004 -6.49602079648E-005 +3.45045809809E-005 +3.36897464877E-005 -2.18068853021E-001 +1.91162884235E-001 
+1.40100000000E+010 -5.88925659657E-001 -4.70017164946E-001 -1.06134990347E-004 +3.41007835232E-005 +3.46722808899E-005 -9.20956881600E-006 -2.01366066933E-001 +2.21987649798E-001 
+1.42100000000E+010 -5.93494772911E-001 -4.67211991549E-001 +3.08178605337E-005 +1.21526514704E-004 -9.30670830712E-006 +3.49830370396E-005 -1.80876433849E-001 +2.53165751696E-001 
+1.44100000000E+010 -5.98260283470E-001 -4.63646143675E-001 +1.42562770634E-004 +4.45022087661E-005 +1.45050062201E-005 +1.67979681009E-006 -1.55225262046E-001 +2.81666904688E-001 
+1.46100000000E+010 -6.01955175400E-001 -4.60618436337E-001 +3.68024011550E-005 -8.82043023012E-005 +2.39003225033E-006 +2.09068257391E-005 -1.24533116817E-001 +3.06891083717E-001 
+1.48100000000E+010 -6.05667889118E-001 -4.55357104540E-001 -1.10686116386E-004 -1.23470235849E-004 +9.47517219174E-006 +2.19125631702E-005 -9.15234908462E-002 +3.28852444887E-001 
+1.50100000000E+010 -6.07265651226E-001 -4.54410851002E-001 -8.05136805866E-005 +6.13283646089E-006 +8.26287396194E-006 -1.09413640530E-005 -5.59079088271E-002 +3.48036170006E-001 
+1.52100000000E+010 -6.10207557678E-001 -4.53729510307E-001 -4.71987077617E-005 +7.98466717242E-005 -3.35246440955E-005 -4.65331049782E-006 -1.71347931027E-002 +3.63054841757E-001 
+1.54100000000E+010 -6.13974809647E-001 -4.51660484076E-001 +8.60165528138E-005 +6.94280461175E-005 -2.34378130699E-005 +2.89574614953E-007 +2.50465050340E-002 +3.73039245605E-001 
+1.56100000000E+010 -6.17895305157E-001 -4.48005259037E-001 +6.37681514490E-005 -7.33794513508E-005 -1.40007323353E-005 -9.15280725167E-006 +6.88117891550E-002 +3.77109318972E-001 
+1.58100000000E+010 -6.19305133820E-001 -4.47013407946E-001 +3.19323007716E-005 -8.93821343197E-005 -4.19373645855E-005 +3.69921799575E-005 +1.12299636006E-001 +3.77703309059E-001 
+1.60100000000E+010 -6.21677756310E-001 -4.45322871208E-001 -7.24653000361E-005 -4.10012835346E-005 -1.22679039123E-005 -5.49352819235E-007 +1.57301262021E-001 +3.72893363237E-001 
+1.62100000000E+010 -6.23986840248E-001 -4.43566769361E-001 -4.67031568405E-005 +6.02857653575E-005 -1.78287391464E-005 -3.00777082884E-006 +2.04542592168E-001 +3.62548142672E-001 
+1.64100000000E+010 -6.26082897186E-001 -4.41755026579E-001 +2.33320060943E-005 +8.92987518455E-005 -2.51576466326E-006 -3.25984947267E-005 +2.51199841499E-001 +3.46322745085E-001 
+1.66100000000E+010 -6.29649996758E-001 -4.39899474382E-001 +1.07805673906E-004 -2.06682907447E-005 -4.03014055337E-005 -5.41389090358E-005 +2.94889301062E-001 +3.22431534529E-001 
+1.68100000000E+010 -6.32814824581E-001 -4.37321186066E-001 +3.91065477743E-005 -4.57231180917E-005 +2.57120991591E-005 +3.91188586946E-005 +3.37610244751E-001 +2.94989734888E-001 
+1.70100000000E+010 -6.34806811810E-001 -4.35063004494E-001 -3.65665800928E-005 -5.56069062441E-005 -1.18060606837E-005 -3.44053878507E-005 +3.77565354109E-001 +2.63663619757E-001 
+1.72100000000E+010 -6.37253165245E-001 -4.32522147894E-001 -3.07352420350E-005 +1.06230763777E-004 +2.58924137597E-005 +4.38904244220E-005 +4.14806932211E-001 +2.25145846605E-001 
+1.74100000000E+010 -6.40112459660E-001 -4.30445015430E-001 -2.23725292017E-005 +7.83373761806E-005 +1.80686074600E-005 +8.82707536221E-006 +4.47950780392E-001 +1.82384222746E-001 
+1.76100000000E+010 -6.42705261707E-001 -4.28102046251E-001 +8.76396152307E-005 +3.62059436156E-005 -1.78664940904E-005 -3.78654731321E-005 +4.75804805756E-001 +1.36516377330E-001 
+1.78100000000E+010 -6.45563244820E-001 -4.25838470459E-001 +2.55427221418E-005 -5.35296276212E-005 -1.31449496621E-005 +4.96027605550E-005 +4.99342173338E-001 +8.79287347198E-002 
+1.80100000000E+010 -6.47786736488E-001 -4.23303365707E-001 -3.90839777538E-005 -4.55409935967E-005 +1.60390300152E-005 +3.89625311072E-005 +5.18328130245E-001 +3.69254611433E-002 
+1.82100000000E+010 -6.50427401066E-001 -4.21393096447E-001 -2.82243872789E-005 +2.07655539270E-005 -4.97135761179E-006 +1.22416240629E-005 +5.31299412251E-001 -1.75143890083E-002 
+1.84100000000E+010 -6.52962625027E-001 -4.19640779495E-001 +7.81081962486E-006 +8.19216948003E-005 +3.95776260120E-006 -1.73233074747E-005 +5.37591993809E-001 -7.45938271284E-002 
+1.86100000000E+010 -6.56045019627E-001 -4.17582660913E-001 +6.76442505210E-005 +4.56066518382E-005 -6.45139807602E-005 -4.38140632468E-005 +5.37254095078E-001 -1.31089627743E-001 
+1.88100000000E+010 -6.58396780491E-001 -4.15027290583E-001 +8.07218530099E-005 +7.20729849490E-006 -8.94643817446E-005 +1.59120008902E-005 +5.31290471554E-001 -1.87178894877E-001 
+1.90100000000E+010 -6.59970819950E-001 -4.12984162569E-001 -1.33444618768E-005 -2.58687614405E-005 +2.07774319279E-005 -9.45240753936E-006 +5.19809722900E-001 -2.43064552546E-001 
+1.92100000000E+010 -6.62141561508E-001 -4.11956459284E-001 -2.90285479423E-005 -4.26230944868E-005 -5.05711395817E-005 -1.29341478896E-005 +5.01898646355E-001 -2.99995392561E-001 
+1.94100000000E+010 -6.64664983749E-001 -4.09996986389E-001 -4.71346393169E-005 +1.29465443024E-005 -1.01134508441E-004 +1.76849823674E-007 +4.76427823305E-001 -3.54676961899E-001 
+1.96100000000E+010 -6.65617763996E-001 -4.07359778881E-001 +3.58885881724E-005 +6.45339823677E-005 +4.65399680252E-005 -3.53869618266E-005 +4.45707201958E-001 -4.06545519829E-001 
+1.98100000000E+010 -6.64872467518E-001 -4.04066532850E-001 +5.12415172125E-005 +2.78222087218E-005 -2.79040068563E-006 -2.37904023379E-005 +4.10862445831E-001 -4.53697204590E-001 
+2.00100000000E+010 -6.63356423378E-001 -4.03559923172E-001 +4.90541169711E-005 -2.00371778192E-005 -2.75210209111E-006 -5.47641548110E-006 +3.69153499603E-001 -4.99852657318E-001 
