!;Filter: kein Filter
!auto
!3/21/2019 9:27:54 AM
!3/21/2019 9:28:10 AM
!SP-Measurements Prober G4
!SP-Measurements Prober G4
!01103_448C
!134
!233
!12
!60
!-20
!0.00599970
!2.02
!0.74959551
!0.74959551
# Hz S  RI   R 50
+1.00000000000E+007 +1.84548407793E-001 +3.77875426784E-003 +3.78951616585E-002 -1.33547047153E-002 -2.31793659623E-004 +3.49888170604E-004 +5.09026134387E-003 +1.49052764755E-003 
+2.10000000000E+008 +1.95684477687E-001 -2.15063802898E-002 -1.78389123175E-003 -3.90333645046E-002 -1.56651905854E-004 +2.12553586607E-005 +8.67917481810E-003 -4.76800976321E-003 
+4.10000000000E+008 +1.98010995984E-001 -4.86043915153E-002 -3.66604216397E-002 -1.18684405461E-002 +2.21115205932E-005 -4.97532928421E-005 +1.00829480216E-002 -7.85341300070E-003 
+6.10000000000E+008 +1.97919890285E-001 -7.65036568046E-002 -2.29964293540E-002 +2.95605566353E-002 -8.42563076731E-006 +1.55173347594E-005 +9.58491675556E-003 -1.15673951805E-002 
+8.10000000000E+008 +1.95014268160E-001 -1.05609275401E-001 +1.95794012398E-002 +3.19745130837E-002 -4.28641469625E-005 +2.59783464571E-005 +7.14271049947E-003 -1.54140004888E-002 
+1.01000000000E+009 +1.89726307988E-001 -1.33843198419E-001 +3.73299680650E-002 -6.71356916428E-003 -6.91314198775E-006 -9.95500067802E-006 +2.76264920831E-003 -1.91153753549E-002 
+1.21000000000E+009 +1.82626485825E-001 -1.61355286837E-001 +6.33493717760E-003 -3.58268506825E-002 -4.64251525045E-006 +6.80358289173E-006 -1.84702104889E-003 -2.09987293929E-002 
+1.41000000000E+009 +1.73647344112E-001 -1.88753947616E-001 -3.11130918562E-002 -1.90814938396E-002 +6.66039431962E-006 -9.32189141167E-006 -7.61231454089E-003 -2.43110358715E-002 
+1.61000000000E+009 +1.63558065891E-001 -2.15096995234E-001 -2.88702268153E-002 +2.30285413563E-002 +1.69094382727E-005 -3.08268972731E-005 -1.35878967121E-002 -2.68038939685E-002 
+1.81000000000E+009 +1.51534259319E-001 -2.40406885743E-001 +1.09127070755E-002 +3.40178944170E-002 +5.92731157667E-006 +1.33281964736E-005 -1.77991632372E-002 -2.78256312013E-002 
+2.01000000000E+009 +1.38919547200E-001 -2.64768749475E-001 +3.59430462122E-002 +2.10006814450E-003 -1.47272849063E-005 -6.45236559649E-006 -2.31083091348E-002 -2.65121776611E-002 
+2.21000000000E+009 +1.24966628850E-001 -2.88227498531E-001 +1.39826256782E-002 -3.31493914127E-002 +4.64543109047E-006 -1.38276445796E-005 -2.87366118282E-002 -2.44419667870E-002 
+2.41000000000E+009 +1.09617896378E-001 -3.10257464647E-001 -2.51860637218E-002 -2.42673810571E-002 -1.01398873085E-005 +1.00188608485E-005 -3.53925228119E-002 -2.21359450370E-002 
+2.61000000000E+009 +9.37250405550E-002 -3.31111490726E-001 -3.18538583815E-002 +1.47383930162E-002 -6.20030141363E-006 +1.69905451912E-005 -4.06538918614E-002 -1.93464532495E-002 
+2.81000000000E+009 +7.69216790795E-002 -3.50745767355E-001 +3.08441789821E-003 +3.47522608936E-002 -1.80938423000E-005 -9.35137961733E-007 -4.46250997484E-002 -1.44480001181E-002 
+3.01000000000E+009 +5.94112239778E-002 -3.68731677532E-001 +3.25950384140E-002 +9.53698065132E-003 +6.71514044370E-006 +1.92769985006E-005 -4.84025850892E-002 -8.57533887029E-003 
+3.21000000000E+009 +4.16623465717E-002 -3.85745108128E-001 +2.10337135941E-002 -2.71732863039E-002 +1.66395911947E-005 -2.35385073211E-006 -5.22783175111E-002 -2.17514042743E-003 
+3.41000000000E+009 +2.37299762666E-002 -4.01533275843E-001 -1.83709841222E-002 -2.87175457925E-002 -8.84237977061E-007 -1.50507330545E-005 -5.52228316665E-002 +4.88858669996E-003 
+3.61000000000E+009 +5.58425579220E-003 -4.16107594967E-001 -3.27700227499E-002 +6.35189283639E-003 +1.56802270794E-005 -9.74203339865E-006 -5.70627450943E-002 +1.17327161133E-002 
+3.81000000000E+009 -1.29707539454E-002 -4.29339885712E-001 -5.85746858269E-003 +3.33847925067E-002 -2.18403852159E-006 +6.70142526360E-006 -5.68336695433E-002 +1.90954823047E-002 
+4.01000000000E+009 -3.10844909400E-002 -4.41753208637E-001 +2.90038157254E-002 +1.65911037475E-002 -2.81188040390E-005 -5.53170502826E-006 -5.58078438044E-002 +2.69559882581E-002 
+4.21000000000E+009 -4.94764335454E-002 -4.52788949013E-001 +2.56684366614E-002 -2.05104257911E-002 -1.95580250875E-005 +5.00581745655E-006 -5.38751408458E-002 +3.55992540717E-002 
+4.41000000000E+009 -6.76205977798E-002 -4.62744146585E-001 -1.02728838101E-002 -3.16910967231E-002 +1.57265385496E-005 -3.26636836689E-005 -5.08344098926E-002 +4.40684668720E-002 
+4.61000000000E+009 -8.55108201504E-002 -4.71798598766E-001 -3.28559502959E-002 -1.19027541950E-003 -6.38581377643E-006 -9.94966831058E-006 -4.64972592890E-002 +5.13882711530E-002 
+4.81000000000E+009 -1.03395849466E-001 -4.79983985424E-001 -1.30482604727E-002 +2.98558101058E-002 +9.82386040960E-007 +9.43144004850E-006 -3.99671345949E-002 +5.85590377450E-002 
+5.01000000000E+009 -1.20838053524E-001 -4.87717390060E-001 +2.36532967538E-002 +2.29722801596E-002 +2.04229454539E-005 +8.83372194949E-006 -3.33206132054E-002 +6.51010572910E-002 
+5.21000000000E+009 -1.37970760465E-001 -4.94691580534E-001 +2.93698571622E-002 -1.41736688092E-002 -4.80416492792E-005 +1.16416331366E-005 -2.58395168930E-002 +7.10494890809E-002 
+5.41000000000E+009 -1.54893681407E-001 -5.00475823879E-001 -2.52807280049E-003 -3.23631726205E-002 +2.60174374489E-006 +1.93859650608E-005 -1.71028971672E-002 +7.63821452856E-002 
+5.61000000000E+009 -1.71811461449E-001 -5.05966365337E-001 -3.17783616483E-002 -8.92688427120E-003 -1.80949507467E-006 +4.27663144364E-005 -7.48651335016E-003 +7.95202627778E-002 
+5.81000000000E+009 -1.88098654151E-001 -5.10393798351E-001 -1.90241411328E-002 +2.66498569399E-002 -8.31587021821E-006 -5.37257483302E-006 +3.16478777677E-003 +8.03827196360E-002 
+6.01000000000E+009 -2.03846037388E-001 -5.13960003853E-001 +1.81346982718E-002 +2.72720456123E-002 +2.80070253211E-005 -3.20874933095E-005 +1.41360042617E-002 +8.22623819113E-002 
+6.21000000000E+009 -2.19518676400E-001 -5.17037093639E-001 +3.22736501694E-002 -8.11979640275E-003 -5.94994025960E-006 +1.14957792903E-005 +2.48097702861E-002 +8.18972662091E-002 
+6.41000000000E+009 -2.34421595931E-001 -5.19578456879E-001 +3.04225040600E-003 -3.29202637076E-002 +1.64472101005E-006 -1.01026253105E-005 +3.64473834634E-002 +8.00077468157E-002 
+6.61000000000E+009 -2.49497935176E-001 -5.21700978279E-001 -2.98216380179E-002 -1.41307068989E-002 +6.35608512312E-006 -8.82578569872E-006 +4.76518906653E-002 +7.48217850924E-002 
+6.81000000000E+009 -2.64168202877E-001 -5.23269832134E-001 -2.31041945517E-002 +2.38577164710E-002 -1.92450966097E-006 +1.37055831146E-005 +5.83039708436E-002 +6.87910988927E-002 
+7.01000000000E+009 -2.78240412474E-001 -5.24355053902E-001 +1.48113705218E-002 +2.92176026851E-002 -1.38642490128E-005 +1.03971819954E-006 +6.80898576975E-002 +6.28086179495E-002 
+7.21000000000E+009 -2.92021811008E-001 -5.24923741817E-001 +3.23253944516E-002 -4.26300009713E-003 +1.38235545819E-005 -1.74441247509E-005 +7.73490518332E-002 +5.41228652000E-002 
+7.41000000000E+009 -3.05227309465E-001 -5.25522708893E-001 +5.98190631717E-003 -3.17053943872E-002 -1.71326769305E-006 -3.84479826607E-005 +8.65364596248E-002 +4.38837110996E-002 
+7.61000000000E+009 -3.17672133446E-001 -5.25380253792E-001 -2.74700820446E-002 -1.54612287879E-002 -1.16128921945E-005 +2.24882969633E-005 +9.28526446223E-002 +3.18462327123E-002 
+7.81000000000E+009 -3.30399543047E-001 -5.24656355381E-001 -2.30605751276E-002 +2.07726322114E-002 +8.77762613527E-006 -8.36173876451E-006 +9.82172638178E-002 +1.96916051209E-002 
+8.01000000000E+009 -3.42185378075E-001 -5.23823678493E-001 +1.22183663771E-002 +2.73928698152E-002 +6.16743818682E-006 -2.44616385316E-005 +1.02002672851E-001 +5.96319185570E-003 
+8.21000000000E+009 -3.53866755962E-001 -5.22678673267E-001 +2.87158433348E-002 -2.75377603248E-003 +1.00733768704E-005 -1.60870399668E-007 +1.04142136872E-001 -8.31343233585E-003 
+8.41000000000E+009 -3.65170747042E-001 -5.20992398262E-001 +6.23483676463E-003 -2.70229224116E-002 -2.11619353649E-005 -9.77295968596E-008 +1.03537611663E-001 -2.35070306808E-002 
+8.61000000000E+009 -3.76199811697E-001 -5.19563376904E-001 -2.24548876286E-002 -1.38565404341E-002 +1.68960411884E-006 -1.22366363939E-005 +1.00170224905E-001 -3.88424210250E-002 
+8.81000000000E+009 -3.86646121740E-001 -5.17906785011E-001 -1.93513967097E-002 +1.60484407097E-002 -1.55291236297E-005 -2.66017523245E-005 +9.49372947216E-002 -5.43084926903E-002 
+9.01000000000E+009 -3.96895498037E-001 -5.15964210033E-001 +8.41950345784E-003 +2.19829939306E-002 +8.77778984432E-006 +2.15929376282E-005 +8.83398652077E-002 -6.81034103036E-002 
+9.21000000000E+009 -4.06790047884E-001 -5.13950288296E-001 +2.21496634185E-002 -4.28291124990E-004 +1.09546854219E-005 +2.50161956501E-005 +7.84667953849E-002 -8.28208923340E-002 
+9.41000000000E+009 -4.16001886129E-001 -5.12047529221E-001 +6.40573678538E-003 -1.99265778065E-002 +5.94098537476E-006 -2.24734430958E-005 +6.59384280443E-002 -9.62861478329E-002 
+9.61000000000E+009 -4.25172567368E-001 -5.09656012058E-001 -1.52787640691E-002 -1.16611346602E-002 +1.02782705653E-005 -2.67057002930E-005 +5.07360734046E-002 -1.08474835753E-001 
+9.81000000000E+009 -4.33690160513E-001 -5.08050858974E-001 -1.53144663200E-002 +9.54198557884E-003 +3.29295799020E-005 -1.91975186681E-006 +3.54614183307E-002 -1.17811188102E-001 
+1.00100000000E+010 -4.42669242620E-001 -5.05659639835E-001 +3.58390621841E-003 +1.64146535099E-002 -2.23474398808E-005 +1.89839483937E-005 +1.85688976198E-002 -1.25417456031E-001 
+1.02100000000E+010 -4.50710773468E-001 -5.02867400646E-001 +1.52427684516E-002 +2.30244197883E-003 +9.00704526430E-006 +1.23426489154E-005 +5.22958289366E-004 -1.32265850902E-001 
+1.04100000000E+010 -4.58747953176E-001 -5.00638723373E-001 +7.15370336547E-003 -1.24811399728E-002 -1.17246490845E-005 +7.49184209781E-006 -2.00068783015E-002 -1.37630835176E-001 
+1.06100000000E+010 -4.66596543789E-001 -4.98223513365E-001 -8.50964058191E-003 -1.03065585718E-002 -1.92960596905E-005 -6.32117189525E-006 -4.17116209865E-002 -1.40118286014E-001 
+1.08100000000E+010 -4.73339468241E-001 -4.96588885784E-001 -1.16836689413E-002 +3.68584529497E-003 -4.67779364044E-006 +1.39344010677E-005 -6.34790584445E-002 -1.39535665512E-001 
+1.10100000000E+010 -4.80471491814E-001 -4.94214445353E-001 -9.73034708295E-004 +1.15333963186E-002 -3.93028494727E-006 +8.61028183863E-006 -8.52711945772E-002 -1.36075705290E-001 
+1.12100000000E+010 -4.87070947886E-001 -4.92670476437E-001 +9.74850170314E-003 +4.77295927703E-003 -3.39602752319E-006 -1.88583044292E-006 -1.09092943370E-001 -1.29882872105E-001 
+1.14100000000E+010 -4.93963450193E-001 -4.90323990583E-001 +7.53293558955E-003 -6.70860521495E-003 +7.35434878152E-006 -6.00886733082E-006 -1.32068574429E-001 -1.19861572981E-001 
+1.16100000000E+010 -4.99329090118E-001 -4.88262087107E-001 -3.13893100247E-003 -9.09841712564E-003 +5.62225068279E-006 +2.34558556258E-005 -1.54129281640E-001 -1.06307066977E-001 
+1.18100000000E+010 -5.05112469196E-001 -4.86129581928E-001 -9.07805189490E-003 -2.76041799225E-004 -1.28090860017E-005 -3.14038297802E-005 -1.73377111554E-001 -8.94576236606E-002 
+1.20100000000E+010 -5.10869801044E-001 -4.83670711517E-001 -3.46372160129E-003 +7.63380248100E-003 +9.29531233851E-006 -1.28237670651E-005 -1.90361782908E-001 -7.01615959406E-002 
+1.22100000000E+010 -5.16811251640E-001 -4.80892062187E-001 +5.47135528177E-003 +5.87692717090E-003 -1.83301744983E-005 -4.56480529465E-006 -2.07559391856E-001 -4.83874380589E-002 
+1.24100000000E+010 -5.22113800049E-001 -4.78541225195E-001 +7.01216608286E-003 -2.81653273851E-003 +2.23463885050E-005 -2.70265104518E-006 -2.22288876772E-001 -2.32066996396E-002 
+1.26100000000E+010 -5.27285099030E-001 -4.76002275944E-001 +1.06906962174E-004 -7.02207488939E-003 -4.56578209196E-006 +2.55023896898E-005 -2.32287272811E-001 +4.31380514055E-003 
+1.28100000000E+010 -5.32353222370E-001 -4.73341792822E-001 -6.19520805776E-003 -2.71492963657E-003 -1.49745565068E-005 -1.45208250615E-005 -2.38730937243E-001 +3.32208685577E-002 
+1.30100000000E+010 -5.37317872047E-001 -4.70101982355E-001 -4.47903759778E-003 +4.54321270809E-003 +6.35655669612E-006 -1.72911913978E-005 -2.42440357804E-001 +6.31574839354E-002 
+1.32100000000E+010 -5.41923463345E-001 -4.67183738947E-001 +2.24177283235E-003 +5.44489407912E-003 +1.04461905721E-005 -1.12646539492E-005 -2.42894425988E-001 +9.45409312844E-002 
+1.34100000000E+010 -5.46466588974E-001 -4.63666945696E-001 +5.60542289168E-003 +1.01739773527E-004 -2.90827920253E-005 -6.52781136523E-006 -2.39334002137E-001 +1.26426547766E-001 
+1.36100000000E+010 -5.49178719521E-001 -4.60866034031E-001 +1.99197372422E-003 -4.84716938809E-003 -1.01531099972E-006 +1.95536431420E-005 -2.31316998601E-001 +1.59163668752E-001 
+1.38100000000E+010 -5.53907096386E-001 -4.58675801754E-001 -3.35906608962E-003 -3.61348967999E-003 -1.41738228194E-005 -6.36166078039E-006 -2.18242108822E-001 +1.90913602710E-001 
+1.40100000000E+010 -5.58492779732E-001 -4.56011593342E-001 -4.49515739456E-003 +1.72371580265E-003 +3.17948361044E-005 -4.12133522332E-006 -2.01624810696E-001 +2.21794918180E-001 
+1.42100000000E+010 -5.62705636024E-001 -4.53607976437E-001 -6.96229544701E-005 +4.50975261629E-003 -7.02270381225E-006 -2.30395035032E-005 -1.81203559041E-001 +2.52928048372E-001 
+1.44100000000E+010 -5.67024886608E-001 -4.50421482325E-001 +3.82332527079E-003 +1.76602089778E-003 +1.14161111924E-005 +2.02398878173E-005 -1.55647739768E-001 +2.81474679708E-001 
+1.46100000000E+010 -5.70325136185E-001 -4.47926402092E-001 +3.03086312488E-003 -2.78226681985E-003 +2.48556934821E-005 -8.69179075380E-006 -1.25016301870E-001 +3.06856572628E-001 
+1.48100000000E+010 -5.73430955410E-001 -4.43196743727E-001 -1.35810091160E-003 -3.55166918598E-003 -1.14655967991E-005 -1.18887273857E-005 -9.20348465443E-002 +3.28864365816E-001 
+1.50100000000E+010 -5.74747204781E-001 -4.42892462015E-001 -3.58503242023E-003 -2.19318142626E-004 +1.33860321512E-005 +7.50096069169E-006 -5.64331598580E-002 +3.48101884127E-001 
+1.52100000000E+010 -5.77305912971E-001 -4.42745268345E-001 -1.49493303616E-003 +3.08970175683E-003 +7.98188284534E-006 +5.78297613174E-006 -1.76312327385E-002 +3.63166898489E-001 
+1.54100000000E+010 -5.80755770206E-001 -4.41342473030E-001 +2.10158131085E-003 +2.38655065186E-003 -9.06897548703E-006 -2.32051115745E-005 +2.45003513992E-002 +3.73159587383E-001 
+1.56100000000E+010 -5.84197640419E-001 -4.38385099173E-001 +2.90334527381E-003 -8.36514518596E-004 +2.27709688261E-006 +6.41371525489E-006 +6.82439729571E-002 +3.77317786217E-001 
+1.58100000000E+010 -5.85463941097E-001 -4.38273340464E-001 +3.58566641808E-004 -2.87447264418E-003 -8.37533116282E-006 -4.25552389061E-006 +1.11786283553E-001 +3.78007382154E-001 
+1.60100000000E+010 -5.87770879269E-001 -4.37264144421E-001 -2.31381319463E-003 -1.36924441904E-003 -1.04818973341E-005 +9.41306552704E-007 +1.56794369221E-001 +3.73227745295E-001 
+1.62100000000E+010 -5.90026021004E-001 -4.36258703470E-001 -2.16226815246E-003 +1.40534585807E-003 +4.70563327326E-006 +1.52512075147E-005 +2.04112514853E-001 +3.62991780043E-001 
+1.64100000000E+010 -5.91892480850E-001 -4.35260206461E-001 +3.75574600184E-004 +2.53616692498E-003 -1.47265393480E-006 +2.24061423069E-005 +2.50827908516E-001 +3.46894562244E-001 
+1.66100000000E+010 -5.95485389233E-001 -4.34296607971E-001 +2.43470538408E-003 +6.57388707623E-004 -8.46686589284E-007 -7.23410767023E-006 +2.94581502676E-001 +3.23112249374E-001 
+1.68100000000E+010 -5.98767757416E-001 -4.32422101498E-001 +1.55454839114E-003 -1.96266919374E-003 -5.58438250664E-006 +6.92554476700E-006 +3.37519943714E-001 +2.95675426722E-001 
+1.70100000000E+010 -6.00790083408E-001 -4.30773705244E-001 -1.22596521396E-003 -2.12877360173E-003 -8.75417208590E-006 +2.57220308413E-005 +3.77435833216E-001 +2.64436006546E-001 
+1.72100000000E+010 -6.03340089321E-001 -4.29064750671E-001 -2.25625536405E-003 +3.48991743522E-004 +1.08281146822E-005 +1.08744029603E-006 +4.14805114269E-001 +2.25982829928E-001 
+1.74100000000E+010 -6.06370985508E-001 -4.27758514881E-001 -5.74213045184E-004 +2.13708728552E-003 +1.07263822429E-005 +2.26911961363E-005 +4.47987824678E-001 +1.83312192559E-001 
+1.76100000000E+010 -6.09177947044E-001 -4.26016509533E-001 +1.72265165020E-003 +1.31778710056E-003 -1.22423616631E-005 -1.17385106932E-005 +4.76057797670E-001 +1.37529104948E-001 
+1.78100000000E+010 -6.12297475338E-001 -4.24511373043E-001 +1.74739153590E-003 -1.03244988713E-003 -1.70137845998E-005 +3.76580683223E-005 +4.99618947506E-001 +8.88601467013E-002 
+1.80100000000E+010 -6.14838004112E-001 -4.22689080238E-001 -1.96470384253E-004 -1.91060779616E-003 +1.66968839039E-005 +4.19638308813E-005 +5.18742620945E-001 +3.78220118582E-002 
+1.82100000000E+010 -6.17832660675E-001 -4.21315670013E-001 -1.85296963900E-003 -5.58814208489E-004 +3.76524476451E-005 +4.77723688164E-006 +5.31823337078E-001 -1.66433323175E-002 
+1.84100000000E+010 -6.20769977570E-001 -4.20182555914E-001 -1.13725452684E-003 +1.34975509718E-003 -3.30210459651E-005 +3.21721527143E-005 +5.38196027279E-001 -7.37736746669E-002 
+1.86100000000E+010 -6.24079585075E-001 -4.18556571007E-001 +7.64740689192E-004 +1.55035976786E-003 -1.58979455591E-005 -2.15869949898E-005 +5.38022935390E-001 -1.30437597632E-001 
+1.88100000000E+010 -6.26766204834E-001 -4.16369199753E-001 +1.70680205338E-003 -9.20272868825E-005 +2.33268892771E-005 +2.63049732894E-005 +5.32121181488E-001 -1.86597675085E-001 
+1.90100000000E+010 -6.28587663174E-001 -4.14901494980E-001 +5.37705607712E-004 -1.51945895050E-003 +6.46932357995E-006 -1.01328014352E-005 +5.20731985569E-001 -2.42590010166E-001 
+1.92100000000E+010 -6.30997836590E-001 -4.14340913296E-001 -1.14868569653E-003 -1.10571924597E-003 +1.30737146264E-006 -1.23524405353E-005 +5.02846419811E-001 -2.99654871225E-001 
+1.94100000000E+010 -6.33895277977E-001 -4.12799358368E-001 -1.39913090970E-003 +6.08315109275E-004 -7.67330129747E-006 -1.14244503493E-005 +4.77638095617E-001 -3.54487270117E-001 
+1.96100000000E+010 -6.35214447975E-001 -4.11015212536E-001 +3.85582061426E-005 +1.40773179010E-003 -6.11901850789E-006 -1.92626193893E-005 +4.46960270405E-001 -4.06534135342E-001 
+1.98100000000E+010 -6.35198056698E-001 -4.08526867628E-001 +1.24846480321E-003 +5.76491933316E-004 -4.90069851367E-006 -2.85109927063E-005 +4.12103861570E-001 -4.53813195229E-001 
+2.00100000000E+010 -6.34726107121E-001 -4.07563865185E-001 +9.69819375314E-004 -9.16178047191E-004 -2.18201257667E-005 +9.84396774584E-006 +3.70380848646E-001 -5.00126838684E-001 
