!;Filter: kein Filter
!auto
!3/21/2019 9:27:39 AM
!3/21/2019 9:27:53 AM
!SP-Measurements Prober G4
!SP-Measurements Prober G4
!01103_448C
!134
!237
!12
!60
!-20
!0.00499992
!1.96
!0.64375220
!0.64375220
# Hz S  RI   R 50
+1.00000000000E+007 +8.97374600172E-002 +5.61352074146E-003 +6.28759264946E-002 -2.53559686244E-002 +4.31268446846E-004 -4.31164196925E-004 +5.27629582211E-003 +1.27470586449E-003 
+2.10000000000E+008 +1.07903331518E-001 -1.95934958756E-002 -2.40184552968E-003 -6.52665346861E-002 +2.89207382593E-005 -2.68263447651E-005 +8.68964008987E-003 -4.81673283502E-003 
+4.10000000000E+008 +1.09583757818E-001 -4.66468036175E-002 -6.12396076322E-002 -2.10990328342E-002 +1.88261819858E-005 -6.73948852636E-006 +1.00980550051E-002 -7.79822189361E-003 
+6.10000000000E+008 +1.07980974019E-001 -7.36479461193E-002 -4.12535518408E-002 +4.90744486451E-002 +3.35601325787E-005 -3.93096088374E-005 +9.61881596595E-003 -1.15395076573E-002 
+8.10000000000E+008 +1.03252872825E-001 -1.00126340985E-001 +3.13582383096E-002 +5.55937103927E-002 +1.65316869243E-005 -2.79191626760E-005 +7.18149403110E-003 -1.53904873878E-002 
+1.01000000000E+009 +9.77151691914E-002 -1.25150859356E-001 +6.45842403173E-002 -1.05026103556E-002 +1.70578568941E-005 -9.41429061641E-006 +2.77928658761E-003 -1.91328879446E-002 
+1.21000000000E+009 +8.96041989326E-002 -1.50240838528E-001 +1.29456184804E-002 -6.10871464014E-002 -4.63800552097E-006 -3.00599072034E-006 -1.83649233077E-003 -2.10093781352E-002 
+1.41000000000E+009 +8.04531797767E-002 -1.73881709576E-001 -5.22038005292E-002 -3.54443900287E-002 -1.79281487362E-005 -5.83904511586E-006 -7.56537076086E-003 -2.42868326604E-002 
+1.61000000000E+009 +7.12836161256E-002 -1.97769209743E-001 -5.12021705508E-002 +3.85859496891E-002 -6.17942350800E-006 +7.24489837012E-007 -1.35656399652E-002 -2.67597548664E-002 
+1.81000000000E+009 +5.90921752155E-002 -2.19564244151E-001 +1.56995188445E-002 +6.01043477654E-002 -1.67466225776E-007 +1.26976110550E-005 -1.78357176483E-002 -2.78190374374E-002 
+2.01000000000E+009 +4.75582368672E-002 -2.40355417132E-001 +6.32532238960E-002 +8.10310523957E-003 -3.45343573827E-006 +1.49384841279E-005 -2.30821799487E-002 -2.64635235071E-002 
+2.21000000000E+009 +3.47645580769E-002 -2.61226296425E-001 +2.80405711383E-002 -5.74777349830E-002 +2.50744551522E-006 -6.33583340459E-006 -2.86443680525E-002 -2.44314260781E-002 
+2.41000000000E+009 +2.06314828247E-002 -2.79650986195E-001 -4.15389128029E-002 -4.72504422069E-002 +1.07065798147E-005 +2.56444545812E-005 -3.53378131986E-002 -2.21305023879E-002 
+2.61000000000E+009 +6.85786642134E-003 -2.97390848398E-001 -6.14583380520E-002 +2.22435183823E-002 +3.12785846290E-006 -2.11084261537E-005 -4.06201630831E-002 -1.93286910653E-002 
+2.81000000000E+009 -7.97957647592E-003 -3.14588218927E-001 +1.34969665669E-003 +6.49541690946E-002 -8.38624146127E-006 +1.43262532220E-005 -4.45935390890E-002 -1.44688682631E-002 
+3.01000000000E+009 -2.32607088983E-002 -3.29724907875E-001 +6.03512041271E-002 +2.38757468760E-002 +2.20482288569E-005 +9.88359352050E-006 -4.83605563641E-002 -8.64432565868E-003 
+3.21000000000E+009 -3.81133966148E-002 -3.44512671232E-001 +4.58669401705E-002 -5.06867580116E-002 -6.06701678407E-006 +2.52997324424E-005 -5.22550530732E-002 -2.19113309868E-003 
+3.41000000000E+009 -5.37582971156E-002 -3.58632922173E-001 -3.27846370637E-002 -5.87088577449E-002 -1.75353779923E-005 +4.44520446763E-006 -5.52066788077E-002 +4.85978461802E-003 
+3.61000000000E+009 -6.92416280508E-002 -3.71201604605E-001 -6.76812455058E-002 +7.99031089991E-003 +1.57649919856E-005 +1.74749438884E-005 -5.70065379143E-002 +1.16986753419E-002 
+3.81000000000E+009 -8.47725048661E-002 -3.83323848248E-001 -1.51052856818E-002 +7.02208355069E-002 +7.27450515114E-006 +5.95263918513E-006 -5.68012669683E-002 +1.90428122878E-002 
+4.01000000000E+009 -1.00679561496E-001 -3.94517630339E-001 +5.89961521327E-002 +3.68487834930E-002 -2.45933370024E-005 -6.51345999358E-007 -5.57456836104E-002 +2.68768090755E-002 
+4.21000000000E+009 -1.16154760122E-001 -4.04368519783E-001 +5.82972466946E-002 -4.22157347202E-002 +3.10668497150E-006 +1.90570717677E-005 -5.38298636675E-002 +3.55334542692E-002 
+4.41000000000E+009 -1.31740748882E-001 -4.13944721222E-001 -2.27193105966E-002 -7.11719468236E-002 +1.01431178336E-005 -7.12687369742E-006 -5.07351532578E-002 +4.40437570214E-002 
+4.61000000000E+009 -1.47247701883E-001 -4.22249495983E-001 -7.42547959089E-002 -3.65156726912E-003 -2.41945349444E-006 +2.61749846686E-005 -4.64732423425E-002 +5.13346046209E-002 
+4.81000000000E+009 -1.62420690060E-001 -4.30134981871E-001 -3.11270244420E-002 +7.15483203530E-002 +2.85658666144E-006 -8.18580610940E-006 -3.99053320289E-002 +5.84184378386E-002 
+5.01000000000E+009 -1.77595004439E-001 -4.38091635704E-001 +6.19490630925E-002 +5.37482090294E-002 +6.09104154137E-006 -2.01154261958E-006 -3.33192683756E-002 +6.50212317705E-002 
+5.21000000000E+009 -1.92643374205E-001 -4.44965362549E-001 +7.11754113436E-002 -4.17589396238E-002 +5.95117808189E-006 -8.44960413815E-006 -2.57949288934E-002 +7.09466114640E-002 
+5.41000000000E+009 -2.07421571016E-001 -4.50955778360E-001 -1.76527500153E-002 -8.52912887931E-002 +1.07647520053E-005 +6.21686558588E-006 -1.70520823449E-002 +7.63167887926E-002 
+5.61000000000E+009 -2.22871229053E-001 -4.56864506006E-001 -8.97956416011E-002 -4.69039380550E-003 +2.08271794691E-005 +2.14656392927E-005 -7.52758421004E-003 +7.94493556023E-002 
+5.81000000000E+009 -2.37459450960E-001 -4.61300522089E-001 -3.09194307774E-002 +8.32415223122E-002 +2.07210337066E-006 -1.84450636880E-005 +3.12816654332E-003 +8.02959799767E-002 
+6.01000000000E+009 -2.51706600189E-001 -4.65172052383E-001 +7.37584680319E-002 +5.47828488052E-002 +2.03263207368E-005 -3.38996869687E-006 +1.40888737515E-002 +8.22128504515E-002 
+6.21000000000E+009 -2.66266524792E-001 -4.68167036772E-001 +6.83145821095E-002 -5.83201050758E-002 -2.55573031609E-005 +2.20252823055E-005 +2.47616656125E-002 +8.18113237619E-002 
+6.41000000000E+009 -2.79602199793E-001 -4.70517933369E-001 -3.41912508011E-002 -7.85611122847E-002 -4.44334727945E-006 +2.86256931759E-006 +3.63120734692E-002 +7.99145847559E-002 
+6.61000000000E+009 -2.93213039637E-001 -4.72494542599E-001 -8.31327736378E-002 +1.26653304324E-002 +2.52152294706E-005 +9.03961245058E-006 +4.75184135139E-002 +7.47580602765E-002 
+6.81000000000E+009 -3.06277513504E-001 -4.73688393831E-001 -7.57131539285E-003 +7.58199691772E-002 -2.27020859711E-006 +4.67868721898E-006 +5.82488514483E-002 +6.87183737755E-002 
+7.01000000000E+009 -3.18377435207E-001 -4.74840193987E-001 +6.49377182126E-002 +2.90404073894E-002 +5.81297308599E-006 +1.24940988826E-005 +6.79822042584E-002 +6.27799034119E-002 
+7.21000000000E+009 -3.30416113138E-001 -4.75498557091E-001 +4.26837839186E-002 -5.11950328946E-002 -8.19000342744E-006 -1.13628138934E-005 +7.72596821189E-002 +5.40614426136E-002 
+7.41000000000E+009 -3.41618001461E-001 -4.76229518652E-001 -3.16808931530E-002 -4.97764907777E-002 -2.09649101635E-006 -2.48719152296E-005 +8.64211097360E-002 +4.38166409731E-002 
+7.61000000000E+009 -3.52245181799E-001 -4.76562172174E-001 -5.30439540744E-002 +1.25635191798E-002 -5.72566068513E-006 +1.10280711851E-006 +9.27229300141E-002 +3.17699536681E-002 
+7.81000000000E+009 -3.63251358271E-001 -4.76264178753E-001 -3.28077096492E-003 +4.98091764748E-002 -1.23859626910E-006 -1.10877117550E-005 +9.80594679713E-002 +1.96812339127E-002 
+8.01000000000E+009 -3.73243987560E-001 -4.76121485233E-001 +3.98866198957E-002 +1.80139970034E-002 -7.71301984059E-006 -9.16220324143E-006 +1.01860433817E-001 +5.90680446476E-003 
+8.21000000000E+009 -3.83389055729E-001 -4.75817143917E-001 +2.85385437310E-002 -2.96933408827E-002 +1.28232104544E-005 -1.17037097880E-005 +1.03999838233E-001 -8.27137567103E-003 
+8.41000000000E+009 -3.93167138100E-001 -4.74944353104E-001 -1.70342698693E-002 -3.21901626885E-002 +2.77470235233E-006 -1.04006289803E-006 +1.03425532579E-001 -2.34417989850E-002 
+8.61000000000E+009 -4.02804613113E-001 -4.74537611008E-001 -3.21248024702E-002 +2.06757639535E-003 +2.74718622677E-005 +1.93223131646E-005 +1.00114554167E-001 -3.88124696910E-002 
+8.81000000000E+009 -4.12092417479E-001 -4.73879933357E-001 -9.05655138195E-003 +2.91881226003E-002 -5.24997267348E-006 -1.03996753751E-005 +9.48281288147E-002 -5.42280189693E-002 
+9.01000000000E+009 -4.21162366867E-001 -4.72874879837E-001 +2.19243429601E-002 +1.67846437544E-002 +1.32797977130E-005 -1.41755398531E-008 +8.82738232613E-002 -6.79405555129E-002 
+9.21000000000E+009 -4.30058717728E-001 -4.71978515387E-001 +2.20163334161E-002 -1.24235413969E-002 -1.81097748282E-005 +1.41447462738E-005 +7.83554613590E-002 -8.26890692115E-002 
+9.41000000000E+009 -4.38375890255E-001 -4.71041381359E-001 -3.56752471998E-003 -2.36446484923E-002 +3.19183254760E-006 +1.47224900502E-005 +6.58465698361E-002 -9.61349159479E-002 
+9.61000000000E+009 -4.46687042713E-001 -4.69703495502E-001 -2.09612697363E-002 -4.74149780348E-003 -3.70667021343E-006 -2.32608999795E-005 +5.07192276418E-002 -1.08332693577E-001 
+9.81000000000E+009 -4.54539239407E-001 -4.69091057777E-001 -1.19032682851E-002 +1.61161907017E-002 +5.31747855348E-006 -1.67259440786E-005 +3.54340709746E-002 -1.17608934641E-001 
+1.00100000000E+010 -4.62721347809E-001 -4.67666387558E-001 +1.01856160909E-002 +1.60232558846E-002 -2.09184563573E-005 -2.09530990105E-005 +1.86002403498E-002 -1.25254377723E-001 
+1.02100000000E+010 -4.70273345709E-001 -4.65839326382E-001 +1.68814230710E-002 -3.10367997736E-003 -1.18424013635E-005 -2.52396839642E-005 +5.64657675568E-004 -1.32102981210E-001 
+1.04100000000E+010 -4.77801322937E-001 -4.64506506920E-001 +3.80238960497E-003 -1.57810132951E-002 +2.14173396671E-005 -6.12832855040E-006 -1.99694223702E-002 -1.37489706278E-001 
+1.06100000000E+010 -4.85127806664E-001 -4.62957501411E-001 -1.26436771825E-002 -8.66506900638E-003 -3.86080910175E-006 +2.47387492891E-006 -4.16253097355E-002 -1.39923796058E-001 
+1.08100000000E+010 -4.91394579411E-001 -4.62136000395E-001 -1.17793083191E-002 +7.54950800911E-003 -5.26036501469E-006 +1.16609726319E-005 -6.34306073189E-002 -1.39328867197E-001 
+1.10100000000E+010 -4.98150885105E-001 -4.60630565882E-001 +2.03850772232E-003 +1.31963789463E-002 +6.41042561256E-006 -1.56113437697E-005 -8.51831808686E-002 -1.35912433267E-001 
+1.12100000000E+010 -5.04278957844E-001 -4.59920078516E-001 +1.23409340158E-002 +2.70114536397E-003 -1.20907070595E-005 +8.55274902278E-006 -1.08923353255E-001 -1.29733145237E-001 
+1.14100000000E+010 -5.10793745518E-001 -4.58471029997E-001 +6.84598647058E-003 -9.41751990467E-003 -3.85559724236E-006 +1.01840805655E-005 -1.31916895509E-001 -1.19672901928E-001 
+1.16100000000E+010 -5.15958487988E-001 -4.57256257534E-001 -5.55281061679E-003 -9.73439868540E-003 -6.98538678989E-006 +1.56841779244E-005 -1.53938144445E-001 -1.06202825904E-001 
+1.18100000000E+010 -5.21498084068E-001 -4.55850690603E-001 -1.05790933594E-002 +1.56895397231E-003 -3.36580487783E-005 +3.95187589675E-006 -1.73250526190E-001 -8.93374159932E-002 
+1.20100000000E+010 -5.27139365673E-001 -4.54129785299E-001 -2.51638493501E-003 +9.57870669663E-003 -2.16908276229E-007 -1.34827787406E-005 -1.90192148089E-001 -7.01118037105E-002 
+1.22100000000E+010 -5.32854437828E-001 -4.52147126198E-001 +7.60807795450E-003 +5.93126472086E-003 -5.47010813534E-007 -1.55713138383E-007 -2.07312166691E-001 -4.83361519873E-002 
+1.24100000000E+010 -5.38093209267E-001 -4.50564205647E-001 +7.82667286694E-003 -4.76697040722E-003 -8.99818951439E-006 +2.07521679840E-005 -2.22089871764E-001 -2.32016295195E-002 
+1.26100000000E+010 -5.43234348297E-001 -4.48865115643E-001 -1.03960547131E-003 -8.35663173348E-003 +5.70441898162E-007 -2.57505216723E-005 -2.32044994831E-001 +4.29764855653E-003 
+1.28100000000E+010 -5.48295021057E-001 -4.46888893843E-001 -7.94716086239E-003 -2.30661244132E-003 +1.56880578288E-005 +1.63238212281E-006 -2.38454148173E-001 +3.31654064357E-002 
+1.30100000000E+010 -5.53343236446E-001 -4.44367051125E-001 -4.65686153620E-003 +6.17713201791E-003 -1.42682111459E-007 -5.97443477091E-006 -2.42134049535E-001 +6.29899203777E-002 
+1.32100000000E+010 -5.58024644852E-001 -4.42255616188E-001 +3.46512370743E-003 +6.33827038109E-003 +3.82635079177E-007 +1.65247729456E-005 -2.42630034685E-001 +9.43609997630E-002 
+1.34100000000E+010 -5.62855362892E-001 -4.39319729805E-001 +7.05479457974E-003 -6.79737306200E-004 -3.09768438456E-005 +1.91606395674E-005 -2.39107832313E-001 +1.26221597195E-001 
+1.36100000000E+010 -5.65678775311E-001 -4.37040179968E-001 +1.77922996227E-003 -6.40012603253E-003 +4.47912952950E-006 -4.21527010985E-006 -2.31132149696E-001 +1.58962458372E-001 
+1.38100000000E+010 -5.70530533791E-001 -4.35347139835E-001 -4.75294003263E-003 -4.00661444291E-003 -2.41248635575E-005 -2.63356723735E-005 -2.18028590083E-001 +1.90693184733E-001 
+1.40100000000E+010 -5.75366735458E-001 -4.33224260807E-001 -5.48034673557E-003 +2.78964638710E-003 -2.50613484241E-005 +1.74485812749E-005 -2.01457574964E-001 +2.21532061696E-001 
+1.42100000000E+010 -5.79764902592E-001 -4.31267797947E-001 +5.39437634870E-004 +5.65086770803E-003 -7.75932790020E-007 +1.70108478414E-006 -1.81042566895E-001 +2.52620309591E-001 
+1.44100000000E+010 -5.84423243999E-001 -4.28705513477E-001 +5.07290102541E-003 +1.78434001282E-003 +8.34320144349E-006 +9.18425939744E-006 -1.55505746603E-001 +2.81174540520E-001 
+1.46100000000E+010 -5.88012039661E-001 -4.26568925381E-001 +3.59820481390E-003 -3.93171748146E-003 -1.78147784027E-005 +2.81031134364E-005 -1.24865420163E-001 +3.06484699249E-001 
+1.48100000000E+010 -5.91641783714E-001 -4.22188758850E-001 -2.18837708235E-003 -4.46839770302E-003 -1.78632053576E-005 -1.47821731389E-006 -9.19830948114E-002 +3.28487336636E-001 
+1.50100000000E+010 -5.93306183815E-001 -4.21993017197E-001 -4.69476915896E-003 +8.54787795106E-005 +1.67253565451E-005 +2.76041191682E-005 -5.63941076398E-002 +3.47716838121E-001 
+1.52100000000E+010 -5.96248209476E-001 -4.21966731548E-001 -1.68658688199E-003 +4.27809637040E-003 -1.38044597406E-005 +7.16548038326E-006 -1.76966730505E-002 +3.62819075584E-001 
+1.54100000000E+010 -5.99913954735E-001 -4.20581847429E-001 +3.15161794424E-003 +2.95782228932E-003 -2.31176204579E-006 +4.01259239879E-006 +2.44417581707E-002 +3.72813582420E-001 
+1.56100000000E+010 -6.03868961334E-001 -4.17682915926E-001 +3.79359582439E-003 -1.47797632962E-003 -2.25690246225E-006 -1.29148838823E-005 +6.81352466345E-002 +3.76972347498E-001 
+1.58100000000E+010 -6.05313420296E-001 -4.17249172926E-001 +4.15862632508E-005 -4.05446486548E-003 +3.32137688019E-006 -6.48250988888E-006 +1.11632250249E-001 +3.77676278353E-001 
+1.60100000000E+010 -6.07705652714E-001 -4.16293054819E-001 -3.50955361500E-003 -1.44884560723E-003 +1.22750316223E-005 -8.03283455753E-007 +1.56570836902E-001 +3.72880041599E-001 
+1.62100000000E+010 -6.10096871853E-001 -4.15250003338E-001 -2.68843327649E-003 +2.39244359545E-003 +5.53602967557E-006 +1.73738899321E-005 +2.03873634338E-001 +3.62714469433E-001 
+1.64100000000E+010 -6.12269461155E-001 -4.14162278175E-001 +1.17159064393E-003 +3.36990621872E-003 -2.21558329940E-005 -1.65122386875E-007 +2.50527799129E-001 +3.46597224474E-001 
+1.66100000000E+010 -6.15869224072E-001 -4.12743508816E-001 +3.33786057308E-003 +1.19392265333E-004 +6.91320656188E-006 -1.98604757315E-005 +2.94260978699E-001 +3.22867184877E-001 
+1.68100000000E+010 -6.19018673897E-001 -4.10745143890E-001 +1.44891289528E-003 -2.80014704913E-003 -1.99446694751E-005 +1.14660660984E-005 +3.37088435888E-001 +2.95463562012E-001 
+1.70100000000E+010 -6.21032118797E-001 -4.09017980099E-001 -2.02701194212E-003 -2.40737223066E-003 -1.81759951374E-005 +6.72379792377E-006 +3.77016365528E-001 +2.64240771532E-001 
+1.72100000000E+010 -6.23435616493E-001 -4.07205045223E-001 -2.77172867209E-003 +8.69216688443E-004 +3.24209649989E-005 +2.51595411100E-005 +4.14365082979E-001 +2.25869089365E-001 
+1.74100000000E+010 -6.26410424709E-001 -4.05672401190E-001 -3.99968121201E-004 +2.78464774601E-003 -2.40854751610E-005 +4.07293782700E-007 +4.47592705488E-001 +1.83138847351E-001 
+1.76100000000E+010 -6.29065215588E-001 -4.03843313456E-001 +2.39534839056E-003 +1.38524465729E-003 +3.04336517729E-005 +1.74017459358E-005 +4.75605845451E-001 +1.37422472239E-001 
+1.78100000000E+010 -6.32002472878E-001 -4.02097105980E-001 +2.07817764021E-003 -1.58245442435E-003 -1.58626735356E-005 +7.71090890339E-006 +4.99205619097E-001 +8.88117030263E-002 
+1.80100000000E+010 -6.34338796139E-001 -4.00141656399E-001 -5.05001633428E-004 -2.42733629420E-003 -2.02031660592E-005 -4.95536369272E-006 +5.18367111683E-001 +3.77509780228E-002 
+1.82100000000E+010 -6.37000858784E-001 -3.98668706417E-001 -2.44024232961E-003 -4.61980147520E-004 -1.12679763333E-005 +1.35847249112E-005 +5.31428337097E-001 -1.65579319000E-002 
+1.84100000000E+010 -6.39623284340E-001 -3.97408574820E-001 -1.25085981563E-003 +1.89272034913E-003 -1.49758698171E-005 -1.32792556542E-005 +5.37812054157E-001 -7.36410468817E-002 
+1.86100000000E+010 -6.42672598362E-001 -3.95783424377E-001 +1.16938620340E-003 +1.91458687186E-003 +3.33351890731E-005 +2.48482374445E-005 +5.37635862827E-001 -1.30203187466E-001 
+1.88100000000E+010 -6.44984900951E-001 -3.93796086311E-001 +2.14525940828E-003 -3.36366530973E-004 -2.85152618744E-005 -2.26363681577E-005 +5.31724333763E-001 -1.86356067657E-001 
+1.90100000000E+010 -6.46740138531E-001 -3.92396211624E-001 +4.75391803775E-004 -2.01164069586E-003 -2.74798258033E-005 +2.55943868979E-005 +5.20407736301E-001 -2.42315828800E-001 
+1.92100000000E+010 -6.49112164974E-001 -3.91759574413E-001 -1.52813654859E-003 -1.30370701663E-003 +3.38014251611E-005 -1.66979603478E-007 +5.02580940723E-001 -2.99358069897E-001 
+1.94100000000E+010 -6.51833713055E-001 -3.90097409487E-001 -1.70932279434E-003 +9.64902341366E-004 +5.93273352933E-006 -5.09575402248E-005 +4.77230995893E-001 -3.54129999876E-001 
+1.96100000000E+010 -6.52791738510E-001 -3.87934207916E-001 +1.01941572211E-004 +1.84447225183E-003 +1.67398604844E-006 +1.20855702335E-005 +4.46597427130E-001 -4.06085550785E-001 
+1.98100000000E+010 -6.52101278305E-001 -3.85214865208E-001 +1.66126142722E-003 +6.19635742623E-004 +6.55509438729E-006 -1.50827838752E-006 +4.11798089743E-001 -4.53354090452E-001 
+2.00100000000E+010 -6.50749862194E-001 -3.85076940060E-001 +1.25075259712E-003 -1.28978653811E-003 +3.04754321405E-005 -1.73064963747E-005 +3.70223253965E-001 -4.99606877565E-001 
