!;Filter: kein Filter
!auto
!3/21/2019 9:26:39 AM
!3/21/2019 9:26:51 AM
!SP-Measurements Prober G4
!SP-Measurements Prober G4
!01103_448C
!134
!235
!12
!60
!-20
!0.00099996
!1.65
!0.05816927
!0.05816927
# Hz S  RI   R 50
+1.00000000000E+007 +4.08535927534E-001 +5.87241258472E-003 +4.20381464064E-002 -1.77256278694E-002 +1.09259260353E-003 +3.13222320983E-004 +4.35100356117E-003 +5.56148122996E-004 
+2.10000000000E+008 +4.09455090761E-001 -4.71892245114E-002 -5.85773633793E-003 -4.38045933843E-002 +5.16316249559E-005 -9.66147927102E-005 +8.79721716046E-003 -4.81893261895E-003 
+4.10000000000E+008 +4.01116758585E-001 -9.02186706662E-002 -4.39634099603E-002 -6.71748910099E-003 +1.59037754202E-005 -5.81149688514E-005 +1.00953262299E-002 -7.79134966433E-003 
+6.10000000000E+008 +3.93452137709E-001 -1.30853235722E-001 -1.86549704522E-002 +4.12568747997E-002 +4.75519336760E-005 +5.40787841601E-005 +9.66867990792E-003 -1.15960435942E-002 
+8.10000000000E+008 +3.82274478674E-001 -1.71997636557E-001 +3.55276912451E-002 +3.00210956484E-002 +8.29342661746E-006 -3.06863039441E-005 +7.25974887609E-003 -1.54635710642E-002 
+1.01000000000E+009 +3.67373257875E-001 -2.13467180729E-001 +3.83382625878E-002 -2.60387323797E-002 +1.91711387743E-005 -6.11081713942E-006 +2.81005189754E-003 -1.91764812917E-002 
+1.21000000000E+009 +3.50293666124E-001 -2.46782451868E-001 -1.26288123429E-002 -4.96235154569E-002 -2.35815841734E-005 -1.79305006895E-005 -1.75092136487E-003 -2.11053993553E-002 
+1.41000000000E+009 +3.37592184544E-001 -2.84757167101E-001 -5.74448220432E-002 +3.97513620555E-003 +5.04618183186E-005 +4.92472008773E-006 -7.57150305435E-003 -2.43518482894E-002 
+1.61000000000E+009 +3.20909529924E-001 -3.33185225725E-001 +7.70104257390E-003 +6.03802949190E-002 -8.60423733684E-006 -2.78268726106E-005 -1.36022688821E-002 -2.68329922110E-002 
+1.81000000000E+009 +2.89907217026E-001 -3.75995576382E-001 +5.91341555119E-002 -9.57186706364E-003 +1.97361878236E-005 -2.23771803576E-005 -1.77900996059E-002 -2.79055964202E-002 
+2.01000000000E+009 +2.55837112665E-001 -4.06319230795E-001 -3.68204643019E-003 -5.62304034829E-002 -3.07268092001E-005 +3.27313537127E-005 -2.31101475656E-002 -2.65716407448E-002 
+2.21000000000E+009 +2.22215488553E-001 -4.30409669876E-001 -5.35064451396E-002 -2.84114922397E-003 +1.72588152054E-005 +4.61722174805E-006 -2.87268832326E-002 -2.45586428791E-002 
+2.41000000000E+009 +1.92085847259E-001 -4.48351651430E-001 -1.32218208164E-002 +4.63662073016E-002 -1.92231000256E-005 +1.97803055926E-005 -3.54204848409E-002 -2.22213920206E-002 
+2.61000000000E+009 +1.65081679821E-001 -4.64058846235E-001 +3.60441096127E-002 +2.24477518350E-002 +3.13099226332E-005 -3.89611959690E-005 -4.06690128148E-002 -1.94162912667E-002 
+2.81000000000E+009 +1.39079988003E-001 -4.78650152683E-001 +2.80320141464E-002 -2.45866533369E-002 +4.32213491877E-005 -7.20600073691E-005 -4.46903333068E-002 -1.44937196746E-002 
+3.01000000000E+009 +1.14362969995E-001 -4.92025405169E-001 -1.25674316660E-002 -2.94026397169E-002 -3.21024635923E-005 +1.70472358150E-005 -4.84623759985E-002 -8.66884458810E-003 
+3.21000000000E+009 +9.03330966830E-002 -5.04590570927E-001 -2.71259471774E-002 +2.01164325699E-003 +3.52680326614E-005 -2.15443833440E-005 -5.23304194212E-002 -2.20507266931E-003 
+3.41000000000E+009 +6.69390484691E-002 -5.16437172890E-001 -5.92616247013E-003 +2.21067629755E-002 -3.52109345840E-005 +1.83389820450E-005 -5.53384758532E-002 +4.80805616826E-003 
+3.61000000000E+009 +4.39836680889E-002 -5.27676880360E-001 +1.55844902620E-002 +1.14167565480E-002 +1.27557887026E-005 +9.10822564038E-006 -5.71447946131E-002 +1.16742756218E-002 
+3.81000000000E+009 +2.07730364054E-002 -5.37680327892E-001 +1.39512345195E-002 -9.13380086422E-003 -1.31310171128E-005 -1.49738461914E-005 -5.69899640977E-002 +1.91037021577E-002 
+4.01000000000E+009 -1.44399900455E-003 -5.47128677368E-001 -2.94249318540E-003 -1.40027916059E-002 -2.36020496232E-005 -2.09391255339E-005 -5.59046491981E-002 +2.69639901817E-002 
+4.21000000000E+009 -2.37462855875E-002 -5.55524766445E-001 -1.22363884002E-002 -2.29201209731E-003 -1.58825878316E-005 -6.87410720275E-005 -5.39660006762E-002 +3.55565249920E-002 
+4.41000000000E+009 -4.56629283726E-002 -5.62828183174E-001 -5.87733415887E-003 +9.46687348187E-003 +1.14012582344E-005 -1.91842318600E-005 -5.08331656456E-002 +4.41423319280E-002 
+4.61000000000E+009 -6.70047402382E-002 -5.69158673286E-001 +5.78216137365E-003 +7.80154578388E-003 +1.17812187455E-005 -2.01359798666E-005 -4.65485826135E-002 +5.14654479921E-002 
+4.81000000000E+009 -8.81279408932E-002 -5.74864745140E-001 +8.53618234396E-003 -1.98596576229E-003 +1.87803143490E-005 -6.53759707347E-006 -4.00292538106E-002 +5.86425960064E-002 
+5.01000000000E+009 -1.08586400747E-001 -5.80088734627E-001 +1.08301325236E-003 -7.88369588554E-003 -3.52873030351E-006 +9.38381253945E-006 -3.33295837045E-002 +6.52046501637E-002 
+5.21000000000E+009 -1.28506585956E-001 -5.84644079208E-001 -6.09902013093E-003 -3.45332198776E-003 -1.44125788211E-005 -1.83864976862E-005 -2.58392449468E-002 +7.11445659399E-002 
+5.41000000000E+009 -1.47986218333E-001 -5.88020205498E-001 -5.09227020666E-003 +3.81906353869E-003 -1.12522175186E-005 -1.05486860775E-005 -1.70669648796E-002 +7.65236914158E-002 
+5.61000000000E+009 -1.67423576117E-001 -5.91262578964E-001 +1.61139573902E-003 +5.63765177503E-003 +1.68256519828E-005 -2.55333707173E-005 -7.51229468733E-003 +7.96143189073E-002 
+5.81000000000E+009 -1.85936525464E-001 -5.93369007111E-001 +5.14846760780E-003 +6.11508148722E-004 -1.03095071609E-005 +3.55359079549E-005 +3.13906185329E-003 +8.04353728890E-002 
+6.01000000000E+009 -2.03801751137E-001 -5.94780743122E-001 +2.39258166403E-003 -4.16119256988E-003 -1.07343221316E-005 +4.76851673739E-005 +1.41978226602E-002 +8.23820233345E-002 
+6.21000000000E+009 -2.21464022994E-001 -5.95678627491E-001 -2.72103259340E-003 -3.43385385349E-003 +2.29027609748E-005 +1.60800063895E-005 +2.48952805996E-002 +8.20196643472E-002 
+6.41000000000E+009 -2.38170027733E-001 -5.96055388451E-001 -3.82718234323E-003 +1.04416196700E-003 -3.35537079081E-005 -1.07481937448E-005 +3.64920422435E-002 +8.01035836339E-002 
+6.61000000000E+009 -2.54897236824E-001 -5.96127510071E-001 -5.39424596354E-004 +3.64201818593E-003 -4.16211241827E-006 +2.71332355624E-005 +4.77194152772E-002 +7.49595090747E-002 
+6.81000000000E+009 -2.71085768938E-001 -5.95589458942E-001 +2.99634691328E-003 +1.72474863939E-003 -1.71595183929E-005 +1.38702052936E-005 +5.84248863161E-002 +6.88600763679E-002 
+7.01000000000E+009 -2.86506086588E-001 -5.94794213772E-001 +2.47451500036E-003 -1.87167047989E-003 -5.64264264540E-005 -1.90174505406E-005 +6.82396963239E-002 +6.28878772259E-002 
+7.21000000000E+009 -3.01609814167E-001 -5.93525886536E-001 -7.11964152288E-004 -2.82011856325E-003 -7.92102036939E-006 -1.11329627543E-005 +7.75094777346E-002 +5.41228763759E-002 
+7.41000000000E+009 -3.15986782312E-001 -5.92351377010E-001 -2.72501586005E-003 -3.86499363231E-004 -3.46267734130E-005 -1.43287279570E-005 +8.66825431585E-002 +4.38638068736E-002 
+7.61000000000E+009 -3.29652041197E-001 -5.90454936028E-001 -1.31670711562E-003 +2.08980892785E-003 -1.04648529486E-006 +1.90381470020E-005 +9.30188000202E-002 +3.18208858371E-002 
+7.81000000000E+009 -3.43434631824E-001 -5.88010013103E-001 +1.36081862729E-003 +1.94618047681E-003 +1.48836534208E-005 +2.98714403471E-005 +9.83244702220E-002 +1.96895003319E-002 
+8.01000000000E+009 -3.56257945299E-001 -5.85507750511E-001 +2.19136336818E-003 -4.77796536870E-004 -8.65184210852E-006 -3.53560085387E-006 +1.02094955742E-001 +5.83489425480E-003 
+8.21000000000E+009 -3.68847489357E-001 -5.82733213902E-001 +3.37255565682E-004 -2.00468394905E-003 -3.15296092595E-005 -1.94683016161E-005 +1.04287765920E-001 -8.43172147870E-003 
+8.41000000000E+009 -3.81038069725E-001 -5.79500615597E-001 -1.59347371664E-003 -1.09196151607E-003 +2.65925373242E-005 +1.18406460388E-005 +1.03742010891E-001 -2.36352607608E-002 
+8.61000000000E+009 -3.92854183912E-001 -5.76571881771E-001 -1.51895044837E-003 +1.02734251413E-003 +2.36988398683E-005 -2.80437252513E-005 +1.00338675082E-001 -3.90479117632E-002 
+8.81000000000E+009 -4.04176920652E-001 -5.73552489281E-001 +3.20948340232E-004 +1.64632673841E-003 +9.51474976318E-006 -1.64941375260E-005 +9.50367450714E-002 -5.44203929603E-002 
+9.01000000000E+009 -4.15166229010E-001 -5.70132017136E-001 +1.54551363084E-003 +3.32076975610E-004 +3.58313409379E-005 +2.41751558860E-006 +8.84382501245E-002 -6.82612806559E-002 
+9.21000000000E+009 -4.25882399082E-001 -5.66765367985E-001 +8.83344095200E-004 -1.23160122894E-003 -2.48099581768E-007 -2.62710364041E-005 +7.85068720579E-002 -8.30254182220E-002 
+9.41000000000E+009 -4.35787260532E-001 -5.63484787941E-001 -7.26244470570E-004 -1.22402503621E-003 +2.51035198744E-005 -3.60666235792E-005 +6.59630149603E-002 -9.64817553759E-002 
+9.61000000000E+009 -4.45557713509E-001 -5.59708178043E-001 -1.31886044983E-003 +1.49341256474E-004 -1.10521677925E-005 +4.50229199487E-005 +5.07647730410E-002 -1.08692944050E-001 
+9.81000000000E+009 -4.54664379358E-001 -5.56841194630E-001 -3.31470480887E-004 +1.23002810869E-003 -3.15100660373E-005 +1.98710731638E-005 +3.54496650398E-002 -1.17998354137E-001 
+1.00100000000E+010 -4.64203834534E-001 -5.53224802017E-001 +9.34259849600E-004 +7.76496366598E-004 +1.53521050379E-005 -3.93335649278E-005 +1.85628030449E-002 -1.25626444817E-001 
+1.02100000000E+010 -4.72789973021E-001 -5.49060106277E-001 +9.62209946010E-004 -5.05643023644E-004 +2.60352917394E-005 +2.74476478808E-005 +4.15177491959E-004 -1.32484048605E-001 
+1.04100000000E+010 -4.81360375881E-001 -5.45563101768E-001 -8.36052422528E-005 -1.04650296271E-003 -4.54857363366E-005 -1.11842991828E-005 -2.01271958649E-002 -1.37847855687E-001 
+1.06100000000E+010 -4.89602416754E-001 -5.41946649551E-001 -9.02027008124E-004 -2.74935388006E-004 -3.59925470548E-005 +4.03651683882E-005 -4.18986231089E-002 -1.40264675021E-001 
+1.08100000000E+010 -4.96753603220E-001 -5.39034128189E-001 -6.27784058452E-004 +7.13794783223E-004 -1.77727306436E-005 +1.30945472847E-005 -6.37406855822E-002 -1.39700770378E-001 
+1.10100000000E+010 -5.04245162010E-001 -5.35514593124E-001 +3.78286349587E-004 +8.27094074339E-004 -3.30738366756E-005 +1.91001909116E-005 -8.55866968632E-002 -1.36184632778E-001 
+1.12100000000E+010 -5.11126577854E-001 -5.32895863056E-001 +8.61789740156E-004 -6.18161138846E-005 -7.39792199056E-007 -5.78951448915E-006 -1.09301194549E-001 -1.29954621196E-001 
+1.14100000000E+010 -5.18327295780E-001 -5.29462635517E-001 +2.77369515970E-004 -7.35559500754E-004 +8.86311772774E-006 -2.36461364693E-005 -1.32314667106E-001 -1.19874186814E-001 
+1.16100000000E+010 -5.23947715759E-001 -5.26365637779E-001 -5.90295356233E-004 -5.17274544109E-004 +1.85395529115E-005 -9.21442824620E-006 -1.54459267855E-001 -1.06392122805E-001 
+1.18100000000E+010 -5.30104637146E-001 -5.23275494576E-001 -7.34917237423E-004 +2.47221731115E-004 +2.32466209127E-005 -4.47295951744E-006 -1.73736467957E-001 -8.93722251058E-002 
+1.20100000000E+010 -5.36207020283E-001 -5.19835591316E-001 -2.03058389161E-005 +6.80933007970E-004 +3.58468059858E-005 +2.74714111583E-005 -1.90606787801E-001 -7.00651705265E-002 
+1.22100000000E+010 -5.42446374893E-001 -5.16127049923E-001 +6.67600193992E-004 +1.86957826372E-004 -1.57375434355E-005 +6.28229463473E-006 -2.07873493433E-001 -4.82554882765E-002 
+1.24100000000E+010 -5.48051476479E-001 -5.12854933739E-001 +4.18282405008E-004 -4.50556311989E-004 -2.22211692744E-005 +8.86139423528E-006 -2.22568914294E-001 -2.30426974595E-002 
+1.26100000000E+010 -5.53596794605E-001 -5.09571075439E-001 -1.78633606993E-004 -5.65526250284E-004 -2.49101649388E-005 +2.26678675972E-005 -2.32503995299E-001 +4.55011194572E-003 
+1.28100000000E+010 -5.58932542801E-001 -5.05935072899E-001 -6.42499595415E-004 +1.84207819984E-005 +4.97451128467E-006 -2.68106668955E-005 -2.38921672106E-001 +3.34923155606E-002 
+1.30100000000E+010 -5.64195036888E-001 -5.01832127571E-001 -2.47617601417E-004 +4.87261248054E-004 -3.46367050952E-005 +6.04909746471E-006 -2.42587402463E-001 +6.34378641844E-002 
+1.32100000000E+010 -5.69139719009E-001 -4.98121142387E-001 +3.47037072061E-004 +4.29938430898E-004 -1.32959503389E-005 -2.84272537101E-005 -2.42997914553E-001 +9.48476865888E-002 
+1.34100000000E+010 -5.74213445187E-001 -4.93786185980E-001 +4.63744741865E-004 -1.40895455843E-004 +2.52339100371E-006 -1.16570527098E-005 -2.39414125681E-001 +1.26776024699E-001 
+1.36100000000E+010 -5.77042818069E-001 -4.89980250597E-001 +3.61007914762E-005 -4.70243598102E-004 -9.18376281334E-006 +2.67840232482E-006 -2.31280088425E-001 +1.59555763006E-001 
+1.38100000000E+010 -5.82060754299E-001 -4.86954689026E-001 -3.97746247472E-004 -1.92215215066E-004 +3.43563879142E-005 -2.17380347749E-005 -2.18162372708E-001 +1.91277265549E-001 
+1.40100000000E+010 -5.86968183517E-001 -4.83468085527E-001 -3.66424064850E-004 +2.58566025877E-004 +3.84226477763E-005 -3.67403117707E-005 -2.01496332884E-001 +2.22151502967E-001 
+1.42100000000E+010 -5.91411948204E-001 -4.80211198330E-001 +1.05183527921E-004 +4.13099856814E-004 +8.00721682026E-006 +1.60347608471E-005 -1.81017771363E-001 +2.53236889839E-001 
+1.44100000000E+010 -5.96163630486E-001 -4.76293563843E-001 +4.39221330453E-004 +7.15783899068E-005 -4.45851401309E-005 -1.33056973937E-005 -1.55382618308E-001 +2.81711310148E-001 
+1.46100000000E+010 -5.99742650986E-001 -4.72850561142E-001 +2.39700893871E-004 -3.40771366609E-004 +1.05807903310E-005 +2.54044789472E-005 -1.24714352190E-001 +3.07107865810E-001 
+1.48100000000E+010 -6.03269040585E-001 -4.67035114765E-001 -2.04044932616E-004 -2.82515451545E-004 +5.62549848837E-006 +1.43578881762E-005 -9.16531905532E-002 +3.29104989767E-001 
+1.50100000000E+010 -6.04728937149E-001 -4.65780884027E-001 -3.60643083695E-004 +5.42619236512E-005 +2.05104497581E-005 -2.15837098949E-005 -5.60410432518E-002 +3.48259776831E-001 
+1.52100000000E+010 -6.07521951199E-001 -4.64756488800E-001 -8.73425524333E-005 +3.57661978342E-004 +1.05856606751E-005 -1.72052768903E-005 -1.72145310789E-002 +3.63348096609E-001 
+1.54100000000E+010 -6.11180186272E-001 -4.62365090847E-001 +2.38925480517E-004 +1.99698828510E-004 -1.46852175931E-006 +1.37145116241E-005 +2.49790716916E-002 +3.73242318630E-001 
+1.56100000000E+010 -6.14909768105E-001 -4.58327621222E-001 +2.99928797176E-004 -1.66022276971E-004 +8.80841162143E-006 +2.30825535255E-005 +6.87284991145E-002 +3.77359122038E-001 
+1.58100000000E+010 -6.16214632988E-001 -4.57042485476E-001 -3.22070045513E-005 -3.11524054268E-004 +1.59697792697E-005 +1.63322038134E-005 +1.12296983600E-001 +3.77925485373E-001 
+1.60100000000E+010 -6.18537664413E-001 -4.55221861601E-001 -2.58858024608E-004 -8.68628849275E-005 -4.47129696113E-006 -1.07058724552E-006 +1.57317578793E-001 +3.73089075089E-001 
+1.62100000000E+010 -6.20788514614E-001 -4.53204602003E-001 -1.86037941603E-004 +2.35484578297E-004 +1.46427237269E-005 -5.03208821101E-006 +2.04588487744E-001 +3.62745702267E-001 
+1.64100000000E+010 -6.22764527798E-001 -4.51230138540E-001 +1.07035164547E-004 +2.40671914071E-004 -2.44730927079E-006 +2.69552056125E-005 +2.51282453537E-001 +3.46601545811E-001 
+1.66100000000E+010 -6.26280248165E-001 -4.49180275202E-001 +2.61865847278E-004 -3.22276828228E-005 -2.87908169412E-005 -2.63840047410E-005 +2.95022308826E-001 +3.22716683149E-001 
+1.68100000000E+010 -6.29444241524E-001 -4.46374654770E-001 +9.36835494940E-005 -2.18575238250E-004 +2.51098822446E-006 +2.77915623883E-005 +3.37820798159E-001 +2.95213669538E-001 
+1.70100000000E+010 -6.31268382072E-001 -4.43753987551E-001 -1.99317510123E-004 -1.83698910405E-004 -2.58592408500E-005 -1.88741450984E-005 +3.77748727798E-001 +2.63884425163E-001 
+1.72100000000E+010 -6.33566498756E-001 -4.41163510084E-001 -2.46406329097E-004 +9.29595480557E-005 -2.42799451371E-005 -1.83582251339E-005 +4.15021836758E-001 +2.25349888206E-001 
+1.74100000000E+010 -6.36428773403E-001 -4.38893318176E-001 -2.33027221839E-005 +2.23852461204E-004 -9.33181581786E-006 +3.90154818888E-005 +4.48192685843E-001 +1.82632654905E-001 
+1.76100000000E+010 -6.38940691948E-001 -4.36422675848E-001 +2.29355617194E-004 +5.05977659486E-005 -1.94582917175E-005 +1.82962776307E-005 +4.76043552160E-001 +1.36846318841E-001 
+1.78100000000E+010 -6.41781091690E-001 -4.33919638395E-001 +1.65254503372E-004 -1.52304128278E-004 +2.91998446755E-007 +7.73177598603E-005 +4.99621093273E-001 +8.80712419748E-002 
+1.80100000000E+010 -6.43991231918E-001 -4.31252568960E-001 -4.22772936872E-005 -1.92162813619E-004 +1.40177990033E-005 -2.74684953183E-005 +5.18596470356E-001 +3.69857214391E-002 
+1.82100000000E+010 -6.46510720253E-001 -4.29117619991E-001 -1.69850522070E-004 -5.57781859243E-005 -1.27970429276E-006 -2.93166453957E-006 +5.31548857689E-001 -1.74175240099E-002 
+1.84100000000E+010 -6.49106383324E-001 -4.27144497633E-001 -2.97547030641E-005 +2.49922653893E-004 +3.84240702260E-005 -3.66101085092E-005 +5.37843585014E-001 -7.45120719075E-002 
+1.86100000000E+010 -6.51994585991E-001 -4.24894183874E-001 +1.56067486387E-004 +1.42402393976E-004 +1.32341983772E-005 -2.96865928249E-005 +5.37549376488E-001 -1.31099641323E-001 
+1.88100000000E+010 -6.54242932796E-001 -4.22232329845E-001 +1.56643189257E-004 -1.16073942991E-005 +2.86680296995E-005 +4.08402956964E-005 +5.31596362591E-001 -1.87257528305E-001 
+1.90100000000E+010 -6.55756235123E-001 -4.20119941235E-001 +1.76070170710E-005 -1.66197947692E-004 -2.40134977503E-005 +1.25206925077E-005 +5.20104348660E-001 -2.43152454495E-001 
+1.92100000000E+010 -6.57952964306E-001 -4.18956786394E-001 -2.07176010008E-004 -1.32785862661E-004 -1.42894696182E-005 -1.74109682121E-005 +5.02208828926E-001 -3.00129204988E-001 
+1.94100000000E+010 -6.60440027714E-001 -4.16829347610E-001 -1.65536243003E-004 +1.27405597595E-004 +1.07577561721E-005 -1.67753150890E-005 +4.76746082306E-001 -3.54836791754E-001 
+1.96100000000E+010 -6.61259591579E-001 -4.14268285036E-001 +3.53319301212E-005 +9.05564156710E-005 -3.19868231600E-005 -8.81899632077E-006 +4.46034103632E-001 -4.06708925962E-001 
+1.98100000000E+010 -6.60529017448E-001 -4.11028623581E-001 +1.58242037287E-004 +7.36758811399E-005 +5.13271443197E-005 +4.94101404911E-005 +4.11111354828E-001 -4.53956484795E-001 
+2.00100000000E+010 -6.59281909466E-001 -4.10201519728E-001 +6.22749357717E-005 -1.17468545795E-004 +3.89011665902E-006 -2.74110770988E-005 +3.69435101748E-001 -5.00079929829E-001 
