!;Filter: kein Filter
!auto
!3/21/2019 9:25:24 AM
!3/21/2019 9:25:40 AM
!SP-Measurements Prober G4
!SP-Measurements Prober G4
!01103_448C
!134
!235
!12
!60
!-20
!0.00399976
!1.88
!0.54220246
!0.54220246
# Hz S  RI   R 50
+1.00000000000E+007 +1.98417946696E-001 +5.76541526243E-003 +5.34837357700E-002 -2.15128399432E-002 +6.27580389846E-004 -2.06489494303E-004 +5.10591454804E-003 +9.30802198127E-004 
+2.10000000000E+008 +2.16310724616E-001 -2.40882765502E-002 -2.21627159044E-003 -5.47583326697E-002 +9.95649825200E-005 -1.51220910993E-005 +8.75938311219E-003 -4.78273350745E-003 
+4.10000000000E+008 +2.17932283878E-001 -5.59460520744E-002 -5.14056533575E-002 -1.70726869255E-002 -8.71267329785E-005 -3.52382448909E-006 +1.00675029680E-002 -7.71167734638E-003 
+6.10000000000E+008 +2.15598285198E-001 -8.79327803850E-002 -3.37217599154E-002 +4.15596328676E-002 +1.08581261884E-005 +4.00256321882E-005 +9.62770264596E-003 -1.15427887067E-002 
+8.10000000000E+008 +2.09840774536E-001 -1.19283445179E-001 +2.65218783170E-002 +4.60309758782E-002 -1.01131299743E-005 -5.93500726609E-006 +7.18571571633E-003 -1.53940496966E-002 
+1.01000000000E+009 +2.02291175723E-001 -1.49538233876E-001 +5.33000305295E-002 -8.61281715333E-003 -9.90865919448E-006 +1.56547557708E-005 +2.77393194847E-003 -1.91380567849E-002 
+1.21000000000E+009 +1.92453145981E-001 -1.78543552756E-001 +1.06196561828E-002 -5.16438484192E-002 +2.58528853010E-005 -6.50916774703E-007 -1.81345990859E-003 -2.10279878229E-002 
+1.41000000000E+009 +1.81039795280E-001 -2.06645011902E-001 -4.47463542223E-002 -2.89176236838E-002 +1.52456068463E-005 -6.22755976565E-007 -7.56795750931E-003 -2.43186894804E-002 
+1.61000000000E+009 +1.69157475233E-001 -2.33969107270E-001 -4.28205765784E-002 +3.28949354589E-002 +8.54680001794E-006 +2.26744077736E-006 -1.35684143752E-002 -2.68141217530E-002 
+1.81000000000E+009 +1.54413655400E-001 -2.59748637676E-001 +1.46939679980E-002 +5.06476014853E-002 +6.36672211840E-006 +5.98593078394E-006 -1.78369525820E-002 -2.78208795935E-002 
+2.01000000000E+009 +1.39766231179E-001 -2.84253120422E-001 +5.32174818218E-002 +4.26083989441E-003 +5.48928483113E-006 -1.67009638972E-005 -2.30626873672E-002 -2.65336204320E-002 
+2.21000000000E+009 +1.23652748764E-001 -3.08164268732E-001 +2.15958729386E-002 -4.85591776669E-002 +2.59305420514E-006 +3.36763077939E-005 -2.86697540432E-002 -2.44681611657E-002 
+2.41000000000E+009 +1.05971597135E-001 -3.29561620951E-001 -3.63048799336E-002 -3.73560711741E-002 -1.79061007657E-005 +3.15679535561E-005 -3.53663787246E-002 -2.21474859864E-002 
+2.61000000000E+009 +8.82908999920E-002 -3.49740356207E-001 -4.86236959696E-002 +2.06907596439E-002 -3.20884137182E-005 -2.93260054605E-005 -4.06600274146E-002 -1.93665809929E-002 
+2.81000000000E+009 +6.97222054005E-002 -3.68698298931E-001 +2.79564689845E-003 +5.24432957172E-002 +1.07014170680E-006 +1.05049321064E-006 -4.46324758232E-002 -1.44773172215E-002 
+3.01000000000E+009 +5.07215447724E-002 -3.85668903589E-001 +4.91633415222E-002 +1.69354770333E-002 -3.36427110597E-005 -2.37547410507E-005 -4.84345480800E-002 -8.61266069114E-003 
+3.21000000000E+009 +3.19597497582E-002 -4.01729792356E-001 +3.43241058290E-002 -4.08539548516E-002 -1.34168676595E-005 -4.07914910738E-007 -5.22934570909E-002 -2.17024423182E-003 
+3.41000000000E+009 +1.30762215704E-002 -4.16646838188E-001 -2.65937354416E-002 -4.62101846933E-002 -3.86556394005E-006 +1.30610196720E-005 -5.52391670644E-002 +4.86685615033E-003 
+3.61000000000E+009 -5.97789138556E-003 -4.30107206106E-001 -5.27811273932E-002 +7.41927511990E-003 -1.43307818234E-006 -6.29821579423E-006 -5.70398382843E-002 +1.17121133953E-002 
+3.81000000000E+009 -2.49807871878E-002 -4.42524045706E-001 -1.21638970450E-002 +5.36903217435E-002 +1.90365135495E-005 -2.24913910642E-005 -5.68766966462E-002 +1.90955512226E-002 
+4.01000000000E+009 -4.36793193221E-002 -4.54123139381E-001 +4.67931255698E-002 +2.99997068942E-002 -5.06394371769E-006 +1.02469857666E-005 -5.57848811150E-002 +2.69018169492E-002 
+4.21000000000E+009 -6.24995678663E-002 -4.64323550463E-001 +4.53813709319E-002 -3.27888764441E-002 -1.57924587256E-005 -2.52556401392E-005 -5.38838468492E-002 +3.55464741588E-002 
+4.41000000000E+009 -8.08603689075E-002 -4.73664999008E-001 -1.56970936805E-002 -5.64605742693E-002 +8.46025432111E-006 +5.39495431440E-006 -5.07780723274E-002 +4.40807156265E-002 
+4.61000000000E+009 -9.91561189294E-002 -4.82199490070E-001 -5.95933161676E-002 -3.60520719551E-003 -4.00436583732E-005 -2.00679423870E-005 -4.65326309204E-002 +5.13896308839E-002 
+4.81000000000E+009 -1.17337837815E-001 -4.89715576172E-001 -2.49396171421E-002 +5.52649274468E-002 -7.41466510590E-006 +9.38431639952E-006 -3.99871617556E-002 +5.85581101477E-002 
+5.01000000000E+009 -1.34957104921E-001 -4.97189700603E-001 +4.68620620668E-002 +4.39177565277E-002 +1.66893169080E-005 +2.93409248115E-005 -3.33324074745E-002 +6.50854557753E-002 
+5.21000000000E+009 -1.52598023415E-001 -5.03783822060E-001 +5.68634420633E-002 -3.18157672882E-002 +3.09315473714E-005 +1.32594159368E-005 -2.58504077792E-002 +7.10334554315E-002 
+5.41000000000E+009 -1.69788181782E-001 -5.08997082710E-001 -1.10398139805E-002 -6.55410364270E-002 -1.57072245202E-005 -2.16311236727E-005 -1.70583296567E-002 +7.63916671276E-002 
+5.61000000000E+009 -1.87213391066E-001 -5.14295399189E-001 -6.93296343088E-002 -8.82661342621E-003 -6.94277423463E-006 -2.90268246772E-007 -7.48291704804E-003 +7.95030295849E-002 
+5.81000000000E+009 -2.04005092382E-001 -5.18233537674E-001 -2.77642924339E-002 +6.39985650778E-002 +2.34530762100E-005 -1.12547547815E-006 +3.17643093877E-003 +8.03315639496E-002 
+6.01000000000E+009 -2.20186293125E-001 -5.21252572536E-001 +5.26308715343E-002 +4.66343462467E-002 -2.68991043413E-005 +9.14718020795E-006 +1.41503894702E-002 +8.22978019714E-002 
+6.21000000000E+009 -2.36453950405E-001 -5.23770689964E-001 +5.95317855477E-002 -3.99294681847E-002 +1.33103103508E-005 -8.45306658448E-006 +2.47938260436E-002 +8.18863138556E-002 
+6.41000000000E+009 -2.51867175102E-001 -5.25404512882E-001 -2.17880234122E-002 -6.55228346586E-002 +1.69571558217E-005 +5.05889659053E-007 +3.63953970373E-002 +7.99905210733E-002 
+6.61000000000E+009 -2.67139256001E-001 -5.26681244373E-001 -6.71550855041E-002 +1.65906618349E-003 -5.73224610889E-007 +8.92160642252E-006 +4.76312115788E-002 +7.48513117433E-002 
+6.81000000000E+009 -2.82069891691E-001 -5.27299761772E-001 -1.45194074139E-002 +6.28882795572E-002 -3.13796117553E-005 -2.49492641160E-005 +5.82891218364E-002 +6.87572285533E-002 
+7.01000000000E+009 -2.95999020338E-001 -5.27468860149E-001 +5.19648790359E-002 +2.93687749654E-002 +2.78234733742E-006 -1.48718145283E-005 +6.80891275406E-002 +6.28255754709E-002 
+7.21000000000E+009 -3.09570968151E-001 -5.27234435081E-001 +4.08364385366E-002 -3.83933000267E-002 +3.35151048603E-006 -4.75883325635E-006 +7.73494914174E-002 +5.41384965181E-002 
+7.41000000000E+009 -3.22476863861E-001 -5.27048051357E-001 -2.31691338122E-002 -4.61474172771E-002 -2.50439316005E-005 +8.56975384522E-006 +8.65171477199E-002 +4.38641235232E-002 
+7.61000000000E+009 -3.34522366524E-001 -5.26305615902E-001 -4.66068722308E-002 +7.06068146974E-003 +2.35786901612E-005 -8.07617288956E-006 +9.28300321102E-002 +3.18483263254E-002 
+7.81000000000E+009 -3.46824109554E-001 -5.25070905685E-001 -7.13319843635E-003 +4.24165800214E-002 -1.97221124836E-005 -1.12492871267E-005 +9.81789752841E-002 +1.96943618357E-002 
+8.01000000000E+009 -3.58154445887E-001 -5.23877322674E-001 +3.38609255850E-002 +1.85826569796E-002 +1.50904897964E-005 -5.09814799443E-006 +1.01951710880E-001 +5.93020394444E-003 
+8.21000000000E+009 -3.69425743818E-001 -5.22478282452E-001 +2.68398243934E-002 -2.30688434094E-002 +5.04911031385E-006 +2.29174693231E-005 +1.04134954512E-001 -8.31010192633E-003 
+8.41000000000E+009 -3.80384832621E-001 -5.20628988743E-001 -1.13913416862E-002 -3.04366275668E-002 -8.27538860904E-006 -1.18319885587E-005 +1.03554293513E-001 -2.34856810421E-002 
+8.61000000000E+009 -3.91138672829E-001 -5.19038975239E-001 -2.99424789846E-002 +1.09708169475E-004 -3.48477879015E-005 +1.53709981987E-006 +1.00185379386E-001 -3.88863831758E-002 
+8.81000000000E+009 -4.01281654835E-001 -5.17331719398E-001 -9.54699981958E-003 +2.58105471730E-002 -9.31622082589E-007 -1.20922359201E-005 +9.49486419559E-002 -5.42959906161E-002 
+9.01000000000E+009 -4.11276936531E-001 -5.15316367149E-001 +1.89331546426E-002 +1.66123304516E-002 -4.68727012048E-006 +1.39881822179E-005 +8.83520767093E-002 -6.80665820837E-002 
+9.21000000000E+009 -4.21020388603E-001 -5.13279795647E-001 +2.07048654556E-002 -1.07551570982E-002 -7.20298430679E-006 +7.41142093830E-006 +7.84265622497E-002 -8.28192010522E-002 
+9.41000000000E+009 -4.30091649294E-001 -5.11296689510E-001 -2.45494325645E-003 -2.14068647474E-002 -2.55890995504E-006 +8.02220165497E-006 +6.59382939339E-002 -9.62645262480E-002 
+9.61000000000E+009 -4.39077705145E-001 -5.08962094784E-001 -1.90227031708E-002 -5.16130588949E-003 +4.15238218920E-006 +7.40783389119E-006 +5.07198944688E-002 -1.08428157866E-001 
+9.81000000000E+009 -4.47535991669E-001 -5.07337689400E-001 -1.11449370161E-002 +1.46749019623E-002 +6.91514242135E-006 -3.79064772460E-006 +3.54631319642E-002 -1.17785885930E-001 
+1.00100000000E+010 -4.56435918808E-001 -5.04904210567E-001 +8.96847620606E-003 +1.46421110258E-002 +3.32087211063E-007 +1.09916318252E-005 +1.86179913580E-002 -1.25420004129E-001 
+1.02100000000E+010 -4.64449495077E-001 -5.02067565918E-001 +1.55732678249E-002 -2.61240079999E-003 +2.98029021906E-006 +2.64509453700E-005 +4.84772084747E-004 -1.32278591394E-001 
+1.04100000000E+010 -4.72502350807E-001 -4.99861121178E-001 +3.29993921332E-003 -1.43638234586E-002 +9.60779743764E-006 +2.49425393122E-005 -1.99962537736E-002 -1.37636512518E-001 
+1.06100000000E+010 -4.80256080627E-001 -4.97333794832E-001 -1.13528594375E-002 -7.83251132816E-003 -7.27825181457E-006 +1.19328087749E-005 -4.17341701686E-002 -1.40058085322E-001 
+1.08100000000E+010 -4.87004965544E-001 -4.95651274920E-001 -1.07518685982E-002 +6.83945184574E-003 -1.45968606375E-005 +1.21826371924E-006 -6.35409280658E-002 -1.39489173889E-001 
+1.10100000000E+010 -4.94100540876E-001 -4.93275851011E-001 +2.11533671245E-003 +1.19218146428E-002 +3.62857244909E-005 -3.78869822271E-006 -8.53097215295E-002 -1.36034533381E-001 
+1.12100000000E+010 -5.00567376614E-001 -4.91744756699E-001 +1.11162187532E-002 +2.29403027333E-003 -1.25216138258E-006 +1.04479222500E-005 -1.09044276178E-001 -1.29804328084E-001 
+1.14100000000E+010 -5.07486402988E-001 -4.89395201206E-001 +5.98612334579E-003 -8.63823387772E-003 -1.53866167238E-005 -1.94765016204E-005 -1.32072865963E-001 -1.19833484292E-001 
+1.16100000000E+010 -5.12940168381E-001 -4.87405717373E-001 -5.37601718679E-003 -8.45125503838E-003 +1.80905260549E-006 -4.77150797451E-006 -1.54096841812E-001 -1.06298461556E-001 
+1.18100000000E+010 -5.18774449825E-001 -4.85212266445E-001 -9.22974757850E-003 +1.76991196349E-003 -4.84307793158E-006 -4.35662423115E-006 -1.73394694924E-001 -8.94024819136E-002 
+1.20100000000E+010 -5.24636685848E-001 -4.82763826847E-001 -1.91368756350E-003 +8.53407662362E-003 +1.06036077341E-006 -1.01939103843E-005 -1.90377131104E-001 -7.01384469867E-002 
+1.22100000000E+010 -5.30642986298E-001 -4.80024307966E-001 +6.86768116429E-003 +4.88542858511E-003 -2.45789287874E-005 -2.55877330346E-005 -2.07529067993E-001 -4.83492761850E-002 
+1.24100000000E+010 -5.36055326462E-001 -4.77691233158E-001 +6.61594001576E-003 -4.28722659126E-003 +1.96602122742E-005 +1.94735621335E-005 -2.22309425473E-001 -2.31754537672E-002 
+1.26100000000E+010 -5.41415393353E-001 -4.75197255611E-001 -1.19178416207E-003 -7.29304784909E-003 +1.09194979814E-005 +8.32031128084E-006 -2.32238352299E-001 +4.37959842384E-003 
+1.28100000000E+010 -5.46567261219E-001 -4.72518295050E-001 -6.91971229389E-003 -1.66815391276E-003 -8.46385955811E-006 +1.27474841065E-005 -2.38672479987E-001 +3.32195013762E-002 
+1.30100000000E+010 -5.51747739315E-001 -4.69244480133E-001 -3.87339550070E-003 +5.43045997620E-003 -8.01665737526E-006 +1.26630300201E-006 -2.42351993918E-001 +6.30925446749E-002 
+1.32100000000E+010 -5.56562364101E-001 -4.66402262449E-001 +3.17869870923E-003 +5.40931522846E-003 +1.19037113109E-005 -1.37915469622E-006 -2.42823332548E-001 +9.45232138038E-002 
+1.34100000000E+010 -5.61465799809E-001 -4.62781876326E-001 +6.01393124089E-003 -7.97189306468E-004 -1.14121376100E-005 +4.21470940637E-006 -2.39261060953E-001 +1.26402616501E-001 
+1.36100000000E+010 -5.64371466637E-001 -4.59815740585E-001 +1.40808161814E-003 -5.45663665980E-003 +3.04293439513E-006 -4.39181421825E-005 -2.31264278293E-001 +1.59133896232E-001 
+1.38100000000E+010 -5.69234192371E-001 -4.57507908344E-001 -4.19489759952E-003 -3.36337415501E-003 -4.23774781666E-006 +3.35778750014E-005 -2.18185409904E-001 +1.90909817815E-001 
+1.40100000000E+010 -5.74143707752E-001 -4.54836726189E-001 -4.52719675377E-003 +2.48587457463E-003 -2.53694543062E-006 +2.06245913432E-005 -2.01568469405E-001 +2.21716195345E-001 
+1.42100000000E+010 -5.78568160534E-001 -4.52320277691E-001 +5.61974884477E-004 +4.84207272530E-003 -1.02807107396E-005 +2.39712262555E-005 -1.81173667312E-001 +2.52894729376E-001 
+1.44100000000E+010 -5.83216607571E-001 -4.49075132608E-001 +4.38346061856E-003 +1.40281359199E-003 -1.66978588823E-005 -4.35461015513E-006 -1.55586525798E-001 +2.81398326159E-001 
+1.46100000000E+010 -5.86890757084E-001 -4.46376800537E-001 +2.91898101568E-003 -3.39224026538E-003 +6.05352852290E-006 -2.72160541499E-005 -1.24930039048E-001 +3.06789040565E-001 
+1.48100000000E+010 -5.90357780457E-001 -4.41249847412E-001 -1.93352426868E-003 -3.73224890791E-003 +8.35420087242E-006 -1.50465220941E-005 -9.19438973069E-002 +3.28727573156E-001 
+1.50100000000E+010 -5.91891169548E-001 -4.40632373095E-001 -3.98882059380E-003 +2.07304765354E-004 -2.27898781304E-005 -8.89002512849E-006 -5.63736297190E-002 +3.48006069660E-001 
+1.52100000000E+010 -5.94743430614E-001 -4.40181821585E-001 -1.31876731757E-003 +3.65441315807E-003 +7.77019613452E-006 +8.54389440974E-007 -1.76161527634E-002 +3.63079637289E-001 
+1.54100000000E+010 -5.98401069641E-001 -4.38374936581E-001 +2.69669806585E-003 +2.46469210833E-003 +5.15601095685E-006 -1.57522515565E-006 +2.45589353144E-002 +3.73057603836E-001 
+1.56100000000E+010 -6.02164208889E-001 -4.34991240501E-001 +3.22783505544E-003 -1.37971411459E-003 -1.90800406585E-007 -1.36908047352E-005 +6.82895630598E-002 +3.77219408751E-001 
+1.58100000000E+010 -6.03596806526E-001 -4.34265077114E-001 -1.44284413182E-005 -3.41800390743E-003 +2.24338018597E-005 -4.43301996711E-006 +1.11795790493E-001 +3.77869039774E-001 
+1.60100000000E+010 -6.06002807617E-001 -4.32924509048E-001 -2.98559502698E-003 -1.20840128511E-003 -1.97421995836E-005 +1.21329267131E-005 +1.56848832965E-001 +3.73093336821E-001 
+1.62100000000E+010 -6.08308374882E-001 -4.31388378143E-001 -2.24416912533E-003 +2.09779711440E-003 -2.07839866562E-006 -3.25173386955E-005 +2.04181939363E-001 +3.62832993269E-001 
+1.64100000000E+010 -6.10329866409E-001 -4.29847121239E-001 +1.03710626718E-003 +2.81077669933E-003 -1.34606334541E-005 +2.31794865613E-006 +2.50855922699E-001 +3.46702098846E-001 
+1.66100000000E+010 -6.13898158073E-001 -4.28263306618E-001 +2.82468437217E-003 +1.57817674335E-004 +1.65837191162E-005 -1.12635407277E-005 +2.94574975967E-001 +3.22891771793E-001 
+1.68100000000E+010 -6.17060661316E-001 -4.25950765610E-001 +1.22102873866E-003 -2.38434062339E-003 -1.43694414874E-005 +4.02568803111E-005 +3.37437659502E-001 +2.95563071966E-001 
+1.70100000000E+010 -6.19003951550E-001 -4.23842012882E-001 -1.72656844370E-003 -2.03631469049E-003 +1.99101918952E-006 -3.64536208508E-006 +3.77361953259E-001 +2.64223843813E-001 
+1.72100000000E+010 -6.21446192265E-001 -4.21671777964E-001 -2.38386075944E-003 +7.54589796998E-004 +7.08487232259E-006 +1.59228784469E-005 +4.14707809687E-001 +2.25774034858E-001 
+1.74100000000E+010 -6.24288439751E-001 -4.19861346483E-001 -3.15771350870E-004 +2.40454706363E-003 -1.20911718113E-005 +3.05481648866E-006 +4.47914928198E-001 +1.83099195361E-001 
+1.76100000000E+010 -6.26926958561E-001 -4.17739659548E-001 +2.05378676765E-003 +1.18525337894E-003 -4.23820929427E-005 -2.89564559353E-005 +4.75890606642E-001 +1.37282803655E-001 
+1.78100000000E+010 -6.29829168320E-001 -4.15710628033E-001 +1.74793449696E-003 -1.36311084498E-003 -2.74896083283E-005 +7.93346225691E-006 +4.99515920877E-001 +8.86644050479E-002 
+1.80100000000E+010 -6.32052481174E-001 -4.13476049900E-001 -5.21849200595E-004 -2.11821310222E-003 +7.43640157452E-007 +2.59262324107E-005 +5.18569648266E-001 +3.75252552330E-002 
+1.82100000000E+010 -6.34754955769E-001 -4.11723494530E-001 -2.05711415038E-003 -3.38919751812E-004 -1.45693666127E-005 +4.60488672616E-006 +5.31599402428E-001 -1.68062653393E-002 
+1.84100000000E+010 -6.37310266495E-001 -4.10275459290E-001 -1.09417270869E-003 +1.65317684878E-003 -3.35548866133E-005 +7.55245719120E-006 +5.37943482399E-001 -7.39410072565E-002 
+1.86100000000E+010 -6.40278100967E-001 -4.08328652382E-001 +1.07679271605E-003 +1.56854512170E-003 -9.47694843489E-006 -2.85854930553E-005 +5.37795722485E-001 -1.30510747433E-001 
+1.88100000000E+010 -6.42632305622E-001 -4.06019270420E-001 +1.84564373922E-003 -2.83340865280E-004 -1.98959205591E-005 +1.37035885928E-005 +5.31853556633E-001 -1.86655744910E-001 
+1.90100000000E+010 -6.44242346287E-001 -4.04258877039E-001 +3.84303421015E-004 -1.73142179847E-003 -9.27511564441E-007 -5.77051969231E-006 +5.20475208759E-001 -2.42642745376E-001 
+1.92100000000E+010 -6.46500706673E-001 -4.03331100941E-001 -1.35208596475E-003 -1.02660327684E-003 +1.45062294905E-005 -8.15643215901E-006 +5.02578139305E-001 -2.99599647522E-001 
+1.94100000000E+010 -6.49089217186E-001 -4.01590198278E-001 -1.43339007627E-003 +8.77921585925E-004 +2.35023671848E-005 +1.02862895801E-005 +4.77259695530E-001 -3.54443430901E-001 
+1.96100000000E+010 -6.49958908558E-001 -3.99398833513E-001 +2.12071550777E-004 +1.55567622278E-003 +7.47487547414E-006 -2.41476518568E-005 +4.46631371975E-001 -4.06416386366E-001 
+1.98100000000E+010 -6.49365723133E-001 -3.96580904722E-001 +1.45592249464E-003 +4.41826356109E-004 -1.50080231833E-005 +2.89771469397E-006 +4.11772727966E-001 -4.53580319881E-001 
+2.00100000000E+010 -6.48366153240E-001 -3.96016120911E-001 +9.57408687100E-004 -1.10080838203E-003 -1.87425630429E-005 +5.85303423577E-005 +3.70126456022E-001 -4.99933362007E-001 
