!;Filter: kein Filter
!auto
!3/21/2019 9:27:54 AM
!3/21/2019 9:28:10 AM
!SP-Measurements Prober G4
!SP-Measurements Prober G4
!01103_448C
!134
!237
!12
!60
!-20
!0.00599970
!2.02
!0.74959551
!0.74959551
# Hz S  RI   R 50
+1.00000000000E+007 +6.17529712617E-002 +4.11607883871E-003 +5.89124299586E-002 -2.37861666828E-002 +6.69044849928E-004 +3.92445181205E-005 +4.94277803227E-003 +9.22706734855E-004 
+2.10000000000E+008 +7.64570683241E-002 -1.80829670280E-002 -1.16161408368E-003 -6.15233108401E-002 +2.03047165996E-005 -4.14522255596E-005 +8.66303872317E-003 -4.83144773170E-003 
+4.10000000000E+008 +7.86685943604E-002 -4.22784164548E-002 -5.78888617456E-002 -2.09878664464E-002 -3.40315746143E-005 -2.43987960857E-005 +1.00231999531E-002 -7.73375714198E-003 
+6.10000000000E+008 +7.81391337514E-002 -6.73830509186E-002 -3.87097112834E-002 +4.58749271929E-002 +2.58849286183E-005 -1.24588568724E-005 +9.59928426892E-003 -1.15539878607E-002 
+8.10000000000E+008 +7.46098309755E-002 -9.25555005670E-002 +2.89370976388E-002 +5.34192584455E-002 -3.85009343518E-006 +1.11100089271E-005 +7.16560194269E-003 -1.54243372381E-002 
+1.01000000000E+009 +6.97646662593E-002 -1.16506531835E-001 +6.27951845527E-002 -9.46505926549E-003 -4.28438306699E-006 +7.52602545617E-006 +2.75077484548E-003 -1.91157069057E-002 
+1.21000000000E+009 +6.27825707197E-002 -1.40327796340E-001 +1.22755505145E-002 -5.85730150342E-002 +8.60581894813E-006 -9.65479830484E-006 -1.82863872033E-003 -2.09748372436E-002 
+1.41000000000E+009 +5.45540675521E-002 -1.63187444210E-001 -4.97248247266E-002 -3.38145680726E-002 +2.22627422772E-005 +6.27869439995E-006 -7.56348762661E-003 -2.42502558976E-002 
+1.61000000000E+009 +4.60935533047E-002 -1.85899779201E-001 -4.92102950811E-002 +3.70094366372E-002 +2.59944386016E-006 -3.04306122416E-005 -1.35844033211E-002 -2.67668440938E-002 
+1.81000000000E+009 +3.51353213191E-002 -2.06937223673E-001 +1.54107436538E-002 +5.70536218584E-002 +1.76158960130E-006 +7.99697136245E-006 -1.77883300930E-002 -2.77678370476E-002 
+2.01000000000E+009 +2.44776848704E-002 -2.27065622807E-001 +5.98819293082E-002 +7.29554053396E-003 +1.89977512832E-007 +3.89098886444E-006 -2.30492595583E-002 -2.64835208654E-002 
+2.21000000000E+009 +1.26624628901E-002 -2.47009664774E-001 +2.62637380511E-002 -5.47807328403E-002 -2.15054024011E-005 +1.20393360703E-005 -2.86671854556E-002 -2.44144834578E-002 
+2.41000000000E+009 -4.12532011978E-004 -2.64996290207E-001 -3.96969243884E-002 -4.39106561244E-002 +1.38205241456E-005 +1.59994633577E-005 -3.53201553226E-002 -2.21018586308E-002 
+2.61000000000E+009 -1.32905449718E-002 -2.82241076231E-001 -5.70318289101E-002 +2.12409831583E-002 +1.58405546244E-005 -1.31697570396E-005 -4.05944176018E-002 -1.92925184965E-002 
+2.81000000000E+009 -2.71710455418E-002 -2.98848122358E-001 +1.70084985439E-003 +6.06163404882E-002 -1.56334026542E-005 +4.79965710838E-005 -4.46043089032E-002 -1.44478315488E-002 
+3.01000000000E+009 -4.14507873356E-002 -3.13732206821E-001 +5.60145266354E-002 +2.14698743075E-002 +9.61125078902E-006 +1.64924551882E-006 -4.83437590301E-002 -8.58736410737E-003 
+3.21000000000E+009 -5.54887093604E-002 -3.28100025654E-001 +4.18230593204E-002 -4.63154837489E-002 +7.60050625104E-006 +2.76971040876E-005 -5.22314682603E-002 -2.18507857062E-003 
+3.41000000000E+009 -7.00714364648E-002 -3.41858059168E-001 -3.01171168685E-002 -5.38631379604E-002 -1.31099732243E-005 +6.20643368165E-006 -5.51590174437E-002 +4.87344665453E-003 
+3.61000000000E+009 -8.46469998360E-002 -3.54321062565E-001 -6.13495931029E-002 +7.19770090654E-003 +2.30635814660E-005 +2.02829542104E-005 -5.69929331541E-002 +1.16748772562E-002 
+3.81000000000E+009 -9.93361845613E-002 -3.66077542305E-001 -1.48755759001E-002 +6.30998313427E-002 -4.75839806313E-006 -2.42796832026E-005 -5.67846223712E-002 +1.90420169383E-002 
+4.01000000000E+009 -1.14290311933E-001 -3.77202570438E-001 +5.31291365623E-002 +3.38211916387E-002 -1.25795959320E-005 -9.90445460047E-006 -5.57354912162E-002 +2.68612131476E-002 
+4.21000000000E+009 -1.28950089216E-001 -3.87038737535E-001 +5.25715835392E-002 -3.70697230101E-002 +4.07863517466E-005 +1.52523407451E-005 -5.37942610681E-002 +3.54999192059E-002 
+4.41000000000E+009 -1.43612697721E-001 -3.96464437246E-001 -1.89840551466E-002 -6.41698762774E-002 -3.08353955916E-005 +2.71294302365E-005 -5.06987906992E-002 +4.40127402544E-002 
+4.61000000000E+009 -1.58410519361E-001 -4.04753923416E-001 -6.51750937104E-002 -4.30765980855E-003 -1.37318884299E-005 -3.29088652506E-005 -4.64457422495E-002 +5.13169355690E-002 
+4.81000000000E+009 -1.72803640366E-001 -4.12605643272E-001 -2.89359483868E-002 +6.12403266132E-002 +6.15141698290E-006 -1.35318223329E-005 -3.98866049945E-002 +5.84339722991E-002 
+5.01000000000E+009 -1.87204077840E-001 -4.20430421829E-001 +5.11669889092E-002 +4.82312627137E-002 +3.64879924746E-005 +6.77868285948E-007 -3.33089083433E-002 +6.50036484003E-002 
+5.21000000000E+009 -2.01421886683E-001 -4.27289396524E-001 +6.22098855674E-002 -3.13325524330E-002 -2.00734230020E-005 +6.14017096723E-007 -2.57787778974E-002 +7.09195509553E-002 
+5.41000000000E+009 -2.15322062373E-001 -4.33294624090E-001 -8.72746948153E-003 -7.26043581963E-002 +3.07513655571E-005 +1.49547468027E-005 -1.70571450144E-002 +7.62764737010E-002 
+5.61000000000E+009 -2.29816228151E-001 -4.39215123653E-001 -7.41614177823E-002 -1.25493584201E-002 -1.95445845748E-005 -2.97323640552E-006 -7.50095816329E-003 +7.93950706720E-002 
+5.81000000000E+009 -2.43473410606E-001 -4.43901360035E-001 -3.57733517885E-002 +6.52981996536E-002 +1.69396098499E-005 -1.70442272065E-005 +3.09669482522E-003 +8.01815316081E-002 
+6.01000000000E+009 -2.56789177656E-001 -4.48073327541E-001 +5.36316223443E-002 +5.64345195889E-002 +3.67550928786E-005 +1.29647905851E-005 +1.40335010365E-002 +8.21551308036E-002 
+6.21000000000E+009 -2.70446389914E-001 -4.51579064131E-001 +6.80636912584E-002 -3.73182743788E-002 +7.12924202162E-006 +1.13390808565E-006 +2.47102342546E-002 +8.17674919963E-002 
+6.41000000000E+009 -2.83115774393E-001 -4.54439580441E-001 -1.35141965002E-002 -7.44452700019E-002 +2.02839464691E-006 -1.03629336081E-005 +3.63111756742E-002 +7.98952355981E-002 
+6.61000000000E+009 -2.96205610037E-001 -4.57168757915E-001 -7.63180777431E-002 -7.20863975585E-003 -3.34057949658E-005 +1.70428684214E-005 +4.75122481585E-002 +7.47281536460E-002 
+6.81000000000E+009 -3.08925002813E-001 -4.59020584822E-001 -2.49533355236E-002 +6.77349269390E-002 -6.21425124336E-006 -3.09857023240E-005 +5.82068003714E-002 +6.86909407377E-002 
+7.01000000000E+009 -3.20778012276E-001 -4.60665971041E-001 +5.40124885738E-002 +4.36020754278E-002 +1.24929611047E-005 +7.28541226636E-006 +6.79385215044E-002 +6.27623945475E-002 
+7.21000000000E+009 -3.32634598017E-001 -4.61747169495E-001 +5.41986003518E-002 -3.95568013191E-002 -2.12465965888E-006 -2.51245292020E-005 +7.72053226829E-002 +5.40394335985E-002 
+7.41000000000E+009 -3.43733072281E-001 -4.62798804045E-001 -2.01480686665E-002 -5.71353025734E-002 -2.26600714086E-005 -1.35404998218E-005 +8.63633826375E-002 +4.38238829374E-002 
+7.61000000000E+009 -3.54147553444E-001 -4.63455319405E-001 -5.70764243603E-002 +3.60986072337E-004 +1.07797068267E-005 -1.82589647011E-005 +9.26742181182E-002 +3.18143442273E-002 
+7.81000000000E+009 -3.64994674921E-001 -4.63427066803E-001 -1.43495202065E-002 +5.11719696224E-002 -2.92745335173E-006 -2.96605121548E-005 +9.80304256082E-002 +1.96974202991E-002 
+8.01000000000E+009 -3.74832421541E-001 -4.63514626026E-001 +3.87229882181E-002 +2.69959103316E-002 -3.25256360156E-006 +8.97832160263E-006 +1.01816743612E-001 +5.92936389148E-003 
+8.21000000000E+009 -3.84761124849E-001 -4.63458210230E-001 +3.62570919096E-002 -2.67003942281E-002 +2.28653570957E-005 +8.99949372979E-006 +1.03949867189E-001 -8.25066491961E-003 
+8.41000000000E+009 -3.94302964211E-001 -4.62835431099E-001 -1.19339218363E-002 -3.78809794784E-002 -1.17030249385E-005 -1.80258866749E-005 +1.03362746537E-001 -2.34259478748E-002 
+8.61000000000E+009 -4.03744906187E-001 -4.62587177753E-001 -3.52626182139E-002 -2.85250484012E-003 +1.02668127511E-006 -1.24167636386E-005 +1.00055024028E-001 -3.87615375221E-002 
+8.81000000000E+009 -4.12840455770E-001 -4.62206363678E-001 -1.43757602200E-002 +3.05546000600E-002 +2.65458165813E-005 +1.82546027645E-005 +9.47981700301E-002 -5.41655272245E-002 
+9.01000000000E+009 -4.21710103750E-001 -4.61395949125E-001 +2.16387957335E-002 +2.13995352387E-002 +8.28271211617E-008 +2.19066732825E-005 +8.82535427809E-002 -6.79421946406E-002 
+9.21000000000E+009 -4.30390298367E-001 -4.60692554712E-001 +2.57475450635E-002 -1.06763737276E-002 +2.77041654044E-005 +3.41026338901E-006 +7.83292278647E-002 -8.26762765646E-002 
+9.41000000000E+009 -4.38554883003E-001 -4.60029095411E-001 -1.00701896008E-003 -2.64723692089E-002 +2.06963577511E-005 -5.62085779165E-006 +6.58605173230E-002 -9.60700064898E-002 
+9.61000000000E+009 -4.46682304144E-001 -4.58858460188E-001 -2.25456189364E-002 -7.57243158296E-003 -2.96833968605E-005 +2.70937543974E-005 +5.07019348443E-002 -1.08245797455E-001 
+9.81000000000E+009 -4.54361617565E-001 -4.58579719067E-001 -1.47940469906E-002 +1.64082068950E-002 -6.19125376033E-006 -1.76384000952E-005 +3.54475714266E-002 -1.17536507547E-001 
+1.00100000000E+010 -4.62440848351E-001 -4.57270801067E-001 +9.67339333147E-003 +1.86592638493E-002 +7.76141132519E-006 +2.52949189417E-006 +1.86266824603E-002 -1.25192195177E-001 
+1.02100000000E+010 -4.69823151827E-001 -4.55680936575E-001 +1.88531391323E-002 -1.86222686898E-003 -1.29039362946E-005 -1.16033534141E-005 +5.64067973755E-004 -1.32075831294E-001 
+1.04100000000E+010 -4.77200865746E-001 -4.54583466053E-001 +5.49634965137E-003 -1.70022416860E-002 -1.41854843605E-005 +9.10952076083E-006 -1.99255589396E-002 -1.37398406863E-001 
+1.06100000000E+010 -4.84395563602E-001 -4.53247874975E-001 -1.32582345977E-002 -1.05585949495E-002 -1.71493823586E-007 +1.45873264046E-005 -4.16159592569E-002 -1.39872610569E-001 
+1.08100000000E+010 -4.90578353405E-001 -4.52642202377E-001 -1.34201310575E-002 +7.44304247200E-003 -1.07967684926E-006 -1.16651144708E-005 -6.33850172162E-002 -1.39277935028E-001 
+1.10100000000E+010 -4.97184455395E-001 -4.51347827911E-001 +1.32968102116E-003 +1.45923560485E-002 +8.67588369147E-006 -1.08285871647E-006 -8.51478725672E-002 -1.35857746005E-001 
+1.12100000000E+010 -5.03208637238E-001 -4.50892031193E-001 +1.33592095226E-002 +3.70504125021E-003 -1.05179979073E-005 +3.92863194065E-006 -1.08867369592E-001 -1.29655778408E-001 
+1.14100000000E+010 -5.09646296501E-001 -4.49596643448E-001 +7.89410900325E-003 -9.83938015997E-003 +3.19254468195E-006 +1.28498422782E-005 -1.31824925542E-001 -1.19663245976E-001 
+1.16100000000E+010 -5.14702558517E-001 -4.48600739241E-001 -5.61351981014E-003 -1.07886353508E-002 -1.80741772056E-005 +8.57465056470E-006 -1.53871908784E-001 -1.06210634112E-001 
+1.18100000000E+010 -5.20223438740E-001 -4.47404205799E-001 -1.13655654714E-002 +1.33204541635E-003 -1.16843111755E-005 +1.76235480467E-005 -1.73166811466E-001 -8.93567278981E-002 
+1.20100000000E+010 -5.25739908218E-001 -4.45848912001E-001 -3.11569334008E-003 +1.00777242333E-002 -9.62306785368E-006 -7.34080529696E-008 -1.90089941025E-001 -7.01002925634E-002 
+1.22100000000E+010 -5.31379461288E-001 -4.44063663483E-001 +7.76934018359E-003 +6.69011799619E-003 +6.46774083179E-007 +1.93495488929E-005 -2.07251399755E-001 -4.83924187720E-002 
+1.24100000000E+010 -5.36511600018E-001 -4.42663997412E-001 +8.48359894007E-003 -4.54511260614E-003 +2.76027844848E-006 +1.16846422316E-006 -2.21978887916E-001 -2.32405234128E-002 
+1.26100000000E+010 -5.41612923145E-001 -4.41121578217E-001 -6.38835772406E-004 -8.95264837891E-003 +4.85999635202E-006 +1.13832030024E-007 -2.31959298253E-001 +4.28760005161E-003 
+1.28100000000E+010 -5.46593964100E-001 -4.39395368099E-001 -8.22986941785E-003 -2.87816580385E-003 -1.51834465214E-005 +4.88587693326E-006 -2.38401964307E-001 +3.31020280719E-002 
+1.30100000000E+010 -5.51576077938E-001 -4.36993539333E-001 -5.38212805986E-003 +6.25134678558E-003 -1.59738519869E-005 -2.09225599974E-005 -2.42084711790E-001 +6.29372224212E-002 
+1.32100000000E+010 -5.56248903275E-001 -4.34973567724E-001 +3.23751592077E-003 +7.00684264302E-003 +9.49656453031E-007 +3.25245746353E-005 -2.42611572146E-001 +9.43492576480E-002 
+1.34100000000E+010 -5.61007976532E-001 -4.32232558727E-001 +7.56561802700E-003 -2.99331266433E-004 -1.17536910693E-005 -1.70557257206E-006 -2.39069342613E-001 +1.26123324037E-001 
+1.36100000000E+010 -5.63793003559E-001 -4.30083841085E-001 +2.34125275165E-003 -6.70857215300E-003 +4.13239140471E-005 -2.10182151932E-005 -2.31082782149E-001 +1.58831357956E-001 
+1.38100000000E+010 -5.68604588509E-001 -4.28627431393E-001 -4.85108466819E-003 -4.61267121136E-003 +5.15433066539E-006 +4.42854070570E-006 -2.18056723475E-001 +1.90586924553E-001 
+1.40100000000E+010 -5.73349118233E-001 -4.26621347666E-001 -6.03597145528E-003 +2.60988599621E-003 +1.19230680866E-005 +4.28287785326E-006 -2.01480910182E-001 +2.21404090524E-001 
+1.42100000000E+010 -5.77771723270E-001 -4.24816399813E-001 +2.20608446398E-004 +6.15947134793E-003 +3.98091879106E-006 +4.74443140774E-006 -1.81072026491E-001 +2.52507597208E-001 
+1.44100000000E+010 -5.82387447357E-001 -4.22350853682E-001 +5.37272403017E-003 +2.20502167940E-003 -1.08406702566E-005 -4.75622618978E-006 -1.55581131577E-001 +2.81037896872E-001 
+1.46100000000E+010 -5.85956692696E-001 -4.20335799456E-001 +4.06085047871E-003 -4.03072079644E-003 -2.13409366552E-005 -3.43714668816E-006 -1.24980218709E-001 +3.06425005198E-001 
+1.48100000000E+010 -5.89512407780E-001 -4.16160762310E-001 -2.12046573870E-003 -4.91291144863E-003 +9.70851942839E-006 +1.29100699269E-005 -9.20716151595E-002 +3.28392475843E-001 
+1.50100000000E+010 -5.91214478016E-001 -4.16076123714E-001 -5.06936386228E-003 -1.05853163404E-004 -3.65863743355E-005 -9.92350669549E-006 -5.65082952380E-002 +3.47650557756E-001 
+1.52100000000E+010 -5.94161391258E-001 -4.16224032640E-001 -2.00817687437E-003 +4.53077629209E-003 -1.60376985150E-005 -1.08646390800E-005 -1.77987143397E-002 +3.62718939781E-001 
+1.54100000000E+010 -5.97860991955E-001 -4.14994329214E-001 +3.24081978761E-003 +3.33113805391E-003 +2.91471169476E-005 +9.48333763517E-006 +2.42972709239E-002 +3.72801542282E-001 
+1.56100000000E+010 -6.01750373840E-001 -4.12224382162E-001 +4.18390054256E-003 -1.44222716335E-003 -2.94139754260E-005 -1.83393558473E-006 +6.80059492588E-002 +3.76962095499E-001 
+1.58100000000E+010 -6.03247821331E-001 -4.11912798882E-001 +2.41075758822E-004 -4.33752126992E-003 -8.97869449545E-006 -5.22179152540E-006 +1.11502997577E-001 +3.77628266811E-001 
+1.60100000000E+010 -6.05618178844E-001 -4.11048650742E-001 -3.68526391685E-003 -1.72540755011E-003 +7.34954619475E-006 +1.65667588590E-005 +1.56483501196E-001 +3.72920542955E-001 
+1.62100000000E+010 -6.07971668243E-001 -4.10089343786E-001 -2.96934996732E-003 +2.49669002369E-003 -2.01027287403E-005 -2.43655322265E-005 +2.03731268644E-001 +3.62722992897E-001 
+1.64100000000E+010 -6.10101163387E-001 -4.09077078104E-001 +1.14455423318E-003 +3.66582814604E-003 -5.33414231541E-006 -7.18023193258E-006 +2.50417113304E-001 +3.46682697535E-001 
+1.66100000000E+010 -6.13653004169E-001 -4.07801926136E-001 +3.53860179894E-003 +2.75650760159E-004 -1.19287315101E-005 -3.07171030727E-005 +2.94128596783E-001 +3.22909802198E-001 
+1.68100000000E+010 -6.16860151291E-001 -4.05946046114E-001 +1.72810116783E-003 -2.95772962272E-003 +5.83833161727E-006 +1.64533103089E-005 +3.37016731501E-001 +2.95556813478E-001 
+1.70100000000E+010 -6.18902623653E-001 -4.04319077730E-001 -2.08407314494E-003 -2.69388104789E-003 +1.84938271559E-005 +1.95622651518E-005 +3.76910060644E-001 +2.64302849770E-001 
+1.72100000000E+010 -6.21323347092E-001 -4.02574479580E-001 -3.05407913402E-003 +8.48549825605E-004 -7.06053833710E-006 +3.05938556266E-005 +4.14315879345E-001 +2.25940868258E-001 
+1.74100000000E+010 -6.24281108379E-001 -4.01121437550E-001 -4.95323794894E-004 +3.00207873806E-003 -6.21507570031E-006 -2.49664317380E-005 +4.47575300932E-001 +1.83261558414E-001 
+1.76100000000E+010 -6.26938641071E-001 -3.99365872145E-001 +2.53911945038E-003 +1.57353794202E-003 -3.94513790525E-006 +1.41576156238E-005 +4.75495874882E-001 +1.37545675039E-001 
+1.78100000000E+010 -6.29744350910E-001 -3.97720515728E-001 +2.27256771177E-003 -1.59225554671E-003 -5.77568653171E-006 +6.31620696367E-006 +4.99157249928E-001 +8.89914780855E-002 
+1.80100000000E+010 -6.32187902927E-001 -3.95891159773E-001 -4.76835295558E-004 -2.68142553978E-003 +4.60936598756E-006 +2.08165220101E-005 +5.18319189548E-001 +3.79591099918E-002 
+1.82100000000E+010 -6.34870767593E-001 -3.94540160894E-001 -2.55924439989E-003 -5.28047210537E-004 +5.86009036851E-006 +3.70130401279E-005 +5.31366646290E-001 -1.63830518723E-002 
+1.84100000000E+010 -6.37520849705E-001 -3.93430948257E-001 -1.39283982571E-003 +2.00825976208E-003 +3.88496082451E-005 -1.81470659300E-005 +5.37805199623E-001 -7.34939128160E-002 
+1.86100000000E+010 -6.40546739101E-001 -3.91836643219E-001 +1.21264567133E-003 +2.09318171255E-003 -2.01387665584E-005 +9.15275848001E-007 +5.37651598454E-001 -1.30082860589E-001 
+1.88100000000E+010 -6.42934679985E-001 -3.89865636826E-001 +2.29754811153E-003 -3.20625782479E-004 +7.66395532992E-006 -2.86207323370E-005 +5.31833708286E-001 -1.86196878552E-001 
+1.90100000000E+010 -6.44573092461E-001 -3.88519734144E-001 +6.25451444648E-004 -2.13478133082E-003 +1.34042229547E-005 -2.52266909229E-005 +5.20480751991E-001 -2.42157697678E-001 
+1.92100000000E+010 -6.46873593330E-001 -3.87934982777E-001 -1.66859675664E-003 -1.42392143607E-003 +6.08212803854E-006 -1.48687877299E-005 +5.02665221691E-001 -2.99172639847E-001 
+1.94100000000E+010 -6.49656355381E-001 -3.86448383331E-001 -1.84965447988E-003 +9.55648254603E-004 -1.33780786200E-005 -2.88166047540E-005 +4.77394849062E-001 -3.54002118111E-001 
+1.96100000000E+010 -6.50663435459E-001 -3.84470552206E-001 +1.64625511388E-004 +1.95145781618E-003 +3.05498178932E-005 -1.86837569345E-005 +4.46808099747E-001 -4.05930608511E-001 
+1.98100000000E+010 -6.49992287159E-001 -3.81689399481E-001 +1.81912374683E-003 +6.79312390275E-004 +2.20588408411E-005 +3.05262983602E-005 +4.11985158920E-001 -4.53229695559E-001 
+2.00100000000E+010 -6.48638248444E-001 -3.81687015295E-001 +1.23176921625E-003 -1.32845377084E-003 -3.49058973370E-006 -1.25486749312E-005 +3.70364189148E-001 -4.99537199736E-001 
