!;Filter: kein Filter
!auto
!3/21/2019 9:27:07 AM
!3/21/2019 9:27:22 AM
!SP-Measurements Prober G4
!SP-Measurements Prober G4
!01103_448C
!134
!235
!12
!60
!-20
!0.00299959
!1.83
!0.38139174
!0.38139174
# Hz S  RI   R 50
+1.00000000000E+007 +2.42914468050E-001 +6.98535144329E-003 +5.36495484412E-002 -2.09244452417E-002 -2.81676184386E-004 -7.13417713996E-004 +5.54428994656E-003 +1.14027061500E-003 
+2.10000000000E+008 +2.60389745235E-001 -2.83341314644E-002 -2.29402468540E-003 -5.56788668036E-002 -5.06369797222E-005 -2.58556756307E-005 +8.71132966131E-003 -4.80961799622E-003 
+4.10000000000E+008 +2.60415017605E-001 -6.30219578743E-002 -5.20519316196E-002 -1.76055338234E-002 -3.10783543682E-005 +2.28131793847E-005 +1.00655732676E-002 -7.79176922515E-003 
+6.10000000000E+008 +2.56219416857E-001 -9.68549996614E-002 -3.46717536449E-002 +4.23249974847E-002 -6.44502579235E-005 +1.60776326084E-005 +9.61423292756E-003 -1.15012032911E-002 
+8.10000000000E+008 +2.49361798167E-001 -1.29996448755E-001 +2.72492542863E-002 +4.75225411355E-002 -2.82300607068E-005 +5.65638993066E-006 +7.18748103827E-003 -1.54283605516E-002 
+1.01000000000E+009 +2.40723356605E-001 -1.61537587643E-001 +5.49634397030E-002 -8.79468582571E-003 +8.87722308107E-006 -4.48601167591E-005 +2.78012524359E-003 -1.91516242921E-002 
+1.21000000000E+009 +2.30509459972E-001 -1.92607626319E-001 +1.01737994701E-002 -5.46673238277E-002 +3.07409550260E-006 -1.91643248399E-005 -1.79315963760E-003 -2.10028495640E-002 
+1.41000000000E+009 +2.17943787575E-001 -2.23130628467E-001 -4.79113496840E-002 -2.81691495329E-002 -1.13183114081E-005 +1.02758294815E-005 -7.58047681302E-003 -2.43301317096E-002 
+1.61000000000E+009 +2.04357504845E-001 -2.52209931612E-001 -4.29948456585E-002 +3.56699861586E-002 +1.76395624294E-005 +3.61030311069E-006 -1.35509446263E-002 -2.67853345722E-002 
+1.81000000000E+009 +1.88014701009E-001 -2.80212640762E-001 +1.85559857637E-002 +5.12017272413E-002 +1.44983214341E-005 +3.99349028157E-006 -1.78123433143E-002 -2.78603006154E-002 
+2.01000000000E+009 +1.70800134540E-001 -3.06108087301E-001 +5.35717308521E-002 +9.71833651420E-004 +4.69610631626E-006 +1.95519237423E-006 -2.31012441218E-002 -2.65407972038E-002 
+2.21000000000E+009 +1.52635559440E-001 -3.30378264189E-001 +2.02251449227E-002 -4.96991053224E-002 -1.03112915895E-005 -1.95895227080E-005 -2.86872908473E-002 -2.44859848171E-002 
+2.41000000000E+009 +1.33126169443E-001 -3.52711290121E-001 -3.84547039866E-002 -3.60952094197E-002 +8.08599054380E-007 +2.00172053155E-005 -3.53772900999E-002 -2.21637785435E-002 
+2.61000000000E+009 +1.13556586206E-001 -3.73236626387E-001 -4.79172654450E-002 +2.23308019340E-002 +6.61743524688E-006 +1.11211447802E-005 -4.06600683928E-002 -1.93227026612E-002 
+2.81000000000E+009 +9.37356352806E-002 -3.92295062542E-001 +3.63840768114E-003 +5.39861731231E-002 -8.54008430906E-006 +8.66543268785E-006 -4.46568876505E-002 -1.44861703739E-002 
+3.01000000000E+009 +7.31582045555E-002 -4.09846514463E-001 +5.14842048287E-002 +1.58216711134E-002 -3.13568416459E-005 +6.22478864898E-007 -4.84251342714E-002 -8.61812103540E-003 
+3.21000000000E+009 +5.28165362775E-002 -4.25940543413E-001 +3.43485064805E-002 -4.28242310882E-002 +2.67252326012E-005 +1.37771098707E-006 -5.23355044425E-002 -2.22800020128E-003 
+3.41000000000E+009 +3.28856334090E-002 -4.40978884697E-001 -2.93352063745E-002 -4.91580106318E-002 +8.42480949359E-006 +1.02801441244E-005 -5.52704446018E-002 +4.83455741778E-003 
+3.61000000000E+009 +1.24138668180E-002 -4.54778462648E-001 -5.64755611122E-002 +1.03186713532E-002 +1.85268181667E-005 -2.14442006836E-005 -5.71101866663E-002 +1.17145683616E-002 
+3.81000000000E+009 -7.92114809155E-003 -4.67054486275E-001 -1.12910764292E-002 +5.83935938776E-002 +1.01242740413E-007 -1.45009043990E-005 -5.68992607296E-002 +1.90943144262E-002 
+4.01000000000E+009 -2.74950005114E-002 -4.78935927153E-001 +5.48035725951E-002 +3.16756740212E-002 -1.14849608508E-005 -6.48052400720E-006 -5.58673143387E-002 +2.69234254956E-002 
+4.21000000000E+009 -4.77880537510E-002 -4.89313364029E-001 +4.83659170568E-002 -4.13928404450E-002 -7.94785773905E-006 -2.28456920013E-005 -5.39096780121E-002 +3.55855338275E-002 
+4.41000000000E+009 -6.73262774944E-002 -4.98618841171E-001 -2.30357926339E-002 -6.29651844501E-002 +2.02607157007E-006 +1.07117739390E-005 -5.08472546935E-002 +4.40761446953E-002 
+4.61000000000E+009 -8.65967348218E-002 -5.07619023323E-001 -7.20502957702E-002 +4.37722727656E-003 +4.51399000667E-006 +1.70176772372E-005 -4.65444736183E-002 +5.14263398945E-002 
+4.81000000000E+009 -1.06457814574E-001 -5.15053391457E-001 -1.80068518966E-002 +6.97536692023E-002 -2.39512555709E-005 +3.90856484955E-006 -3.99596840143E-002 +5.85766807199E-002 
+5.01000000000E+009 -1.25245481730E-001 -5.22329330444E-001 +6.43378496170E-002 +4.16977591813E-002 +1.76404300873E-005 -2.34202925640E-005 -3.33399064839E-002 +6.51307404041E-002 
+5.21000000000E+009 -1.44476577640E-001 -5.29318630695E-001 +5.83241805434E-002 -5.66369481385E-002 -1.22217599596E-007 +1.37767146953E-005 -2.58427858353E-002 +7.10745155811E-002 
+5.41000000000E+009 -1.63455113769E-001 -5.33762335777E-001 -3.64978313446E-002 -6.94207325578E-002 -1.12239731607E-005 +2.98582417599E-005 -1.70618817210E-002 +7.64210373163E-002 
+5.61000000000E+009 -1.82178273797E-001 -5.38468778133E-001 -8.02166014910E-002 +1.70349664986E-002 -1.28129586301E-005 -2.28065164265E-005 -7.48392706737E-003 +7.95392766595E-002 
+5.81000000000E+009 -2.00860336423E-001 -5.41528820992E-001 +2.28838087060E-003 +8.03737863898E-002 +2.92748463835E-005 -2.20564816118E-005 +3.14400065690E-003 +8.04006606340E-002 
+6.01000000000E+009 -2.17884942889E-001 -5.42984843254E-001 +7.08054304123E-002 +1.95276532322E-002 +7.51039897295E-006 +1.64929424500E-005 +1.41420355067E-002 +8.23367685080E-002 
+6.21000000000E+009 -2.34811112285E-001 -5.44457137585E-001 +3.68960984051E-002 -6.34108483791E-002 +3.05546709569E-005 +3.23256290358E-006 +2.48381160200E-002 +8.19227993488E-002 
+6.41000000000E+009 -2.50723332167E-001 -5.44660508633E-001 -4.87067028880E-002 -4.38992865384E-002 +5.50579170522E-006 -1.00543184089E-006 +3.64397168159E-002 +8.00161138177E-002 
+6.61000000000E+009 -2.65808671713E-001 -5.45011401176E-001 -5.14512918890E-002 +2.75974813849E-002 -7.02934130459E-006 +2.63509832621E-006 +4.76452335715E-002 +7.48807489872E-002 
+6.81000000000E+009 -2.80773073435E-001 -5.44974982738E-001 +1.20684346184E-002 +5.44981062412E-002 -1.63603417604E-005 +2.55660012272E-007 +5.83539679646E-002 +6.88143372536E-002 
+7.01000000000E+009 -2.94699162245E-001 -5.44511616230E-001 +4.79064360261E-002 +2.82486202195E-003 +3.03488855025E-006 +2.35483730648E-005 +6.81352540851E-002 +6.28731027246E-002 
+7.21000000000E+009 -3.08246493340E-001 -5.44043600559E-001 +1.81702394038E-002 -3.89097705483E-002 -1.90878722606E-006 +3.39532493854E-006 +7.74063691497E-002 +5.41436485946E-002 
+7.41000000000E+009 -3.21360230446E-001 -5.43541610241E-001 -2.97065488994E-002 -2.71696373820E-002 -8.03442799224E-006 -1.86793010926E-006 +8.65761414170E-002 +4.38794009387E-002 
+7.61000000000E+009 -3.33574980497E-001 -5.42487859726E-001 -3.04813962430E-002 +1.68072935194E-002 +3.15312572639E-005 +1.26684853967E-005 +9.29027497768E-002 +3.18471752107E-002 
+7.81000000000E+009 -3.46154540777E-001 -5.41086852551E-001 +3.38894966990E-003 +3.14167477190E-002 -1.02766007331E-005 -3.62324390153E-005 +9.82567220926E-002 +1.96825526655E-002 
+8.01000000000E+009 -3.57752740383E-001 -5.39585411549E-001 +2.87667624652E-002 +6.50766678154E-003 +1.46141992445E-005 -4.58984504803E-006 +1.02019190788E-001 +5.90638117865E-003 
+8.21000000000E+009 -3.69274884462E-001 -5.37827730179E-001 +1.40601815656E-002 -2.16371770948E-002 +1.35299096655E-005 -1.33801577249E-005 +1.04168780148E-001 -8.30454565585E-003 
+8.41000000000E+009 -3.80498379469E-001 -5.35715818405E-001 -1.31235206500E-002 -1.97523161769E-002 -1.37837923830E-005 +1.39391368066E-005 +1.03562615812E-001 -2.35041566193E-002 
+8.61000000000E+009 -3.91488820314E-001 -5.33812522888E-001 -2.16301474720E-002 +5.27170067653E-003 +1.27099001475E-005 +6.15671433479E-006 +1.00224345922E-001 -3.89296412468E-002 
+8.81000000000E+009 -4.01876121759E-001 -5.31783282757E-001 -2.51060910523E-003 +1.96009445935E-002 +5.24788174516E-006 -2.60971519310E-005 +9.49815288186E-002 -5.43495975435E-002 
+9.01000000000E+009 -4.12145853043E-001 -5.29481470585E-001 +1.56539343297E-002 +9.44921467453E-003 -1.22098635984E-005 -2.25463772949E-005 +8.83822888136E-002 -6.81482627988E-002 
+9.21000000000E+009 -4.22150224447E-001 -5.27077794075E-001 +1.35594168678E-002 -1.07035608962E-002 +5.57616158403E-006 -1.64516695804E-005 +7.84393250942E-002 -8.29131454229E-002 
+9.41000000000E+009 -4.31366890669E-001 -5.24787962437E-001 -4.48384461924E-003 -1.48061253130E-002 +3.14820135827E-006 -2.90976804536E-005 +6.59576207399E-002 -9.63429585099E-002 
+9.61000000000E+009 -4.40612047911E-001 -5.22138893604E-001 -1.43158854917E-002 -1.76966423169E-003 -1.94766721506E-006 -3.98531665269E-006 +5.07858581841E-002 -1.08498908579E-001 
+9.81000000000E+009 -4.49238806963E-001 -5.20186305046E-001 -6.46125664935E-003 +1.20234703645E-002 -2.98533304885E-005 +1.76091725734E-005 +3.55065949261E-002 -1.17839768529E-001 
+1.00100000000E+010 -4.58248347044E-001 -5.17467677593E-001 +7.93875940144E-003 +9.51692368835E-003 +5.59619547857E-006 -1.83707561519E-005 +1.85680594295E-002 -1.25483036041E-001 
+1.02100000000E+010 -4.66454327106E-001 -5.14296829700E-001 +1.11966198310E-002 -3.18934419192E-003 +3.16948171530E-006 -6.12012854617E-006 +4.75720240502E-004 -1.32378697395E-001 
+1.04100000000E+010 -4.74602192640E-001 -5.11742651463E-001 +1.07853638474E-003 -1.09753021970E-002 -2.13412749872E-005 -1.77862402779E-005 -2.00074426830E-002 -1.37718304992E-001 
+1.06100000000E+010 -4.82524871826E-001 -5.08943915367E-001 -8.94959736615E-003 -4.72253002226E-003 -7.14269663149E-006 -5.08329721924E-005 -4.17806468904E-002 -1.40137895942E-001 
+1.08100000000E+010 -4.89342719316E-001 -5.06972908974E-001 -7.49068334699E-003 +5.87302213535E-003 +3.79713242182E-006 -1.69703234860E-005 -6.36165291071E-002 -1.39567658305E-001 
+1.10100000000E+010 -4.96566802263E-001 -5.04320800304E-001 +2.58239684626E-003 +8.73926840723E-003 -1.32532477437E-005 +1.97973849936E-006 -8.53869318962E-002 -1.36093080044E-001 
+1.12100000000E+010 -5.03143548965E-001 -5.02498686314E-001 +8.30430630594E-003 +8.59053048771E-004 -2.41914658545E-005 +2.14861374843E-005 -1.09124213457E-001 -1.29876986146E-001 
+1.14100000000E+010 -5.10141968727E-001 -4.99878704548E-001 +3.96721949801E-003 -6.83713145554E-003 +4.08386404160E-006 -1.04098735392E-005 -1.32146969438E-001 -1.19847036898E-001 
+1.16100000000E+010 -5.15632152557E-001 -4.97606039047E-001 -4.62450738996E-003 -5.98977273330E-003 +2.57140618487E-005 -5.09440542373E-006 -1.54218807817E-001 -1.06327146292E-001 
+1.18100000000E+010 -5.21536946297E-001 -4.95198220015E-001 -6.72828685492E-003 +1.87682895921E-003 -1.84504660865E-005 -2.54436472460E-005 -1.73513144255E-001 -8.94180908799E-002 
+1.20100000000E+010 -5.27490377426E-001 -4.92543011904E-001 -1.01211771835E-003 +6.53680181131E-003 -1.87922026385E-007 -1.90858681890E-005 -1.90466463566E-001 -7.01396837831E-002 
+1.22100000000E+010 -5.33577859402E-001 -4.89490300417E-001 +5.48418238759E-003 +3.25824040920E-003 -3.19344471791E-005 +1.00519055195E-005 -2.07686051726E-001 -4.83237616718E-002 
+1.24100000000E+010 -5.38992524147E-001 -4.86849397421E-001 +4.74215624854E-003 -3.52902291343E-003 +6.99813335814E-006 -1.09422035166E-005 -2.22416192293E-001 -2.31546629220E-002 
+1.26100000000E+010 -5.44389784336E-001 -4.84157830477E-001 -1.22457440011E-003 -5.49570890144E-003 +3.77653941541E-006 -1.03695865619E-005 -2.32344090939E-001 +4.42452961579E-003 
+1.28100000000E+010 -5.49664795399E-001 -4.81326490641E-001 -5.33402990550E-003 -9.23526124097E-004 -8.91838396910E-007 +4.62676598545E-006 -2.38768652081E-001 +3.33466827869E-002 
+1.30100000000E+010 -5.54850935936E-001 -4.77797836065E-001 -2.70188902505E-003 +4.24523930997E-003 +1.71001247509E-005 -3.47413988493E-005 -2.42432191968E-001 +6.32337480783E-002 
+1.32100000000E+010 -5.59725105762E-001 -4.74696964025E-001 +2.65569309704E-003 +4.05551446602E-003 +1.01776058727E-005 +9.78505886451E-006 -2.42909833789E-001 +9.46572571993E-002 
+1.34100000000E+010 -5.64637064934E-001 -4.70878541470E-001 +4.55742189661E-003 -9.06967266928E-004 -5.92525111642E-006 -1.15062957775E-005 -2.39352613688E-001 +1.26491725445E-001 
+1.36100000000E+010 -5.67503333092E-001 -4.67714935541E-001 +8.62186774611E-004 -4.25749225542E-003 -3.03881120089E-006 +2.19600678975E-005 -2.31293365359E-001 +1.59288927913E-001 
+1.38100000000E+010 -5.72458803654E-001 -4.65269774199E-001 -3.37419682182E-003 -2.45293509215E-003 +1.50344058056E-005 +1.67575090018E-005 -2.18207269907E-001 +1.91022410989E-001 
+1.40100000000E+010 -5.77370047569E-001 -4.62333440781E-001 -3.39436950162E-003 +2.11647432297E-003 +5.28940290678E-006 -2.27061445912E-005 -2.01589927077E-001 +2.21867516637E-001 
+1.42100000000E+010 -5.81814944744E-001 -4.59579586983E-001 +5.86963666137E-004 +3.71238822117E-003 +1.60261843121E-005 -2.42760961555E-005 -1.81132450700E-001 +2.53047913313E-001 
+1.44100000000E+010 -5.86420536041E-001 -4.56133425236E-001 +3.48015129566E-003 +9.42171551287E-004 -1.85325061466E-005 +9.80903678283E-006 -1.55516758561E-001 +2.81582891941E-001 
+1.46100000000E+010 -5.90078532696E-001 -4.53300893307E-001 +2.12794984691E-003 -2.72105773911E-003 -2.59604639723E-005 +3.49256479240E-005 -1.24862797558E-001 +3.06891798973E-001 
+1.48100000000E+010 -5.93606889248E-001 -4.47980999947E-001 -1.62555393763E-003 -2.86951055750E-003 -2.24144855565E-006 +1.13345922728E-005 -9.18820798397E-002 +3.28877955675E-001 
+1.50100000000E+010 -5.95119893551E-001 -4.47218745947E-001 -3.09254368767E-003 +2.87454720819E-004 -2.34565450228E-005 -1.21098328236E-005 -5.62501363456E-002 +3.48085403442E-001 
+1.52100000000E+010 -5.97975194454E-001 -4.46595907211E-001 -9.06661443878E-004 +2.90057016537E-003 +1.10013470476E-005 -2.76850096270E-005 -1.74495708197E-002 +3.63152027130E-001 
+1.54100000000E+010 -6.01626813412E-001 -4.44651335478E-001 +2.17816955410E-003 +1.84151856229E-003 +8.26862196845E-006 -1.86295710591E-005 +2.46905554086E-002 +3.73163223267E-001 
+1.56100000000E+010 -6.05420887470E-001 -4.41101580858E-001 +2.46713962406E-003 -1.18627643678E-003 -1.42484204844E-005 -1.05155540950E-005 +6.84510990977E-002 +3.77262473106E-001 
+1.58100000000E+010 -6.06832563877E-001 -4.40197676420E-001 -1.43210403621E-004 -2.66937841661E-003 -2.41737870965E-006 -7.44306998968E-006 +1.11964546144E-001 +3.77905607224E-001 
+1.60100000000E+010 -6.09101414680E-001 -4.38723444939E-001 -2.38812435418E-003 -8.64502857439E-004 +8.81172036316E-006 -2.87358197966E-005 +1.56989932060E-001 +3.73120486736E-001 
+1.62100000000E+010 -6.11404359341E-001 -4.37116235495E-001 -1.68171455152E-003 +1.72442337498E-003 +1.39918829518E-005 -2.14005376620E-006 +2.04271301627E-001 +3.62854182720E-001 
+1.64100000000E+010 -6.13484919071E-001 -4.35474038124E-001 +9.13892698009E-004 +2.16896762140E-003 +8.63893455971E-006 -5.42738644072E-006 +2.50992327929E-001 +3.46691906452E-001 
+1.66100000000E+010 -6.17040097713E-001 -4.33742403984E-001 +2.22864141688E-003 -2.77324434137E-005 +4.31366879639E-006 +6.27358213023E-006 +2.94731378555E-001 +3.22900891304E-001 
+1.68100000000E+010 -6.20195865631E-001 -4.31255996227E-001 +8.85646906681E-004 -1.91028520931E-003 +2.81425764115E-005 -6.20914170213E-006 +3.37586462498E-001 +2.95484304428E-001 
+1.70100000000E+010 -6.22051119804E-001 -4.29001182318E-001 -1.41227594577E-003 -1.52366387192E-003 -2.01134771487E-005 +3.71630790141E-007 +3.77478659153E-001 +2.64182180166E-001 
+1.72100000000E+010 -6.24467372894E-001 -4.26796495914E-001 -1.86030485202E-003 +7.10068270564E-004 -4.65569246444E-006 -1.38343175422E-005 +4.14846420288E-001 +2.25711077452E-001 
+1.74100000000E+010 -6.27385079861E-001 -4.24834936857E-001 -1.26602564706E-004 +1.88594835345E-003 -4.18913089106E-007 -1.42709359352E-005 +4.48037832975E-001 +1.83004394174E-001 
+1.76100000000E+010 -6.29962086678E-001 -4.22527372837E-001 +1.62272364832E-003 +8.67813476361E-004 +2.67879404419E-005 -3.15625620715E-005 +4.76009160280E-001 +1.37122929096E-001 
+1.78100000000E+010 -6.32910847664E-001 -4.20435696840E-001 +1.31074548699E-003 -1.15107849706E-003 -4.62362440885E-005 +2.67450673164E-006 +4.99578297138E-001 +8.85100215673E-002 
+1.80100000000E+010 -6.35146617889E-001 -4.18085843325E-001 -4.27779625170E-004 -1.61320751067E-003 -1.07136374936E-005 +9.66846073425E-006 +5.18617630005E-001 +3.74439619482E-002 
+1.82100000000E+010 -6.37763619423E-001 -4.16259586811E-001 -1.62739213556E-003 -2.25483614486E-004 -3.88747139368E-005 +2.03901563509E-005 +5.31597614288E-001 -1.69308502227E-002 
+1.84100000000E+010 -6.40351295471E-001 -4.14645075798E-001 -8.02768452559E-004 +1.36350991670E-003 +2.27820746659E-005 -1.38481454997E-005 +5.37947118282E-001 -7.40856528282E-002 
+1.86100000000E+010 -6.43305003643E-001 -4.12622600794E-001 +8.71137483045E-004 +1.19588722009E-003 +3.44225031768E-006 -8.71681368153E-006 +5.37710189819E-001 -1.30670383573E-001 
+1.88100000000E+010 -6.45672380924E-001 -4.10243690014E-001 +1.43575493712E-003 -3.02575179376E-004 -3.21637890011E-006 +3.53498899130E-006 +5.31777024269E-001 -1.86873659492E-001 
+1.90100000000E+010 -6.47286593914E-001 -4.08420950174E-001 +2.44983646553E-004 -1.34904845618E-003 +1.46674665302E-006 +2.54764163401E-005 +5.20358502865E-001 -2.42841035128E-001 
+1.92100000000E+010 -6.49421036243E-001 -4.07462120056E-001 -1.07651087455E-003 -7.62292533182E-004 +2.71733279078E-005 +2.42838741542E-005 +5.02468883991E-001 -2.99802720547E-001 
+1.94100000000E+010 -6.51920258999E-001 -4.05548393726E-001 -1.10597454477E-003 +6.51141570415E-004 -8.38349023979E-006 -2.61952700384E-005 +4.77051168680E-001 -3.54633152485E-001 
+1.96100000000E+010 -6.52876317501E-001 -4.03275221586E-001 +1.96954017156E-004 +1.23587902635E-003 +2.70199689112E-005 +1.68917779320E-007 +4.46425050497E-001 -4.06543612480E-001 
+1.98100000000E+010 -6.52244269848E-001 -4.00404095650E-001 +1.14000483882E-003 +3.26355657307E-004 +2.11361884794E-006 +2.04217976716E-005 +4.11599189043E-001 -4.53769862652E-001 
+2.00100000000E+010 -6.51184082031E-001 -3.99684727192E-001 +7.76387576479E-004 -9.24654654227E-004 -4.91344217153E-005 +4.96279426443E-006 +3.69923174381E-001 -5.00002682209E-001 
