!;Filter: kein Filter
!auto
!3/21/2019 9:27:39 AM
!3/21/2019 9:27:53 AM
!SP-Measurements Prober G4
!SP-Measurements Prober G4
!01103_448C
!134
!235
!12
!60
!-20
!0.00499992
!1.96
!0.64375220
!0.64375220
# Hz S  RI   R 50
+1.00000000000E+007 +1.61091595888E-001 +4.28198464215E-003 +5.15544116497E-002 -2.05341316760E-002 -2.47052550549E-004 -3.37384044542E-005 +5.34454407170E-003 +1.64445431437E-003 
+2.10000000000E+008 +1.76383987069E-001 -2.06634718925E-002 -2.68303765915E-003 -5.33645935357E-002 -1.06277393570E-005 -4.02752666560E-005 +8.69566854089E-003 -4.81276493520E-003 
+4.10000000000E+008 +1.79089322686E-001 -5.00520206988E-002 -5.00231012702E-002 -1.63489766419E-002 -1.37751621878E-005 -1.82272633538E-005 +1.00310081616E-002 -7.82755389810E-003 
+6.10000000000E+008 +1.77886903286E-001 -7.95214176178E-002 -3.15925180912E-002 +4.03886325657E-002 -6.41840888420E-005 -4.12159279222E-005 +9.59881860763E-003 -1.15380892530E-002 
+8.10000000000E+008 +1.73510670662E-001 -1.09138637781E-001 +2.59144287556E-002 +4.37754094601E-002 +2.85220576188E-005 +1.40361953527E-005 +7.17767560855E-003 -1.54286660254E-002 
+1.01000000000E+009 +1.66969001293E-001 -1.37563079596E-001 +5.06313517690E-002 -8.91754589975E-003 -6.65128254695E-006 -2.27221498790E-005 +2.78753903694E-003 -1.91366150975E-002 
+1.21000000000E+009 +1.58695012331E-001 -1.65081515908E-001 +8.62587243319E-003 -4.87557649612E-002 +5.45359489479E-006 -1.10073924589E-005 -1.80962088052E-003 -2.09942534566E-002 
+1.41000000000E+009 +1.48404717445E-001 -1.92067161202E-001 -4.17146831751E-002 -2.66117304564E-002 -7.17342436474E-006 +8.82236781763E-006 -7.59264500812E-003 -2.43054181337E-002 
+1.61000000000E+009 +1.37410745025E-001 -2.17767223716E-001 -3.97501401603E-002 +3.06889060885E-002 -1.67820999195E-005 +7.35446883482E-006 -1.35784894228E-002 -2.67707724124E-002 
+1.81000000000E+009 +1.24351412058E-001 -2.42394402623E-001 +1.30633609369E-002 +4.73106876016E-002 -5.45914554095E-006 +7.85499560152E-006 -1.78152136505E-002 -2.78166867793E-002 
+2.01000000000E+009 +1.11029408872E-001 -2.65725463629E-001 +4.98966239393E-002 +4.32575168088E-003 -1.45539061123E-005 -2.65132894128E-006 -2.30925343931E-002 -2.65040472150E-002 
+2.21000000000E+009 +9.63982716203E-002 -2.88355141878E-001 +2.06811148673E-002 -4.50824983418E-002 -2.02107512450E-005 +1.72958561961E-006 -2.87007503211E-002 -2.44321655482E-002 
+2.41000000000E+009 +8.04453343153E-002 -3.09103220701E-001 -3.38068008423E-002 -3.53999845684E-002 +2.99280400213E-005 -7.43340206100E-006 -3.53782288730E-002 -2.21340432763E-002 
+2.61000000000E+009 +6.43622428179E-002 -3.28757494688E-001 -4.57417219877E-002 +1.92812997848E-002 -1.42969338413E-005 -3.60993340109E-006 -4.06430028379E-002 -1.93256605417E-002 
+2.81000000000E+009 +4.72353212535E-002 -3.47154438496E-001 +2.28800834157E-003 +4.89545427263E-002 +8.86455268301E-007 +9.52213031269E-006 -4.46385219693E-002 -1.44375246018E-002 
+3.01000000000E+009 +2.98203136772E-002 -3.63835543394E-001 +4.60847504437E-002 +1.59496963024E-002 -3.92063520849E-006 -1.13124424388E-005 -4.83949072659E-002 -8.60360544175E-003 
+3.21000000000E+009 +1.23140802607E-002 -3.79678308964E-001 +3.16776856780E-002 -3.81536856294E-002 -1.51473223013E-005 +2.29816396313E-006 -5.22574856877E-002 -2.19081505202E-003 
+3.41000000000E+009 -5.17289387062E-003 -3.94413918257E-001 -2.46360842139E-002 -4.26338464022E-002 +1.55786274263E-005 +1.21714788293E-006 -5.52627407014E-002 +4.87177353352E-003 
+3.61000000000E+009 -2.29037441313E-002 -4.07937705517E-001 -4.88004833460E-002 +7.42292171344E-003 -2.48027299676E-006 -1.22601359180E-005 -5.70447966456E-002 +1.17548517883E-002 
+3.81000000000E+009 -4.07961942255E-002 -4.20324593782E-001 -1.00088668987E-002 +4.94043380022E-002 +2.09751160583E-005 +3.39745492965E-005 -5.68468756974E-002 +1.91030483693E-002 
+4.01000000000E+009 -5.84515444934E-002 -4.31940197945E-001 +4.23303917050E-002 +2.60615795851E-002 +2.06615077332E-005 +2.34221497522E-005 -5.57796321809E-002 +2.68780216575E-002 
+4.21000000000E+009 -7.61812329292E-002 -4.42260950804E-001 +3.97554636002E-002 -3.02231647074E-002 +8.62915021571E-006 +1.87747573364E-005 -5.38632795215E-002 +3.55605408549E-002 
+4.41000000000E+009 -9.36907753348E-002 -4.51698899269E-001 -1.50616168976E-002 -4.82655838132E-002 -6.36051083802E-007 -1.16620449262E-005 -5.07678166032E-002 +4.40445616841E-002 
+4.61000000000E+009 -1.11006468534E-001 -4.60142344236E-001 -4.97979186475E-002 -2.84428894520E-003 +1.98083325813E-005 +1.76936900971E-005 -4.64792400599E-002 +5.13846129179E-002 
+4.81000000000E+009 -1.28182291985E-001 -4.67802494764E-001 -2.09258534014E-002 +4.58775050938E-002 -1.13066234917E-005 +7.41999792808E-006 -3.99659201503E-002 +5.84836676717E-002 
+5.01000000000E+009 -1.44917637110E-001 -4.75234836340E-001 +3.68003472686E-002 +3.60853560269E-002 +1.34003148560E-005 +1.48254994201E-005 -3.33027616143E-002 +6.50781542063E-002 
+5.21000000000E+009 -1.61400228739E-001 -4.81858909130E-001 +4.66757267714E-002 -2.17889435589E-002 +1.73616354004E-005 +4.02708565161E-006 -2.58251093328E-002 +7.10204690695E-002 
+5.41000000000E+009 -1.77616313100E-001 -4.87346380949E-001 -3.90589842573E-003 -5.26006110013E-002 -1.13827736641E-005 -1.37314227686E-005 -1.70485377312E-002 +7.63860046864E-002 
+5.61000000000E+009 -1.94067180157E-001 -4.92805510759E-001 -5.32405003905E-002 -1.32786668837E-002 +1.10563969429E-005 -8.51319418871E-006 -7.49390479177E-003 +7.94858708978E-002 
+5.81000000000E+009 -2.09676876664E-001 -4.97004061937E-001 -3.02068255842E-002 +4.53720875084E-002 +1.32773184305E-005 -1.96907694772E-005 +3.11567052267E-003 +8.03031474352E-002 
+6.01000000000E+009 -2.24891111255E-001 -5.00481188297E-001 +3.39835137129E-002 +4.52758409083E-002 +1.09457096187E-005 +7.85995268870E-007 +1.41036380082E-002 +8.22612494230E-002 
+6.21000000000E+009 -2.40206852555E-001 -5.03473460674E-001 +5.37242852151E-002 -2.05730944872E-002 -2.44136172114E-005 -3.94092950273E-007 +2.47845761478E-002 +8.18513706326E-002 
+6.41000000000E+009 -2.54645377398E-001 -5.05848050117E-001 -1.67283986229E-003 -5.64700104296E-002 +7.00568898537E-006 -3.20012259181E-005 +3.63939218223E-002 +7.99441710114E-002 
+6.61000000000E+009 -2.69277632236E-001 -5.07912397385E-001 -5.62592707574E-002 -1.58936958760E-002 -1.09091470222E-005 -7.41834037399E-006 +4.76211048663E-002 +7.48055651784E-002 
+6.81000000000E+009 -2.83661544323E-001 -5.09221434593E-001 -2.87324301898E-002 +4.82855848968E-002 -1.19304049804E-005 +1.87402965821E-005 +5.82676902413E-002 +6.87524080276E-002 
+7.01000000000E+009 -2.97127515078E-001 -5.10233879089E-001 +3.50296981633E-002 +4.20050956309E-002 +1.36299686346E-005 +2.86606336886E-006 +6.80594444275E-002 +6.28007352352E-002 
+7.21000000000E+009 -3.10539126396E-001 -5.10660886765E-001 +4.98820506036E-002 -2.20849812031E-002 +2.30798596021E-005 +1.07905898403E-005 +7.73411169648E-002 +5.41064999998E-002 
+7.41000000000E+009 -3.23227196932E-001 -5.10982990265E-001 -7.25239980966E-003 -4.95344512165E-002 +6.50386346024E-006 +1.35304526339E-005 +8.64919722080E-002 +4.38323654234E-002 
+7.61000000000E+009 -3.35093677044E-001 -5.10851979256E-001 -4.69981580973E-002 -1.00459707901E-002 +5.81580525250E-006 +1.65144574567E-005 +9.27466377616E-002 +3.18773649633E-002 
+7.81000000000E+009 -3.47365051508E-001 -5.10016620159E-001 -2.17512007803E-002 +4.08402048051E-002 +4.05170976592E-006 +1.17020354082E-005 +9.81424972415E-002 +1.96854472160E-002 
+8.01000000000E+009 -3.58501881361E-001 -5.09115815163E-001 +2.87116076797E-002 +2.99523621798E-002 -1.75888112608E-006 -7.02794750396E-006 +1.01898334920E-001 +5.92608656734E-003 
+8.21000000000E+009 -3.69624078274E-001 -5.08073449135E-001 +3.66840213537E-002 -1.58240590245E-002 -1.90035934793E-005 +1.40944812301E-005 +1.04065880179E-001 -8.28655436635E-003 
+8.41000000000E+009 -3.80439132452E-001 -5.06506681442E-001 -4.49902750552E-003 -3.71151007712E-002 +1.80443760200E-006 -1.78300997504E-005 +1.03471584618E-001 -2.34597045928E-002 
+8.61000000000E+009 -3.90917718410E-001 -5.05250990391E-001 -3.25415693223E-002 -7.45543045923E-003 +7.61844785302E-006 -7.34998548069E-006 +1.00145019591E-001 -3.88368777931E-002 
+8.81000000000E+009 -4.00961726904E-001 -5.03887176514E-001 -1.75753831863E-002 +2.65071094036E-002 +6.41255655864E-006 -1.59856572282E-005 +9.48879495263E-002 -5.42713105679E-002 
+9.01000000000E+009 -4.10797357559E-001 -5.02082347870E-001 +1.79989505559E-002 +2.29342486709E-002 -2.18060517909E-006 -2.51671062870E-005 +8.83275568485E-002 -6.80452287197E-002 
+9.21000000000E+009 -4.20316547155E-001 -5.00398576260E-001 +2.51268949360E-002 -7.50444503501E-003 +1.69556769833E-005 +3.45864327755E-006 +7.83921256661E-002 -8.27887728810E-002 
+9.41000000000E+009 -4.29231643677E-001 -4.98743265867E-001 +2.04152311198E-003 -2.50954255462E-002 +7.93066828919E-006 +1.39799358294E-005 +6.59060776234E-002 -9.62236523628E-002 
+9.61000000000E+009 -4.38071548939E-001 -4.96624171734E-001 -2.11968217045E-002 -8.96903593093E-003 +2.83531171590E-005 -3.70015163753E-006 +5.07155992091E-002 -1.08411632478E-001 
+9.81000000000E+009 -4.46410626173E-001 -4.95299786329E-001 -1.49554144591E-002 +1.44981779158E-002 +1.76725297933E-005 -9.06449986360E-006 +3.54569517076E-002 -1.17712572217E-001 
+1.00100000000E+010 -4.55114722252E-001 -4.93143081665E-001 +7.85198807716E-003 +1.82551834732E-002 -1.65871424542E-005 -2.05618835025E-005 +1.85889564455E-002 -1.25365689397E-001 
+1.02100000000E+010 -4.63001281023E-001 -4.90604788065E-001 +1.79402846843E-002 -9.38707147725E-004 +9.11886945687E-006 +4.15758404415E-006 +5.23760332726E-004 -1.32207646966E-001 
+1.04100000000E+010 -4.70888227224E-001 -4.88611727953E-001 +5.87165402249E-003 -1.55075630173E-002 +3.14730568789E-005 -4.44867282567E-006 -2.00061593205E-002 -1.37544825673E-001 
+1.06100000000E+010 -4.78593498468E-001 -4.86408025026E-001 -1.17118768394E-002 -1.05752209201E-002 +8.99122824194E-006 +5.16977252119E-006 -4.16961610317E-002 -1.39987438917E-001 
+1.08100000000E+010 -4.85196709633E-001 -4.84958320856E-001 -1.28442067653E-002 +6.48607173935E-003 -1.03552374640E-005 -9.15702275961E-006 -6.35123476386E-002 -1.39443203807E-001 
+1.10100000000E+010 -4.92226630449E-001 -4.82857912779E-001 +6.29430345725E-004 +1.34671200067E-002 +3.80697997571E-006 -1.10730024971E-005 -8.52974727750E-002 -1.35962978005E-001 
+1.12100000000E+010 -4.98642653227E-001 -4.81581538916E-001 +1.22069213539E-002 +4.11869492382E-003 -4.80502967548E-006 -1.26479299070E-005 -1.09022028744E-001 -1.29784852266E-001 
+1.14100000000E+010 -5.05488038063E-001 -4.79508072138E-001 +7.68681569025E-003 -8.93480330706E-003 -1.62092546816E-005 +6.30824661130E-006 -1.31993532181E-001 -1.19735345244E-001 
+1.16100000000E+010 -5.10832190514E-001 -4.77703690529E-001 -4.73020784557E-003 -1.01428478956E-002 +1.56895675900E-005 -9.99081748887E-007 -1.54042705894E-001 -1.06261469424E-001 
+1.18100000000E+010 -5.16601204872E-001 -4.75757032633E-001 -1.07745202258E-002 +6.82875048369E-004 +1.36419876071E-005 -2.20219135372E-006 -1.73362657428E-001 -8.94178673625E-002 
+1.20100000000E+010 -5.22395014763E-001 -4.73500132561E-001 -3.13422665931E-003 +9.44330077618E-003 -1.21808636777E-006 +2.27741165872E-005 -1.90306872129E-001 -7.01330155134E-002 
+1.22100000000E+010 -5.28318583965E-001 -4.70958173275E-001 +7.10001960397E-003 +6.33788621053E-003 +2.45363867180E-006 +6.78176093061E-007 -2.07496732473E-001 -4.83500510454E-002 
+1.24100000000E+010 -5.33691167831E-001 -4.68824744225E-001 +8.06076824665E-003 -4.12415433675E-003 +8.90601495485E-006 +3.33766147378E-005 -2.22227022052E-001 -2.31890063733E-002 
+1.26100000000E+010 -5.38940131664E-001 -4.66517001390E-001 -6.51884125546E-004 -8.34371428937E-003 -1.39011908686E-005 -3.43879655702E-005 -2.32148528099E-001 +4.37339115888E-003 
+1.28100000000E+010 -5.44120967388E-001 -4.64124917984E-001 -7.54807470366E-003 -2.64751492068E-003 +9.12634641281E-006 -1.17393756227E-005 -2.38609552383E-001 +3.31941135228E-002 
+1.30100000000E+010 -5.49239873886E-001 -4.61014211178E-001 -5.01668732613E-003 +5.74186258018E-003 +7.98612916242E-007 -1.42821363625E-005 -2.42273747921E-001 +6.30829334259E-002 
+1.32100000000E+010 -5.54054498672E-001 -4.58331555128E-001 +3.10556287877E-003 +6.30859145895E-003 -1.55268135131E-005 -2.44180300797E-005 -2.42764368653E-001 +9.44929346442E-002 
+1.34100000000E+010 -5.58911383152E-001 -4.54871982336E-001 +6.79313857108E-003 -2.99129460473E-004 +2.31606300076E-005 +2.49499244092E-005 -2.39196747541E-001 +1.26329302788E-001 
+1.36100000000E+010 -5.61774134636E-001 -4.52100723982E-001 +2.14940775186E-003 -6.10484508798E-003 -2.55478312283E-006 +3.56980376637E-006 -2.31188863516E-001 +1.59057483077E-001 
+1.38100000000E+010 -5.66655993462E-001 -4.49977487326E-001 -4.41616447642E-003 -4.08962415531E-003 -4.76349559904E-005 +1.94497697521E-005 -2.18121424317E-001 +1.90825492144E-001 
+1.40100000000E+010 -5.71463525295E-001 -4.47474241257E-001 -5.33863948658E-003 +2.33839848079E-003 -1.81751674972E-005 +3.27979505528E-005 -2.01572775841E-001 +2.21685558558E-001 
+1.42100000000E+010 -5.75909733772E-001 -4.45095390081E-001 +1.84474833077E-004 +5.51741383970E-003 -1.15845296023E-005 +8.00417910796E-006 -1.81125253439E-001 +2.52798557281E-001 
+1.44100000000E+010 -5.80555260181E-001 -4.41997826099E-001 +4.84529649839E-003 +1.95926730521E-003 -2.44181010203E-005 +1.29354584715E-005 -1.55537560582E-001 +2.81370639801E-001 
+1.46100000000E+010 -5.84169030190E-001 -4.39479321241E-001 +3.57483793050E-003 -3.55710601434E-003 -1.63666463777E-005 +2.96932521451E-005 -1.24911665916E-001 +3.06676030159E-001 
+1.48100000000E+010 -5.87721407413E-001 -4.34592247009E-001 -1.83663656935E-003 -4.38923668116E-003 -1.93484193005E-005 -1.48810831888E-005 -9.19458195567E-002 +3.28683823347E-001 
+1.50100000000E+010 -5.89238941669E-001 -4.34073507786E-001 -4.51581971720E-003 -1.14051319542E-004 -1.08997473944E-005 +1.30492262542E-005 -5.64218536019E-002 +3.47897291183E-001 
+1.52100000000E+010 -5.92062592506E-001 -4.33697044849E-001 -1.83306308463E-003 +4.00156294927E-003 +6.22673951511E-007 +1.11392282633E-005 -1.76553018391E-002 +3.63005042076E-001 
+1.54100000000E+010 -5.95740079880E-001 -4.32059794664E-001 +2.86650098860E-003 +3.06090107188E-003 +1.16158207675E-005 -1.72549243871E-005 +2.45088674128E-002 +3.73024553061E-001 
+1.56100000000E+010 -5.99519968033E-001 -4.28838104010E-001 +3.74125503004E-003 -1.29399041180E-003 -2.86886574941E-006 -1.74090710061E-005 +6.82324767113E-002 +3.77187281847E-001 
+1.58100000000E+010 -6.00885033607E-001 -4.28220570087E-001 +2.61368695647E-004 -3.84848169051E-003 -3.14843346132E-005 +5.88606326346E-006 +1.11743316054E-001 +3.77849757671E-001 
+1.60100000000E+010 -6.03213608265E-001 -4.27010834217E-001 -3.26927099377E-003 -1.61513930652E-003 -5.79534935241E-006 -3.09200231641E-006 +1.56745001674E-001 +3.73063027859E-001 
+1.62100000000E+010 -6.05646014214E-001 -4.25673455000E-001 -2.66523635946E-003 +2.20224400982E-003 -2.30747332353E-006 -2.39482378674E-005 +2.03998714685E-001 +3.62864047289E-001 
+1.64100000000E+010 -6.07730746269E-001 -4.24188166857E-001 +9.58369462751E-004 +3.25977872126E-003 -6.54175573800E-006 -2.62381290668E-005 +2.50707685947E-001 +3.46721559763E-001 
+1.66100000000E+010 -6.11195564270E-001 -4.22659218311E-001 +3.22429859079E-003 +3.15227400279E-004 +1.90079845197E-005 -2.67843097390E-005 +2.94453948736E-001 +3.22962611914E-001 
+1.68100000000E+010 -6.14378809929E-001 -4.20454204082E-001 +1.57766730990E-003 -2.69622635096E-003 -1.32490404212E-005 +1.68187045801E-006 +3.37323218584E-001 +2.95635372400E-001 
+1.70100000000E+010 -6.16349637508E-001 -4.18497681618E-001 -1.80894171353E-003 -2.39508133382E-003 -7.99963527243E-006 +2.33041755564E-005 +3.77208679914E-001 +2.64271974564E-001 
+1.72100000000E+010 -6.18806064129E-001 -4.16530579329E-001 -2.78077553958E-003 +7.65700649936E-004 -2.86216018139E-005 +2.62961893895E-005 +4.14561361074E-001 +2.25880995393E-001 
+1.74100000000E+010 -6.21693074703E-001 -4.14769887924E-001 -4.66240337119E-004 +2.75743613020E-003 -2.42208934651E-005 +1.37443566928E-005 +4.47820842266E-001 +1.83174297214E-001 
+1.76100000000E+010 -6.24307811260E-001 -4.12702083588E-001 +2.30753771029E-003 +1.38465710916E-003 +8.71234260558E-006 +1.83338906936E-005 +4.75830942392E-001 +1.37388214469E-001 
+1.78100000000E+010 -6.27161502838E-001 -4.10842567682E-001 +2.04538600519E-003 -1.48337020073E-003 +9.21851915336E-006 -2.66337137873E-005 +4.99419510365E-001 +8.87817069888E-002 
+1.80100000000E+010 -6.29465818405E-001 -4.08696889877E-001 -4.91197337396E-004 -2.36608902924E-003 -2.20002075366E-005 +4.64397526230E-005 +5.18508195877E-001 +3.76899801195E-002 
+1.82100000000E+010 -6.32095813751E-001 -4.07044678926E-001 -2.33261985704E-003 -4.66997211333E-004 -1.47095795455E-006 +4.41147403762E-006 +5.31533002853E-001 -1.66350044310E-002 
+1.84100000000E+010 -6.34699761868E-001 -4.05658870935E-001 -1.19428790640E-003 +1.87479320448E-003 +1.50572441271E-005 +1.42503597544E-006 +5.37965536118E-001 -7.37999677658E-002 
+1.86100000000E+010 -6.37668669224E-001 -4.03825700283E-001 +1.10348418821E-003 +1.76307465881E-003 +9.80720051302E-006 +3.12076008413E-005 +5.37789940834E-001 -1.30358546972E-001 
+1.88100000000E+010 -6.40062391758E-001 -4.01660561562E-001 +2.02197791077E-003 -3.36036755471E-004 -1.97266708710E-005 +7.67513370192E-007 +5.31929194927E-001 -1.86586171389E-001 
+1.90100000000E+010 -6.41733705997E-001 -3.99996370077E-001 +5.20102970768E-004 -1.81975984015E-003 +1.55301513587E-005 -1.51647554958E-005 +5.20502209663E-001 -2.42566034198E-001 
+1.92100000000E+010 -6.43959164619E-001 -3.99084359407E-001 -1.45144306589E-003 -1.19667442050E-003 +2.54216065514E-005 +1.49537509060E-005 +5.02646386623E-001 -2.99544215202E-001 
+1.94100000000E+010 -6.46503329277E-001 -3.97327423096E-001 -1.61832070444E-003 +8.33564205095E-004 +3.31657429342E-005 +4.04470938520E-006 +4.77278411388E-001 -3.54380905628E-001 
+1.96100000000E+010 -6.47407710552E-001 -3.95261496305E-001 +1.18635907711E-004 +1.72572291922E-003 +3.98424126615E-005 -1.88920330402E-005 +4.46656793356E-001 -4.06316250563E-001 
+1.98100000000E+010 -6.46815776825E-001 -3.92626345158E-001 +1.55952700879E-003 +5.91900141444E-004 -3.61913298548E-005 -1.55732868734E-005 +4.11885827780E-001 -4.53568160534E-001 
+2.00100000000E+010 -6.45854711533E-001 -3.92108082771E-001 +1.10619934276E-003 -1.21026684064E-003 -2.19032135647E-005 +1.64682078321E-005 +3.70192497969E-001 -4.99903559685E-001 
