!;Filter: kein Filter
!auto
!3/21/2019 9:25:24 AM
!3/21/2019 9:25:40 AM
!SP-Measurements Prober G4
!SP-Measurements Prober G4
!01103_448C
!134
!233
!12
!60
!-20
!0.00399976
!1.88
!0.54220246
!0.54220246
# Hz S  RI   R 50
+1.00000000000E+007 +2.67175048590E-001 +2.79434281401E-003 +4.32543493807E-002 -1.68216042221E-002 +3.08399932692E-004 -3.64368490409E-004 +5.55610703304E-003 +1.16197660100E-003 
+2.10000000000E+008 +2.78890430927E-001 -2.77837589383E-002 -1.29196839407E-003 -4.54279780388E-002 +1.96648761630E-005 +5.91815887674E-006 +8.73837154359E-003 -4.77733090520E-003 
+4.10000000000E+008 +2.79818087816E-001 -6.10236302018E-002 -4.29095476866E-002 -1.50649221614E-002 -2.69247957476E-005 -5.11649814143E-005 +1.00426664576E-002 -7.82380532473E-003 
+6.10000000000E+008 +2.77410268784E-001 -9.46862474084E-002 -2.80255619437E-002 +3.45492362976E-002 -1.86929883057E-005 -9.74531485554E-006 +9.59939137101E-003 -1.15537876263E-002 
+8.10000000000E+008 +2.71434009075E-001 -1.28401860595E-001 +2.20935121179E-002 +3.85474823415E-002 +3.07373078101E-008 +2.31192007050E-005 +7.18839932233E-003 -1.54374763370E-002 
+1.01000000000E+009 +2.63128489256E-001 -1.60580828786E-001 +4.42799590528E-002 -7.41770630702E-003 +3.52676979674E-005 +4.91533342029E-007 +2.77633103542E-003 -1.91255565733E-002 
+1.21000000000E+009 +2.52729415894E-001 -1.91790565848E-001 +8.41428060085E-003 -4.30977605283E-002 +1.29425179693E-005 +1.45355252243E-005 -1.81838427670E-003 -2.10236739367E-002 
+1.41000000000E+009 +2.40495175123E-001 -2.22216352820E-001 -3.76624241471E-002 -2.36192587763E-002 +6.29859687251E-006 -4.96818586271E-007 -7.60516757146E-003 -2.43007671088E-002 
+1.61000000000E+009 +2.27384552360E-001 -2.51360654831E-001 -3.50406393409E-002 +2.78324354440E-002 -5.38312087883E-006 +3.98950805902E-006 -1.35804507881E-002 -2.67968196422E-002 
+1.81000000000E+009 +2.11816892028E-001 -2.79303967953E-001 +1.37020405382E-002 +4.13844808936E-002 +8.31504985399E-006 +1.82922922249E-005 -1.77926253527E-002 -2.78733484447E-002 
+2.01000000000E+009 +1.95827782154E-001 -3.05783987045E-001 +4.38816472888E-002 +1.68558710720E-003 +1.18548277896E-005 +1.36791522891E-005 -2.31080111116E-002 -2.65343766659E-002 
+2.21000000000E+009 +1.78307726979E-001 -3.31301271915E-001 +1.58423203975E-002 -4.01836261153E-002 -6.64256276650E-006 -1.91647850443E-005 -2.87253409624E-002 -2.44615804404E-002 
+2.41000000000E+009 +1.59164592624E-001 -3.54719221592E-001 -3.07831354439E-002 -2.81418729573E-002 +1.71407755261E-005 -1.92735078599E-005 -3.53551656008E-002 -2.21529975533E-002 
+2.61000000000E+009 +1.39791861176E-001 -3.76570761204E-001 -3.73121351004E-002 +1.87909770757E-002 +3.11806900299E-007 +1.61931905041E-006 -4.06517572701E-002 -1.93355772644E-002 
+2.81000000000E+009 +1.19452625513E-001 -3.96850407124E-001 +4.36960300431E-003 +4.06673736870E-002 -9.68493765185E-008 -1.77614056156E-005 -4.46829050779E-002 -1.44781265408E-002 
+3.01000000000E+009 +9.85420569777E-002 -4.15240198374E-001 +3.82438972592E-002 +1.05959065259E-002 +2.26997199206E-005 +8.04328283266E-006 -4.84355501831E-002 -8.59826803207E-003 
+3.21000000000E+009 +7.77943208814E-002 -4.32342708111E-001 +2.40149088204E-002 -3.20272259414E-002 +1.22506362459E-005 -1.26945851662E-005 -5.22984713316E-002 -2.18964694068E-003 
+3.41000000000E+009 +5.69547154009E-002 -4.48100596666E-001 -2.11790055037E-002 -3.35118919611E-002 +2.07491029869E-005 -6.36591721559E-006 -5.52779734135E-002 +4.86989226192E-003 
+3.61000000000E+009 +3.59393097460E-002 -4.62427079678E-001 -3.83873917162E-002 +7.17482902110E-003 -5.24461029272E-006 -1.23611589515E-005 -5.70931322873E-002 +1.17366239429E-002 
+3.81000000000E+009 +1.49307558313E-002 -4.75299596786E-001 -7.37742334604E-003 +3.87689694762E-002 -2.77611206911E-006 +7.12703104000E-006 -5.68749271333E-002 +1.91197507083E-002 
+4.01000000000E+009 -5.68258203566E-003 -4.87239658833E-001 +3.37212346494E-002 +2.06045135856E-002 -8.28382690088E-006 -5.65585924051E-006 -5.58514371514E-002 +2.69728302956E-002 
+4.21000000000E+009 -2.63584423810E-002 -4.97701913118E-001 +3.11853438616E-002 -2.35492829233E-002 -1.73275657289E-006 +2.36383202719E-005 -5.39136379957E-002 +3.55723686516E-002 
+4.41000000000E+009 -4.65679764748E-002 -5.07123589516E-001 -1.10274311155E-002 -3.83173972368E-002 -7.20193520465E-006 -1.96356495508E-006 -5.08576594293E-002 +4.40848991275E-002 
+4.61000000000E+009 -6.65097907186E-002 -5.15436887741E-001 -4.00387123227E-002 -3.01584322006E-003 -4.06153776566E-006 -1.09364191303E-005 -4.65490669012E-002 +5.14205321670E-002 
+4.81000000000E+009 -8.63049030304E-002 -5.22849202156E-001 -1.71019621193E-002 +3.59854400158E-002 -7.80531820510E-007 +1.21528046293E-005 -3.99819053710E-002 +5.85775859654E-002 
+5.01000000000E+009 -1.05412133038E-001 -5.29849886894E-001 +2.83252317458E-002 +2.94918082654E-002 +1.54518820636E-005 +3.14847238769E-005 -3.33338677883E-002 +6.51133656502E-002 
+5.21000000000E+009 -1.24166697264E-001 -5.36059916019E-001 +3.77058424056E-002 -1.67417880148E-002 -8.84027357984E-008 -1.97792360268E-005 -2.58734207600E-002 +7.10655003786E-002 
+5.41000000000E+009 -1.42636284232E-001 -5.40946245193E-001 -2.40326253697E-003 -4.09776233137E-002 -2.59992048086E-005 +1.76114845090E-005 -1.70443709940E-002 +7.64181762934E-002 
+5.61000000000E+009 -1.61000579596E-001 -5.45712232590E-001 -4.05838079751E-002 -1.21988998726E-002 -3.44897694049E-006 -1.46279471664E-005 -7.50800780952E-003 +7.95493647456E-002 
+5.81000000000E+009 -1.78651213646E-001 -5.49306869507E-001 -2.50329039991E-002 +3.48115749657E-002 +8.68880397320E-006 -2.09041581911E-006 +3.14740953036E-003 +8.03904682398E-002 
+6.01000000000E+009 -1.95729270577E-001 -5.51915884018E-001 +2.39776074886E-002 +3.51280197501E-002 -1.01733639895E-005 -6.45243517283E-006 +1.41311483458E-002 +8.23141634464E-002 
+6.21000000000E+009 -2.12581962347E-001 -5.54134905338E-001 +4.23405058682E-002 -1.14029347897E-002 +5.09853907715E-006 -9.15834607440E-006 +2.48374026269E-002 +8.19260925055E-002 
+6.41000000000E+009 -2.28663146496E-001 -5.55808305740E-001 +2.36615492031E-003 -4.39026579261E-002 -6.59625811750E-006 -1.42139879244E-005 +3.64491790533E-002 +8.00370126963E-002 
+6.61000000000E+009 -2.44738116860E-001 -5.56849658489E-001 -4.01981174946E-002 -1.63850802928E-002 -3.78880076823E-006 -6.54114001009E-006 +4.76558655500E-002 +7.48652294278E-002 
+6.81000000000E+009 -2.60337948799E-001 -5.57573795319E-001 -2.86894962192E-002 +3.36178019643E-002 -2.05673823075E-005 +3.14841736326E-006 +5.83491101861E-002 +6.88501521945E-002 
+7.01000000000E+009 -2.75375634432E-001 -5.57752668858E-001 +2.34166588634E-002 +3.68929654360E-002 +2.51282763202E-005 +7.67996516515E-006 +6.81446045637E-002 +6.28580898046E-002 
+7.21000000000E+009 -2.89989471436E-001 -5.57303667068E-001 +4.11385372281E-002 -9.99557040632E-003 -7.35832236387E-006 +7.70696715335E-006 +7.73831233382E-002 +5.41903004050E-002 
+7.41000000000E+009 -3.03917676210E-001 -5.57021617889E-001 +2.89490260184E-003 -4.21732887626E-002 -1.60442923516E-005 -8.44194437377E-006 +8.65571796894E-002 +4.38873320818E-002 
+7.61000000000E+009 -3.17039698362E-001 -5.55903077126E-001 -3.81243079901E-002 -1.44340116531E-002 -2.81389620795E-005 -1.17416593639E-005 +9.28901135921E-002 +3.18504944444E-002 
+7.81000000000E+009 -3.30354571342E-001 -5.54210543633E-001 -2.45127994567E-002 +2.98900268972E-002 +9.88777901512E-006 +6.13113206782E-006 +9.82356593013E-002 +1.96752771735E-002 
+8.01000000000E+009 -3.42652708292E-001 -5.52515327930E-001 +2.04927977175E-002 +3.14050428569E-002 -3.95965798816E-006 +1.49639536176E-005 +1.02022722363E-001 +5.91086549684E-003 
+8.21000000000E+009 -3.54765802622E-001 -5.50432860851E-001 +3.37150804698E-002 -9.43572539836E-003 +1.90253740584E-005 -1.08891372292E-005 +1.04182161391E-001 -8.31352360547E-003 
+8.41000000000E+009 -3.66423219442E-001 -5.47922194004E-001 +2.25713895634E-003 -3.25963124633E-002 +1.90375862985E-006 -1.36466851473E-005 +1.03562921286E-001 -2.35161148012E-002 
+8.61000000000E+009 -3.77827048302E-001 -5.45728683472E-001 -2.88431234658E-002 -1.18920691311E-002 -2.73061614280E-005 +2.34860799537E-005 +1.00231856108E-001 -3.88780012727E-002 
+8.81000000000E+009 -3.88529568911E-001 -5.43309569359E-001 -1.87519099563E-002 +2.18117367476E-002 -1.56861569849E-005 -4.47925958724E-006 +9.49759706855E-002 -5.43520376086E-002 
+9.01000000000E+009 -3.99079352617E-001 -5.40656268597E-001 +1.27843488008E-002 +2.33237016946E-002 -8.85263125383E-006 -5.78274284635E-006 +8.83851423860E-002 -6.81069791317E-002 
+9.21000000000E+009 -4.09238964319E-001 -5.37960052490E-001 +2.48140692711E-002 -4.02950355783E-003 +2.29110282817E-005 -1.78914451681E-005 +7.84706026316E-002 -8.28612297773E-002 
+9.41000000000E+009 -4.18662995100E-001 -5.35396039486E-001 +4.03257180005E-003 -2.26746425033E-002 +8.50699564126E-007 +1.02147932921E-005 +6.59815967083E-002 -9.63540375233E-002 
+9.61000000000E+009 -4.28049117327E-001 -5.32388925552E-001 -1.81537698954E-002 -1.10929580405E-002 +6.88263844495E-006 +4.36806840298E-006 +5.07491752505E-002 -1.08491308987E-001 
+9.81000000000E+009 -4.36752647161E-001 -5.30164480209E-001 -1.56973768026E-002 +1.23845674098E-002 +1.91440230992E-005 -2.53019188676E-005 +3.55119220912E-002 -1.17870144546E-001 
+1.00100000000E+010 -4.45880919695E-001 -5.27173519135E-001 +5.60180051252E-003 +1.75348706543E-002 -8.72090538451E-007 -2.27867053582E-006 +1.85915734619E-002 -1.25519707799E-001 
+1.02100000000E+010 -4.54086303711E-001 -5.23806869984E-001 +1.69685948640E-002 +1.28239055630E-003 +2.04984044103E-005 +6.57476311972E-006 +4.86073724460E-004 -1.32353395224E-001 
+1.04100000000E+010 -4.62333112955E-001 -5.21067917347E-001 +6.91204937175E-003 -1.45392380655E-002 +2.23555034609E-005 +7.71444138081E-006 -2.00333017856E-002 -1.37721195817E-001 
+1.06100000000E+010 -4.70288515091E-001 -5.18102824688E-001 -1.02122053504E-002 -1.07106389478E-002 +2.27838718274E-005 -2.64376321866E-005 -4.17361743748E-002 -1.40165179968E-001 
+1.08100000000E+010 -4.77135002613E-001 -5.15927433968E-001 -1.29122128710E-002 +4.92708664387E-003 +7.74052807628E-007 +1.16041092042E-005 -6.35414123535E-002 -1.39596179128E-001 
+1.10100000000E+010 -4.84417796135E-001 -5.13104677200E-001 -9.15008495213E-005 +1.31072634831E-002 -4.19032257923E-005 -1.40912716233E-005 -8.53531509638E-002 -1.36121988297E-001 
+1.12100000000E+010 -4.91048246622E-001 -5.11177420616E-001 +1.12787010148E-002 +4.46866173297E-003 +8.85342342372E-006 +2.46467079705E-005 -1.09134353697E-001 -1.29965916276E-001 
+1.14100000000E+010 -4.98069852591E-001 -5.08328139782E-001 +7.95476324856E-003 -8.12535546720E-003 -1.61667958309E-005 -6.89780245011E-006 -1.32115095854E-001 -1.19898527861E-001 
+1.16100000000E+010 -5.03482520580E-001 -5.05876064301E-001 -4.40142722800E-003 -9.89634357393E-003 +3.12718475470E-006 -1.32827362904E-005 -1.54194205999E-001 -1.06387712061E-001 
+1.18100000000E+010 -5.09364902973E-001 -5.03268897533E-001 -1.00351823494E-002 +4.08213585615E-004 -1.34266574605E-005 -1.03726397356E-005 -1.73504680395E-001 -8.94612222910E-002 
+1.20100000000E+010 -5.15224397182E-001 -5.00431239605E-001 -3.33110964857E-003 +8.84076207876E-003 +8.71460269991E-006 -7.96574022388E-006 -1.90499961376E-001 -7.01599344611E-002 
+1.22100000000E+010 -5.21224617958E-001 -4.97231096029E-001 +6.59513939172E-003 +6.09017815441E-003 -6.62151614961E-006 -1.39553521876E-005 -2.07662761211E-001 -4.83565032482E-002 
+1.24100000000E+010 -5.26580333710E-001 -4.94489192963E-001 +7.54585955292E-003 -3.62266646698E-003 +1.10636083264E-005 +1.05394190086E-006 -2.22389668226E-001 -2.32291091233E-002 
+1.26100000000E+010 -5.31772673130E-001 -4.91573661566E-001 -2.86509108264E-004 -7.83850718290E-003 -1.80190163519E-005 +3.36158768732E-006 -2.32413947582E-001 +4.37306426466E-003 
+1.28100000000E+010 -5.36939382553E-001 -4.88595604897E-001 -7.10325315595E-003 -2.55908863619E-003 +1.16638739200E-005 +3.66696372112E-006 -2.38828286529E-001 +3.32699455321E-002 
+1.30100000000E+010 -5.41909873486E-001 -4.84928190708E-001 -4.66157868505E-003 +5.18095819280E-003 -2.41088287112E-007 +1.65066321642E-005 -2.42548450828E-001 +6.31663724780E-002 
+1.32100000000E+010 -5.46493113041E-001 -4.81649160385E-001 +2.72817933001E-003 +6.05397252366E-003 +1.73109765456E-005 -1.10917517304E-005 -2.42990046740E-001 +9.46181192994E-002 
+1.34100000000E+010 -5.51150918007E-001 -4.77821171284E-001 +6.37543387711E-003 -2.19737514271E-004 +1.14525009849E-005 +3.10927534883E-005 -2.39421278238E-001 +1.26468837261E-001 
+1.36100000000E+010 -5.53853154182E-001 -4.74621444941E-001 +2.04871874303E-003 -5.57413278148E-003 +2.82868427348E-006 +8.42167628434E-006 -2.31370165944E-001 +1.59228056669E-001 
+1.38100000000E+010 -5.58596313000E-001 -4.72106605768E-001 -4.05357079580E-003 -3.88742750511E-003 +1.04983901110E-005 +3.67365501006E-005 -2.18317613006E-001 +1.90963223577E-001 
+1.40100000000E+010 -5.63245713711E-001 -4.69201624393E-001 -4.96220029891E-003 +2.16852151789E-003 +6.33801562344E-007 +1.06065263026E-005 -2.01706156135E-001 +2.21880763769E-001 
+1.42100000000E+010 -5.67349135876E-001 -4.66496974230E-001 +1.51797736180E-004 +5.08687505499E-003 -2.16528096644E-005 -1.90302193914E-006 -1.81244686246E-001 +2.53011852503E-001 
+1.44100000000E+010 -5.71760177612E-001 -4.63025301695E-001 +4.46993112564E-003 +1.82391481940E-003 -2.24728646572E-005 -9.17579654924E-006 -1.55732303858E-001 +2.81532973051E-001 
+1.46100000000E+010 -5.75073003769E-001 -4.60256457329E-001 +3.25154350139E-003 -3.29190073535E-003 -5.09001438331E-006 +1.05842973426E-005 -1.25042498112E-001 +3.06936055422E-001 
+1.48100000000E+010 -5.78150153160E-001 -4.55189496279E-001 -1.67324708309E-003 -4.00723423809E-003 -1.07757668957E-005 +9.99474832497E-006 -9.20478403568E-002 +3.28985154629E-001 
+1.50100000000E+010 -5.79460501671E-001 -4.54623818398E-001 -4.11203596741E-003 -1.11400047899E-004 +6.22520246907E-006 -6.29401483820E-007 -5.63848577440E-002 +3.48207861185E-001 
+1.52100000000E+010 -5.82029521465E-001 -4.54256564379E-001 -1.63475517184E-003 +3.66440392099E-003 -1.61776006280E-005 +1.87554030617E-006 -1.75802893937E-002 +3.63278388977E-001 
+1.54100000000E+010 -5.85394918919E-001 -4.52563196421E-001 +2.58412561379E-003 +2.74359597825E-003 -2.76592509181E-005 -8.21986941446E-006 +2.45412010700E-002 +3.73264461756E-001 
+1.56100000000E+010 -5.88849604130E-001 -4.49364155531E-001 +3.36111290380E-003 -1.16999249440E-003 +9.32316288527E-006 +1.30766011353E-005 +6.82922005653E-002 +3.77378165722E-001 
+1.58100000000E+010 -5.90078592300E-001 -4.49000090361E-001 +1.95633183466E-004 -3.46928718500E-003 +1.12497864393E-005 -6.01991678195E-006 +1.11834935844E-001 +3.78084927797E-001 
+1.60100000000E+010 -5.92333495617E-001 -4.47810977697E-001 -2.92043457739E-003 -1.42961321399E-003 +2.47663115260E-006 +4.79405207443E-006 +1.56856045127E-001 +3.73273789883E-001 
+1.62100000000E+010 -5.94516515732E-001 -4.46518808603E-001 -2.39248224534E-003 +1.99412996881E-003 +3.41014747391E-005 +7.82748372785E-007 +2.04156130552E-001 +3.63086313009E-001 
+1.64100000000E+010 -5.96403479576E-001 -4.45262610912E-001 +8.96375626326E-004 +2.89128557779E-003 -2.57329174929E-005 +4.39345058112E-006 +2.50941246748E-001 +3.46941351891E-001 
+1.66100000000E+010 -5.99942386150E-001 -4.44200575352E-001 +2.87988153286E-003 +2.66236980679E-004 +1.60053568834E-005 -1.30875523610E-005 +2.94766515493E-001 +3.23146432638E-001 
+1.68100000000E+010 -6.03157460690E-001 -4.42108809948E-001 +1.37944810558E-003 -2.40005389787E-003 -2.16165608435E-005 +3.01848886011E-005 +3.37670415640E-001 +2.95659303665E-001 
+1.70100000000E+010 -6.05225145817E-001 -4.40256118774E-001 -1.60690455232E-003 -2.13196175173E-003 +1.99054939003E-005 -2.35445040744E-005 +3.77527266741E-001 +2.64344990253E-001 
+1.72100000000E+010 -6.07754826546E-001 -4.38394218683E-001 -2.46836501174E-003 +6.51082023978E-004 +1.30790303956E-005 +3.66031454178E-005 +4.14877265692E-001 +2.25951865315E-001 
+1.74100000000E+010 -6.10777795315E-001 -4.36827033758E-001 -4.11714834627E-004 +2.39912280813E-003 -2.03799481824E-005 -1.00945283066E-006 +4.48105931282E-001 +1.83332026005E-001 
+1.76100000000E+010 -6.13475263119E-001 -4.35028463602E-001 +1.96289317682E-003 +1.29391404334E-003 +1.22974070109E-005 +4.03979584007E-006 +4.76085871458E-001 +1.37452334166E-001 
+1.78100000000E+010 -6.16585552692E-001 -4.33297932148E-001 +1.84216501657E-003 -1.25912507065E-003 -8.34616184875E-006 +2.06525073736E-005 +4.99773919582E-001 +8.88593196869E-002 
+1.80100000000E+010 -6.19188189507E-001 -4.31293815374E-001 -3.55048861820E-004 -2.10010702722E-003 +3.31498704327E-005 +1.32625609695E-005 +5.18813908100E-001 +3.76892946661E-002 
+1.82100000000E+010 -6.22134566307E-001 -4.29722845554E-001 -2.04280391335E-003 -4.52411099104E-004 +3.47784698533E-005 +4.51882224297E-005 +5.31890094280E-001 -1.67497135699E-002 
+1.84100000000E+010 -6.25000953674E-001 -4.28482562304E-001 -1.14967266563E-003 +1.63353967946E-003 +2.50231423706E-005 -1.37508470743E-006 +5.38258254528E-001 -7.39395245910E-002 
+1.86100000000E+010 -6.28310263157E-001 -4.26728755236E-001 +9.48733941186E-004 +1.60884740762E-003 -1.04037480924E-005 -9.98653376882E-006 +5.37999927998E-001 -1.30601063371E-001 
+1.88100000000E+010 -6.30920112133E-001 -4.24443602562E-001 +1.83145864867E-003 -2.70418706350E-004 +1.81543582585E-005 +2.40116387431E-005 +5.32096862793E-001 -1.86729088426E-001 
+1.90100000000E+010 -6.32732629776E-001 -4.22689974308E-001 +4.57638787339E-004 -1.70340319164E-003 -2.18242294068E-005 -6.89541275278E-006 +5.20657718182E-001 -2.42715343833E-001 
+1.92100000000E+010 -6.35111629963E-001 -4.21995192766E-001 -1.29968870897E-003 -1.10439315904E-003 -2.33915434364E-005 +4.84265656269E-005 +5.02848684788E-001 -2.99756079912E-001 
+1.94100000000E+010 -6.37960493565E-001 -4.20393675566E-001 -1.48065597750E-003 +7.33303430025E-004 +1.85166609299E-005 -3.96452451241E-005 +4.77511316538E-001 -3.54668408632E-001 
+1.96100000000E+010 -6.39216125011E-001 -4.18386459351E-001 +1.21757933812E-004 +1.56763975974E-003 -1.65502515301E-005 -2.43543945544E-005 +4.46868151426E-001 -4.06611889601E-001 
+1.98100000000E+010 -6.39174342155E-001 -4.15778070688E-001 +1.39098661020E-003 +5.24426170159E-004 +2.88991282105E-006 -3.74289338652E-005 +4.11972284317E-001 -4.53929007053E-001 
+2.00100000000E+010 -6.38726353645E-001 -4.14714485407E-001 +1.01295614149E-003 -1.10626523383E-003 -1.59125938808E-005 -4.78875481349E-005 +3.70273351669E-001 -5.00180244446E-001 
