!;Filter: kein Filter
!auto
!3/21/2019 9:26:52 AM
!3/21/2019 9:27:07 AM
!SP-Measurements Prober G4
!SP-Measurements Prober G4
!01103_448C
!134
!235
!12
!60
!-20
!0.00199954
!1.75
!0.22129449
!0.22129449
# Hz S  RI   R 50
+1.00000000000E+007 +3.03951889277E-001 +8.23105033487E-003 +5.23589141667E-002 -2.13103592396E-002 -1.79067297722E-004 +1.34007961606E-004 +5.29128639027E-003 +1.56246242113E-003 
+2.10000000000E+008 +3.19476455450E-001 -3.44105288386E-002 -4.21511521563E-003 -5.30852116644E-002 -3.14455210173E-005 -1.87903106053E-006 +8.71163606644E-003 -4.80150850490E-003 
+4.10000000000E+008 +3.17567169666E-001 -7.41369351745E-002 -4.99332286417E-002 -1.29691977054E-002 +1.65445235325E-005 -1.26963068396E-005 +1.00769177079E-002 -7.76387797669E-003 
+6.10000000000E+008 +3.11205685139E-001 -1.12187787890E-001 -2.88721323013E-002 +4.21804673970E-002 +2.38315169554E-005 +3.11668773065E-005 +9.66735370457E-003 -1.15419598296E-002 
+8.10000000000E+008 +3.00939470530E-001 -1.50210231543E-001 +2.79253181070E-002 +3.94197404385E-002 +1.05536155388E-005 +1.08107724373E-005 +7.19957519323E-003 -1.54510391876E-002 
+1.01000000000E+009 +2.88971394300E-001 -1.84359654784E-001 +4.76862750947E-002 -1.26564679667E-002 -2.77845483652E-005 +7.03657315171E-006 +2.82978150062E-003 -1.91761441529E-002 
+1.21000000000E+009 +2.74023324251E-001 -2.17584758997E-001 +5.10151125491E-003 -4.74050454795E-002 -2.67706059276E-006 +4.17795172325E-006 -1.78506970406E-003 -2.10280846804E-002 
+1.41000000000E+009 +2.57823109627E-001 -2.48710244894E-001 -4.19893078506E-002 -2.21343170851E-002 +4.91728860652E-006 -1.59221308422E-005 -7.54529284313E-003 -2.43289861828E-002 
+1.61000000000E+009 +2.41558715701E-001 -2.78164982796E-001 -3.60384546220E-002 +3.20080853999E-002 -1.38696650538E-005 +1.12017733045E-005 -1.35488836095E-002 -2.68254820257E-002 
+1.81000000000E+009 +2.22648128867E-001 -3.06218922138E-001 +1.65575966239E-002 +4.42439243197E-002 -6.36457207293E-006 -2.41253601416E-005 -1.78171657026E-002 -2.78949011117E-002 
+2.01000000000E+009 +2.03820407391E-001 -3.32024335861E-001 +4.78155948222E-002 +1.11870828550E-003 -7.07176332071E-006 +2.56392149822E-006 -2.30669938028E-002 -2.65493243933E-002 
+2.21000000000E+009 +1.84629872441E-001 -3.56779515743E-001 +1.84624884278E-002 -4.63670119643E-002 -5.99616532782E-006 +1.17334820970E-005 -2.87133846432E-002 -2.45156213641E-002 
+2.41000000000E+009 +1.63220137358E-001 -3.79914313555E-001 -3.64741161466E-002 -3.29744294286E-002 +3.18716979564E-006 +2.99993243971E-005 -3.53816524148E-002 -2.22096294165E-002 
+2.61000000000E+009 +1.42023578286E-001 -4.00769919157E-001 -4.50269430876E-002 +2.19620168209E-002 -2.22539219976E-005 +1.26181896576E-006 -4.07022014260E-002 -1.93927716464E-002 
+2.81000000000E+009 +1.21183030307E-001 -4.20534789562E-001 +6.07851054519E-003 +5.34437447786E-002 -1.36008993650E-005 +6.13266229266E-006 -4.46973070502E-002 -1.44729055464E-002 
+3.01000000000E+009 +9.85606685281E-002 -4.38724607229E-001 +5.15688359737E-002 +1.22369853780E-002 -1.04947057480E-005 +2.46571698881E-006 -4.84621040523E-002 -8.64383950830E-003 
+3.21000000000E+009 +7.67154395580E-002 -4.54753041267E-001 +3.21423448622E-002 -4.47296090424E-002 -2.31061894738E-005 +1.01331397673E-005 -5.23446835577E-002 -2.20406078734E-003 
+3.41000000000E+009 +5.60213252902E-002 -4.70747917891E-001 -3.68490815163E-002 -4.94535230100E-002 +2.56975381490E-005 -1.16080373118E-005 -5.52937053144E-002 +4.86051151529E-003 
+3.61000000000E+009 +3.32541354001E-002 -4.85219568014E-001 -5.71434348822E-002 +1.93595644087E-002 +2.24867853831E-005 -2.23313691095E-005 -5.71401752532E-002 +1.17054060102E-002 
+3.81000000000E+009 +1.16211073473E-002 -4.97365176678E-001 -3.22637683712E-003 +6.41494840384E-002 -6.10530059930E-006 -2.03622039407E-005 -5.69470226765E-002 +1.90896354616E-002 
+4.01000000000E+009 -9.04339831322E-003 -5.11087000370E-001 +7.20892772079E-002 +2.08574719727E-002 -5.30761462869E-006 +4.68821890536E-005 -5.58220297098E-002 +2.69432328641E-002 
+4.21000000000E+009 -3.23647074401E-002 -5.21440446377E-001 +3.74720804393E-002 -5.98559044302E-002 -3.42241150975E-006 +3.32457530021E-005 -5.39700873196E-002 +3.56239825487E-002 
+4.41000000000E+009 -5.34154735506E-002 -5.30764043331E-001 -4.78886403143E-002 -5.97531460226E-002 -1.00853469576E-006 +3.08896378556E-005 -5.08047081530E-002 +4.40987125039E-002 
+4.61000000000E+009 -7.67323523760E-002 -5.41678726673E-001 -7.21061527729E-002 +4.90493252873E-002 +2.43084468821E-005 -1.21372395370E-005 -4.65637184680E-002 +5.14400340617E-002 
+4.81000000000E+009 -9.91235524416E-002 -5.46443402767E-001 +2.24422793835E-002 +7.19663128257E-002 +9.46317015860E-007 +1.78297505045E-005 -3.99841666222E-002 +5.85966259241E-002 
+5.01000000000E+009 -1.20106376708E-001 -5.53028404713E-001 +8.06546062231E-002 -2.75475950912E-003 +1.06838670035E-005 -3.07011760015E-005 -3.33512388170E-002 +6.51753395796E-002 
+5.21000000000E+009 -1.43326759338E-001 -5.56777596474E-001 -2.43437848985E-003 -7.59057253599E-002 +1.68728111021E-005 +8.49089155963E-006 -2.58312653750E-002 +7.11063295603E-002 
+5.41000000000E+009 -1.61287739873E-001 -5.58798074722E-001 -5.85823096335E-002 -2.26125568151E-002 -1.52217962750E-005 +9.82729034149E-006 -1.70596316457E-002 +7.64636322856E-002 
+5.61000000000E+009 -1.80994823575E-001 -5.61906754971E-001 -3.71210463345E-002 +5.38994707167E-002 +3.45237231159E-006 -6.66529217597E-007 -7.50055816025E-003 +7.96055570245E-002 
+5.81000000000E+009 -1.98762103915E-001 -5.62031865120E-001 +3.84745523334E-002 +3.46268229187E-002 +9.63061575021E-006 +1.50969833612E-006 +3.16206063144E-003 +8.04436653852E-002 
+6.01000000000E+009 -2.14734777808E-001 -5.63581347466E-001 +4.17090244591E-002 -1.60106606781E-002 -1.98581456061E-005 -9.91728302324E-006 +1.41501789913E-002 +8.23469087481E-002 
+6.21000000000E+009 -2.31791555882E-001 -5.64305365086E-001 -5.93695230782E-003 -4.44726683199E-002 -1.61822354130E-005 +1.26121703943E-005 +2.48673893511E-002 +8.19517746568E-002 
+6.41000000000E+009 -2.46794700623E-001 -5.64314007759E-001 -3.42203751206E-002 -4.59443684667E-003 -1.09264010462E-005 -1.73423563865E-006 +3.64671573043E-002 +8.00350084901E-002 
+6.61000000000E+009 -2.62149065733E-001 -5.65048694611E-001 -1.79692693055E-002 +2.53387074918E-002 -3.12392643309E-007 +1.43029556057E-005 +4.77212555707E-002 +7.48871564865E-002 
+6.81000000000E+009 -2.77547240257E-001 -5.64848780632E-001 +1.95026975125E-002 +2.34727878124E-002 -2.02671035368E-005 +8.41234054860E-007 +5.83853237331E-002 +6.88106194139E-002 
+7.01000000000E+009 -2.91625499725E-001 -5.64352929592E-001 +2.25343517959E-002 -8.55250563473E-003 -1.65919047390E-007 +7.73439933255E-006 +6.82008489966E-002 +6.28745779395E-002 
+7.21000000000E+009 -3.05785864592E-001 -5.63870728016E-001 +2.65701417811E-003 -2.22075041384E-002 +2.62292396656E-005 -5.67588722333E-006 +7.74626731873E-002 +5.41331917048E-002 
+7.41000000000E+009 -3.19444179535E-001 -5.63073396683E-001 -1.99735220522E-002 -8.50081164390E-003 +1.09561497084E-005 -4.33308423453E-006 +8.66363346577E-002 +4.38782237470E-002 
+7.61000000000E+009 -3.32045346498E-001 -5.61773002148E-001 -1.22181009501E-002 +1.27586806193E-002 +1.21118284824E-006 +1.18921400372E-006 +9.29486826062E-002 +3.18208001554E-002 
+7.81000000000E+009 -3.45229297876E-001 -5.60082495213E-001 +5.43094892055E-003 +1.57696772367E-002 +5.16878003509E-007 -2.00957601919E-005 +9.82995554805E-002 +1.96693353355E-002 
+8.01000000000E+009 -3.57349157333E-001 -5.58100879192E-001 +1.61406956613E-002 -5.17979264259E-004 +2.74323738267E-005 -1.01198247648E-005 +1.02114982903E-001 +5.85695961490E-003 
+8.21000000000E+009 -3.69232475758E-001 -5.56040644646E-001 +4.58800094202E-003 -1.26343518496E-002 +3.07178925141E-005 +8.84539167600E-006 +1.04215510190E-001 -8.38091969490E-003 
+8.41000000000E+009 -3.80872875452E-001 -5.53485214710E-001 -8.78258049488E-003 -9.39830485731E-003 -1.59277187777E-005 -1.36139342430E-005 +1.03629715741E-001 -2.35702265054E-002 
+8.61000000000E+009 -3.92195045948E-001 -5.51147580147E-001 -1.12112415954E-002 +5.27211977169E-003 +1.23711870401E-005 +1.69127724803E-005 +1.00280292332E-001 -3.89727465808E-002 
+8.81000000000E+009 -4.02931749821E-001 -5.48692822456E-001 +5.18161454238E-004 +1.05318119749E-002 -4.61204217572E-006 +5.19688046552E-006 +9.50367972255E-002 -5.44098429382E-002 
+9.01000000000E+009 -4.13560837507E-001 -5.45985043049E-001 +9.28012281656E-003 +4.09882701933E-003 -2.36095820583E-006 +1.57946815307E-005 +8.83952602744E-002 -6.81993886828E-002 
+9.21000000000E+009 -4.23793822527E-001 -5.43208301067E-001 +6.59353891388E-003 -7.20853172243E-003 -1.17160743685E-005 +1.04353302959E-005 +7.85168558359E-002 -8.29467475414E-002 
+9.41000000000E+009 -4.33295398951E-001 -5.40521144867E-001 -3.57911898755E-003 -7.65330437571E-003 +2.81763618659E-006 +1.71757637872E-005 +6.59614056349E-002 -9.64199528098E-002 
+9.61000000000E+009 -4.42786812782E-001 -5.37415027618E-001 -8.13821330667E-003 -1.83475582162E-004 +3.25461223838E-006 +1.17585182124E-006 +5.07203415036E-002 -1.08597755432E-001 
+9.81000000000E+009 -4.51609849930E-001 -5.35022556782E-001 -2.76121567003E-003 +7.34293274581E-003 -1.50596761159E-005 +3.37522978953E-005 +3.55096049607E-002 -1.17930643260E-001 
+1.00100000000E+010 -4.60841208696E-001 -5.31910896301E-001 +4.98206680641E-003 +4.73409425467E-003 -1.12219704533E-005 -2.47329680860E-005 +1.85604821891E-002 -1.25561997294E-001 
+1.02100000000E+010 -4.69194978476E-001 -5.28414189816E-001 +6.26169145107E-003 -2.31247348711E-003 +1.72320051206E-005 -2.03015006264E-005 +4.40951058408E-004 -1.32477611303E-001 
+1.04100000000E+010 -4.77515161037E-001 -5.25480985641E-001 -4.49327526439E-005 -6.40570558608E-003 +1.59051061210E-009 +1.62769192684E-005 -2.00885422528E-002 -1.37766778469E-001 
+1.06100000000E+010 -4.85600262880E-001 -5.22368609905E-001 -5.26457699016E-003 -2.13412498124E-003 +1.49893194248E-005 +2.40030658460E-005 -4.18308489025E-002 -1.40213742852E-001 
+1.08100000000E+010 -4.92528975010E-001 -5.19961953163E-001 -4.12870151922E-003 +3.70351457968E-003 -2.11953556573E-005 +6.45014915790E-006 -6.36636763811E-002 -1.39644056559E-001 
+1.10100000000E+010 -4.99890804291E-001 -5.16926169395E-001 +1.99513789266E-003 +4.94456151500E-003 +6.21976141701E-008 -8.89900911716E-006 -8.54568406940E-002 -1.36130869389E-001 
+1.12100000000E+010 -5.06541013718E-001 -5.14767110348E-001 +4.76682186127E-003 +9.63848797255E-005 -4.53825396107E-006 -4.86803537569E-006 -1.09251543880E-001 -1.29919126630E-001 
+1.14100000000E+010 -5.13669908047E-001 -5.11866450310E-001 +2.05524591729E-003 -4.15473058820E-003 -1.24280632008E-005 +1.76498288056E-005 -1.32213220000E-001 -1.19850456715E-001 
+1.16100000000E+010 -5.19159376621E-001 -5.09213745594E-001 -3.04935965687E-003 -3.30741354264E-003 +1.81708946911E-005 -2.90935372504E-006 -1.54316455126E-001 -1.06345944107E-001 
+1.18100000000E+010 -5.25190174580E-001 -5.06585121155E-001 -3.80010274239E-003 +1.36170862243E-003 +8.27564235806E-007 +1.54151948664E-005 -1.73646464944E-001 -8.93849879503E-002 
+1.20100000000E+010 -5.31211733818E-001 -5.03530204296E-001 -3.98673524614E-004 +3.96348908544E-003 +1.50308187585E-005 -3.24964057654E-005 -1.90566495061E-001 -7.01010227203E-002 
+1.22100000000E+010 -5.37346720695E-001 -5.00260472298E-001 +3.40941920877E-003 +1.68631458655E-003 -2.12312897929E-005 -6.40730240775E-006 -2.07738801837E-001 -4.83203604817E-002 
+1.24100000000E+010 -5.42880058289E-001 -4.97321963310E-001 +2.63793999329E-003 -2.24155909382E-003 +1.43465686051E-005 -9.95417121885E-006 -2.22502276301E-001 -2.31090914458E-002 
+1.26100000000E+010 -5.48333466053E-001 -4.94351536036E-001 -8.96314333659E-004 -3.26539017260E-003 +3.03933429677E-005 +4.10503298554E-006 -2.32421755791E-001 +4.49100555852E-003 
+1.28100000000E+010 -5.53633272648E-001 -4.91192162037E-001 -3.23797599413E-003 -3.39670223184E-004 -2.76738228422E-005 -2.02738865482E-005 -2.38877892494E-001 +3.34018543363E-002 
+1.30100000000E+010 -5.58806777000E-001 -4.87489372492E-001 -1.44031911623E-003 +2.58862785995E-003 -9.30926489673E-006 -2.07180655707E-005 -2.42517590523E-001 +6.33228197694E-002 
+1.32100000000E+010 -5.63721358776E-001 -4.84092235565E-001 +1.71610841062E-003 +2.38945963793E-003 -2.41712405114E-005 -1.29021473185E-005 -2.42941379547E-001 +9.47207510471E-002 
+1.34100000000E+010 -5.68717718124E-001 -4.80080693960E-001 +2.67880386673E-003 -6.92890142091E-004 -2.19209232455E-005 -1.27016619444E-005 -2.39366456866E-001 +1.26614376903E-001 
+1.36100000000E+010 -5.71622610092E-001 -4.76656347513E-001 +3.78549273591E-004 -2.54523078911E-003 -9.88241117739E-006 +3.60944068234E-005 -2.31288135052E-001 +1.59388720989E-001 
+1.38100000000E+010 -5.76617836952E-001 -4.73962038755E-001 -2.09260149859E-003 -1.38094904833E-003 +8.21859430289E-006 -7.14888165021E-006 -2.18222543597E-001 +1.91153526306E-001 
+1.40100000000E+010 -5.81482529640E-001 -4.70820099115E-001 -2.03567068093E-003 +1.42276706174E-003 -1.66323650319E-006 -6.87092915541E-006 -2.01569750905E-001 +2.22027361393E-001 
+1.42100000000E+010 -5.85917592049E-001 -4.67784404755E-001 +4.68908343464E-004 +2.17640772462E-003 -1.83685697266E-005 -9.28404006117E-006 -1.81069001555E-001 +2.53145813942E-001 
+1.44100000000E+010 -5.90577483177E-001 -4.64156746864E-001 +2.11887178011E-003 +5.06197742652E-004 -6.07204447078E-006 +1.02965050246E-005 -1.55436858535E-001 +2.81667083502E-001 
+1.46100000000E+010 -5.94173967838E-001 -4.61083710194E-001 +1.21541810222E-003 -1.74362305552E-003 -2.04000152735E-005 +4.00492581321E-006 -1.24755658209E-001 +3.07010799646E-001 
+1.48100000000E+010 -5.97776234150E-001 -4.55631494522E-001 -1.04432145599E-003 -1.65106961504E-003 +1.58184193424E-005 +2.31349076785E-005 -9.17612090707E-002 +3.28986197710E-001 
+1.50100000000E+010 -5.99239706993E-001 -4.54598397017E-001 -1.88224727754E-003 +2.17488035560E-004 +4.46865760750E-006 +9.13814074011E-006 -5.61240650713E-002 +3.48182588816E-001 
+1.52100000000E+010 -6.02115452290E-001 -4.53838318586E-001 -4.92684077471E-004 +1.78476644214E-003 -1.76809844561E-005 +7.25017844161E-006 -1.73582546413E-002 +3.63251894712E-001 
+1.54100000000E+010 -6.05776131153E-001 -4.51677560806E-001 +1.35268631857E-003 +1.07766466681E-003 -6.19647380518E-006 -6.28539555692E-006 +2.48612128198E-002 +3.73194992542E-001 
+1.56100000000E+010 -6.09536528587E-001 -4.47924345732E-001 +1.48396263830E-003 -7.39491486456E-004 -3.11262774630E-005 +2.99581614627E-007 +6.86132907867E-002 +3.77307206392E-001 
+1.58100000000E+010 -6.10820412636E-001 -4.46901112795E-001 -1.31799766677E-004 -1.61186698824E-003 -4.18980926042E-005 +1.70553230419E-005 +1.12154163420E-001 +3.77926528454E-001 
+1.60100000000E+010 -6.13139390945E-001 -4.45222765207E-001 -1.43962108996E-003 -4.80372604216E-004 -2.96339221677E-005 -1.11017679956E-005 +1.57165482640E-001 +3.73123735189E-001 
+1.62100000000E+010 -6.15423679352E-001 -4.43496614695E-001 -1.01316499058E-003 +1.07604451478E-003 +2.30596415349E-005 +1.73980406544E-005 +2.04451665282E-001 +3.62843960524E-001 
+1.64100000000E+010 -6.17532372475E-001 -4.41724985838E-001 +6.21668645181E-004 +1.29249482416E-003 +2.06579879887E-005 -8.97018162505E-006 +2.51143544912E-001 +3.46610516310E-001 
+1.66100000000E+010 -6.21059238911E-001 -4.39783215523E-001 +1.35781010613E-003 -4.59255970782E-005 -1.83873016795E-005 +1.52809134306E-005 +2.94849723577E-001 +3.22779744864E-001 
+1.68100000000E+010 -6.24172687531E-001 -4.37159687281E-001 +5.08172786795E-004 -1.19141640607E-003 +1.30058515424E-005 -1.52092752614E-005 +3.37723344564E-001 +2.95340508223E-001 
+1.70100000000E+010 -6.26042127609E-001 -4.34816718102E-001 -8.69500159752E-004 -8.66120739374E-004 -1.76375142473E-005 +1.04967793959E-005 +3.77639979124E-001 +2.64054268599E-001 
+1.72100000000E+010 -6.28370881081E-001 -4.32443171740E-001 -1.11987569835E-003 +4.88678400870E-004 +2.56504463323E-005 -3.70610287064E-005 +4.15006458759E-001 +2.25562915206E-001 
+1.74100000000E+010 -6.31256699562E-001 -4.30349409580E-001 -1.47505170389E-005 +1.16795790382E-003 -3.61199181498E-006 +3.60179160452E-006 +4.48158204556E-001 +1.82758152485E-001 
+1.76100000000E+010 -6.33791446686E-001 -4.27914977074E-001 +9.97592112981E-004 +4.51636267826E-004 -5.33171987627E-006 +1.96692726604E-005 +4.76068437099E-001 +1.36944696307E-001 
+1.78100000000E+010 -6.36654794216E-001 -4.25661712885E-001 +7.88747449405E-004 -7.28715793230E-004 -1.26422291942E-005 -8.29741838970E-006 +4.99594926834E-001 +8.82816463709E-002 
+1.80100000000E+010 -6.38924658298E-001 -4.23202961683E-001 -3.22218693327E-004 -9.98100615107E-004 -2.38151551457E-005 -1.24901025629E-005 +5.18649101257E-001 +3.72041761875E-002 
+1.82100000000E+010 -6.41478121281E-001 -4.21217828989E-001 -1.00497028325E-003 -1.15534210636E-004 +2.86955546471E-005 +1.02504245660E-005 +5.31589150429E-001 -1.72022823244E-002 
+1.84100000000E+010 -6.44104123116E-001 -4.19428259134E-001 -4.21904784162E-004 +8.10302153695E-004 +7.54405573389E-006 +1.67243592841E-006 +5.37960708141E-001 -7.43320137262E-002 
+1.86100000000E+010 -6.46955192089E-001 -4.17331218719E-001 +5.17605512869E-004 +7.23988399841E-004 +5.13622362632E-005 -1.55132620421E-005 +5.37650287151E-001 -1.30935817957E-001 
+1.88100000000E+010 -6.49286329746E-001 -4.14806842804E-001 +8.45480535645E-004 -2.07682271139E-004 -4.73499483178E-007 +8.08541517472E-006 +5.31695306301E-001 -1.87091171741E-001 
+1.90100000000E+010 -6.50868117809E-001 -4.12936776876E-001 +1.28179599415E-004 -8.07510106824E-004 -3.58328798029E-005 +1.13487385534E-005 +5.20218193531E-001 -2.42988362908E-001 
+1.92100000000E+010 -6.53077304363E-001 -4.11844700575E-001 -6.68017892167E-004 -4.86642704345E-004 -3.53874679604E-006 +1.41412174344E-005 +5.02362668514E-001 -3.00002694130E-001 
+1.94100000000E+010 -6.55663788319E-001 -4.09769296646E-001 -7.17015529517E-004 +4.34663175838E-004 +1.03899537862E-005 -3.44578256772E-005 +4.76928085089E-001 -3.54752629995E-001 
+1.96100000000E+010 -6.56475365162E-001 -4.07352298498E-001 +1.07354251668E-004 +7.34839763027E-004 -5.16639011039E-005 -1.90842711163E-005 +4.46220844984E-001 -4.06625419855E-001 
+1.98100000000E+010 -6.55711352825E-001 -4.04377341270E-001 +7.18853669241E-004 +1.77899390110E-004 -8.84502333065E-006 -1.52383677232E-006 +4.11338806152E-001 -4.53867584467E-001 
+2.00100000000E+010 -6.54672324657E-001 -4.03727322817E-001 +4.28003404522E-004 -5.81781961955E-004 +2.44984603341E-005 +2.32915808738E-005 +3.69664371014E-001 -5.00114142895E-001 
