!;Filter: kein Filter
!auto
!3/21/2019 9:26:52 AM
!3/21/2019 9:27:07 AM
!SP-Measurements Prober G4
!SP-Measurements Prober G4
!
!134
!237
!12
!20
!-20
!0.00199954
!1.75
!0.22129449
!0.22129449
# Hz S  RI   R 50
+1.00000000000E+007 +3.66430103779E-001 +8.60142521560E-003 +5.09705059230E-002 -2.21052113920E-002 -3.63946775906E-004 +7.06175167579E-004 +5.13821700588E-003 +1.19177286979E-003 
+2.10000000000E+008 +3.75418633223E-001 -3.99210825562E-002 -3.03484220058E-003 -5.24213314056E-002 +6.12101484876E-006 +3.13298151013E-005 +9.02882497758E-003 -4.39320923761E-003 
+4.10000000000E+008 +3.71585607529E-001 -8.11009109020E-002 -4.97906766832E-002 -1.53248850256E-002 -2.95214813377E-005 +2.94436667900E-005 +1.00654624403E-002 -7.22064310685E-003 
+6.10000000000E+008 +3.65025401115E-001 -1.20935544372E-001 -3.08143030852E-002 +4.22440953553E-002 -2.90503012366E-005 +3.07172522298E-005 +9.43828281015E-003 -1.14601757377E-002 
+8.10000000000E+008 +3.55018049479E-001 -1.60290136933E-001 +2.92471852154E-002 +4.21555638313E-002 +6.77548268868E-006 +2.81582179014E-005 +6.89519150183E-003 -1.53056466952E-002 
+1.01000000000E+009 +3.42112749815E-001 -1.97438269854E-001 +4.98633980751E-002 -1.22166955844E-002 -1.57974282047E-005 -9.12475479709E-006 +2.95410095714E-003 -1.88768524677E-002 
+1.21000000000E+009 +3.27658176422E-001 -2.33809277415E-001 +2.95966421254E-003 -5.01994490623E-002 -1.00979259514E-005 -8.11174118098E-007 -1.75400741864E-003 -2.11444459856E-002 
+1.41000000000E+009 +3.09273421764E-001 -2.68663018942E-001 -4.30026613176E-002 -1.96858420968E-002 -1.35551454150E-006 +9.32293642109E-006 -7.67706986517E-003 -2.42523606867E-002 
+1.61000000000E+009 +2.90427178144E-001 -3.00130248070E-001 -3.49973477423E-002 +3.27211432159E-002 -1.00001752799E-005 -6.55513440506E-006 -1.37091865763E-002 -2.69019063562E-002 
+1.81000000000E+009 +2.69428938627E-001 -3.29944342375E-001 +1.81559138000E-002 +4.23838086426E-002 +2.82844825961E-006 +1.94123567780E-005 -1.78033392876E-002 -2.79129892588E-002 
+2.01000000000E+009 +2.48138636351E-001 -3.56899261475E-001 +4.56084422767E-002 +1.01882265881E-003 -1.52322518261E-005 +9.69608299783E-006 -2.30118595064E-002 -2.68506594002E-002 
+2.21000000000E+009 +2.26780280471E-001 -3.82351815701E-001 +1.88921447843E-002 -4.54956926405E-002 -7.95446430857E-006 -6.80828179611E-006 -2.89330724627E-002 -2.47398409992E-002 
+2.41000000000E+009 +2.03538313508E-001 -4.06144440174E-001 -3.56020331383E-002 -3.22972685099E-002 -4.27913028034E-006 +1.33353660203E-005 -3.56273390353E-002 -2.24033314735E-002 
+2.61000000000E+009 +1.80757611990E-001 -4.27396267653E-001 -4.52530868351E-002 +2.05464269966E-002 +1.69772119989E-005 -9.99097937893E-006 -4.07438725233E-002 -1.93156786263E-002 
+2.81000000000E+009 +1.57898589969E-001 -4.47698235512E-001 +5.17381960526E-003 +5.27840293944E-002 +3.26500667143E-005 +8.37884363136E-006 -4.46889512241E-002 -1.44658759236E-002 
+3.01000000000E+009 +1.33638083935E-001 -4.65757369995E-001 +4.94389943779E-002 +1.39926457778E-002 -2.41609814111E-005 +1.40569572977E-005 -4.85391579568E-002 -8.75836238265E-003 
+3.21000000000E+009 +1.10366865993E-001 -4.81943815947E-001 +3.50057557225E-002 -4.30860370398E-002 +1.96598921320E-005 -1.41188984344E-005 -5.26189431548E-002 -2.34306813218E-003 
+3.41000000000E+009 +8.76039788127E-002 -4.97750431299E-001 -3.45742739737E-002 -5.10178394616E-002 -1.59453320521E-005 +1.66287063621E-005 -5.56008145213E-002 +4.87722083926E-003 
+3.61000000000E+009 +6.40350878239E-002 -5.11568248272E-001 -6.02576471865E-002 +1.45347900689E-002 +1.07621681309E-005 +1.32006998683E-005 -5.73424398899E-002 +1.18033960462E-002 
+3.81000000000E+009 +4.12469655275E-002 -5.24269819260E-001 -7.07099493593E-003 +6.99756368995E-002 -2.74152316706E-005 -1.09478751256E-005 -5.72873763740E-002 +1.92924663424E-002 
+4.01000000000E+009 +1.81897263974E-002 -5.37094771862E-001 +7.40049779415E-002 +2.38831546158E-002 -1.19144806376E-005 -1.35002510433E-005 -5.62494434416E-002 +2.73169577122E-002 
+4.21000000000E+009 -5.18934754655E-003 -5.46813666821E-001 +4.72351126373E-002 -6.17940649390E-002 -1.24926536955E-005 +1.11545987238E-005 -5.42830601335E-002 +3.60205657780E-002 
+4.41000000000E+009 -2.79172658920E-002 -5.57096779346E-001 -5.58289922774E-002 -6.95465728641E-002 -4.00460476158E-006 +2.46408653766E-005 -5.11543750763E-002 +4.43438962102E-002 
+4.61000000000E+009 -5.22544309497E-002 -5.65946519375E-001 -8.04066136479E-002 +4.83088083565E-002 -2.81898392132E-005 +2.08709207072E-005 -4.68563660979E-002 +5.16323409975E-002 
+4.81000000000E+009 -7.58479982615E-002 -5.72447180748E-001 +2.78746802360E-002 +9.10908430815E-002 -6.34998605165E-006 +5.75559488425E-006 -4.03925627470E-002 +5.89130930603E-002 
+5.01000000000E+009 -1.00239984691E-001 -5.77627718449E-001 +9.12808701396E-002 -1.96496136487E-002 -4.97444898429E-006 +2.23249048759E-006 -3.38371247053E-002 +6.56056404114E-002 
+5.21000000000E+009 -1.22599169612E-001 -5.80482482910E-001 -6.54633156955E-003 -8.30901041627E-002 +1.33353978526E-005 +1.25026326714E-005 -2.62395106256E-002 +7.16617554426E-002 
+5.41000000000E+009 -1.43100142479E-001 -5.82813441753E-001 -7.47103914618E-002 -1.39478752390E-002 -1.28584024424E-005 +1.66461941262E-005 -1.73776801676E-002 +7.67513811588E-002 
+5.61000000000E+009 -1.63438826799E-001 -5.84206938744E-001 -2.40102689713E-002 +6.16963542998E-002 -2.75356869679E-005 +8.31282159197E-006 -7.52166006714E-003 +7.99135342240E-002 
+5.81000000000E+009 -1.81654214859E-001 -5.85428893566E-001 +4.29078042507E-002 +3.52103114128E-002 +2.55637678492E-006 +5.19098057339E-006 +3.05464444682E-003 +8.09655860066E-002 
+6.01000000000E+009 -1.99568524957E-001 -5.86192190647E-001 +4.24694083631E-002 -2.73875873536E-002 -3.35888535119E-006 +1.33796256705E-005 +1.42560517415E-002 +8.26902762055E-002 
+6.21000000000E+009 -2.17151507735E-001 -5.86403012276E-001 -1.34894484654E-002 -4.10308614373E-002 -3.43338660969E-006 -1.42647195389E-005 +2.51858066767E-002 +8.21609348059E-002 
+6.41000000000E+009 -2.33662962914E-001 -5.86391687393E-001 -3.63043621182E-002 -1.36884371750E-003 +1.33294124680E-005 +1.46932961798E-005 +3.66103164852E-002 +8.02045017481E-002 
+6.61000000000E+009 -2.50320434570E-001 -5.86032629013E-001 -1.21360113844E-002 +2.93807089329E-002 -7.98252767709E-006 -8.01574242359E-006 +4.77613024414E-002 +7.53236114979E-002 
+6.81000000000E+009 -2.66166001558E-001 -5.85374295712E-001 +2.02886089683E-002 +1.86733957380E-002 +1.86161389593E-006 +2.21669379243E-005 +5.88408559561E-002 +6.95437863469E-002 
+7.01000000000E+009 -2.81447619200E-001 -5.84663987160E-001 +2.21344437450E-002 -1.00672645494E-002 +1.63370568771E-005 +1.73403952886E-006 +6.89686164260E-002 +6.32134079933E-002 
+7.21000000000E+009 -2.96573340893E-001 -5.83238184452E-001 -9.82303405181E-004 -2.22145337611E-002 +1.69210270542E-005 +3.61117542980E-007 +7.80650898814E-002 +5.45392744243E-002 
+7.41000000000E+009 -3.10947060585E-001 -5.81937849522E-001 -1.91460903734E-002 -6.24261051416E-003 -5.36833522347E-006 -1.07324485725E-005 +8.71070623398E-002 +4.43965494633E-002 
+7.61000000000E+009 -3.24554264545E-001 -5.79981267452E-001 -1.15752536803E-002 +1.41108771786E-002 +6.71797488394E-006 +1.48617607465E-006 +9.36931967735E-002 +3.22946682572E-002 
+7.81000000000E+009 -3.38449895382E-001 -5.77421307564E-001 +7.88673758507E-003 +1.43519891426E-002 +1.23570252981E-005 -7.25659538148E-006 +9.89280939102E-002 +1.98022108525E-002 
+8.01000000000E+009 -3.51353555918E-001 -5.74763178825E-001 +1.46836051717E-002 -1.76129618194E-003 +2.45674618782E-005 +6.12196663496E-006 +1.02567337453E-001 +6.14548986778E-003 
+8.21000000000E+009 -3.63831251860E-001 -5.71699261665E-001 +3.55907040648E-003 -1.29277426749E-002 +1.62085052580E-005 -2.28792050621E-005 +1.04776225984E-001 -7.96976312995E-003 
+8.41000000000E+009 -3.75883758068E-001 -5.68379163742E-001 -9.51877795160E-003 -7.65602244064E-003 -1.05078152046E-005 +4.65728498966E-006 +1.04374617338E-001 -2.32531689107E-002 
+8.61000000000E+009 -3.87799620628E-001 -5.65420091152E-001 -1.00858127698E-002 +5.42741781101E-003 -8.98811413208E-006 +2.75354432233E-006 +1.01058781147E-001 -3.88766676188E-002 
+8.81000000000E+009 -3.99124473333E-001 -5.62208831310E-001 +1.25362642575E-003 +1.05927120894E-002 -2.59883508988E-005 -2.57896317635E-005 +9.56624224782E-002 -5.44192753732E-002 
+9.01000000000E+009 -4.10042762756E-001 -5.58685600758E-001 +9.39295720309E-003 +2.67514516599E-003 -1.55689758685E-005 -1.47911860040E-005 +8.89241918921E-002 -6.84943422675E-002 
+9.21000000000E+009 -4.20595675707E-001 -5.55250465870E-001 +5.69781707600E-003 -7.18056829646E-003 -2.14990795939E-005 -4.26247788710E-006 +7.89410397410E-002 -8.33966210485E-002 
+9.41000000000E+009 -4.30486708879E-001 -5.51855266094E-001 -4.19843196869E-003 -7.25221959874E-003 -1.82900439540E-005 +7.63639127399E-006 +6.62870779634E-002 -9.70657169819E-002 
+9.61000000000E+009 -4.40361618996E-001 -5.48083901405E-001 -7.61411804706E-003 +7.97885470092E-004 +4.58329805042E-006 -2.00830781978E-005 +5.09554184973E-002 -1.09126575291E-001 
+9.81000000000E+009 -4.49313223362E-001 -5.44796526432E-001 -2.21029692329E-003 +6.93926494569E-003 -2.26690881391E-005 +2.68234798568E-005 +3.57047095895E-002 -1.18462599814E-001 
+1.00100000000E+010 -4.58313614130E-001 -5.41110992432E-001 +5.28094964102E-003 +4.32668253779E-003 -1.88228314073E-005 +2.06550721487E-005 +1.89086906612E-002 -1.26426279545E-001 
+1.02100000000E+010 -4.66841906309E-001 -5.37360966206E-001 +5.66379120573E-003 -2.77448585257E-003 +2.78606585198E-005 -1.67587950273E-005 +6.29386864603E-004 -1.33541956544E-001 
+1.04100000000E+010 -4.75562870502E-001 -5.33883929253E-001 -4.05893049901E-004 -6.10627001151E-003 +2.52170411841E-006 -1.91407991679E-007 -2.00988166034E-002 -1.39011934400E-001 
+1.06100000000E+010 -4.83844548464E-001 -5.29984772205E-001 -5.42907090858E-003 -1.69793725945E-003 +2.19564863073E-005 -3.63450963050E-005 -4.19477261603E-002 -1.41506806016E-001 
+1.08100000000E+010 -4.91036683321E-001 -5.26903033257E-001 -3.49626224488E-003 +3.92283592373E-003 +2.24128143600E-006 +2.87599777948E-005 -6.37958347797E-002 -1.41051709652E-001 
+1.10100000000E+010 -4.98607039452E-001 -5.23025870323E-001 +2.15371605009E-003 +4.53882385045E-003 -3.24667635141E-005 +2.63735273620E-005 -8.59747827053E-002 -1.37416169047E-001 
+1.12100000000E+010 -5.05633056164E-001 -5.20030200481E-001 +4.65808482841E-003 -2.72547447821E-004 +3.73725288227E-006 +3.38606769219E-005 -1.09871096909E-001 -1.30868136883E-001 
+1.14100000000E+010 -5.12562274933E-001 -5.16160011292E-001 +1.57493678853E-003 -4.06508333981E-003 -1.59833200541E-006 -2.63752372121E-005 -1.32885128260E-001 -1.20475865901E-001 
+1.16100000000E+010 -5.18400251865E-001 -5.12937605381E-001 -3.05710197426E-003 -3.00627574325E-003 -2.02154496947E-005 -1.98954944608E-006 -1.54690101743E-001 -1.07127323747E-001 
+1.18100000000E+010 -5.24782180786E-001 -5.09507834911E-001 -3.63194663078E-003 +1.64787622634E-003 -6.65858669890E-006 -2.00328713618E-006 -1.74452200532E-001 -9.03861671686E-002 
+1.20100000000E+010 -5.31365334988E-001 -5.05555331707E-001 +1.24336374938E-005 +3.73034831136E-003 +5.88081002206E-006 -8.36470189824E-006 -1.91800609231E-001 -7.09290429950E-002 
+1.22100000000E+010 -5.37776708603E-001 -5.01311540604E-001 +3.32637922838E-003 +1.36115984060E-003 -8.43690122565E-006 -1.58417533385E-005 -2.09266766906E-001 -4.87544015050E-002 
+1.24100000000E+010 -5.43577134609E-001 -4.97590482235E-001 +2.30792118236E-003 -2.44297110476E-003 -1.30978614834E-005 +7.39552388040E-006 -2.23932847381E-001 -2.31271665543E-002 
+1.26100000000E+010 -5.49386382103E-001 -4.93790566921E-001 -1.09327293467E-003 -2.92481086217E-003 +6.23685355094E-006 -9.22910567169E-006 -2.33958780766E-001 +4.59125544876E-003 
+1.28100000000E+010 -5.54738461971E-001 -4.89764213562E-001 -3.09429084882E-003 -1.34372196044E-004 +1.16450664791E-005 -2.49862478086E-005 -2.40343526006E-001 +3.37755754590E-002 
+1.30100000000E+010 -5.59907257557E-001 -4.85438704491E-001 -1.19466346223E-003 +2.62306304649E-003 -1.55934849317E-005 -1.32094635319E-006 -2.43927910924E-001 +6.36663809419E-002 
+1.32100000000E+010 -5.64753115177E-001 -4.81634140015E-001 +1.77136005368E-003 +2.09363317117E-003 +5.48171328774E-006 +9.69746452029E-006 -2.44207620621E-001 +9.53207090497E-002 
+1.34100000000E+010 -5.69778680801E-001 -4.77044552565E-001 +2.58994800970E-003 -8.32808262203E-004 +4.57928854303E-006 +3.13447199005E-005 -2.40682274103E-001 +1.27064153552E-001 
+1.36100000000E+010 -5.72828650475E-001 -4.72981125116E-001 +1.13956608402E-004 -2.47535877861E-003 +9.69722896116E-006 +5.97524058321E-006 -2.32918739319E-001 +1.60012274981E-001 
+1.38100000000E+010 -5.77690839767E-001 -4.69370692968E-001 -2.03966069967E-003 -1.11819291487E-003 +1.87003706742E-006 +1.36821563501E-005 -2.19838514924E-001 +1.92321687937E-001 
+1.40100000000E+010 -5.82026064396E-001 -4.65645968914E-001 -1.76382320933E-003 +1.45628873724E-003 -1.60070328548E-007 +6.04403703619E-006 -2.03049883246E-001 +2.23654940724E-001 
+1.42100000000E+010 -5.86198210716E-001 -4.62218165398E-001 +6.03665073868E-004 +2.01684632339E-003 +3.21383777191E-005 -1.62439100677E-005 -1.82288691401E-001 +2.55049854517E-001 
+1.44100000000E+010 -5.90331256390E-001 -4.58187282085E-001 +1.99721171521E-003 +3.39442514814E-004 -1.82039457286E-005 -9.43089798966E-006 -1.56404033303E-001 +2.83701837063E-001 
+1.46100000000E+010 -5.93620896339E-001 -4.54801440239E-001 +1.05678511318E-003 -1.71350128949E-003 +3.71972532776E-006 -1.79342328011E-006 -1.25585585833E-001 +3.09222757816E-001 
+1.48100000000E+010 -5.97004532814E-001 -4.49158698320E-001 -1.11570442095E-003 -1.48162164260E-003 +3.26963781845E-005 +2.91168930744E-007 -9.25899967551E-002 +3.31110060215E-001 
+1.50100000000E+010 -5.98362743855E-001 -4.47597533464E-001 -1.76073086914E-003 +3.49003297742E-004 -6.45421550871E-006 -1.42252392834E-005 -5.70476055145E-002 +3.50402355194E-001 
+1.52100000000E+010 -6.00841760635E-001 -4.46277230978E-001 -3.26441455400E-004 +1.71886605676E-003 -1.44122213896E-005 -1.45917556438E-006 -1.81940477341E-002 +3.65790039301E-001 
+1.54100000000E+010 -6.03810906410E-001 -4.43564653397E-001 +1.34495296516E-003 +8.95278295502E-004 -1.01155856100E-005 +1.48211597661E-006 +2.43935883045E-002 +3.75872612000E-001 
+1.56100000000E+010 -6.06814324856E-001 -4.39920336008E-001 +1.38738704845E-003 -7.89757701568E-004 +1.10765486170E-005 +1.14267822937E-005 +6.86559304595E-002 +3.80065411329E-001 
+1.58100000000E+010 -6.07486963272E-001 -4.38916236162E-001 -2.56187195191E-004 -1.56173470896E-003 +9.50551384449E-006 +1.04057244243E-005 +1.12811267376E-001 +3.80332171917E-001 
+1.60100000000E+010 -6.09348773956E-001 -4.37666684389E-001 -1.38514197897E-003 -3.69768589735E-004 -2.10897014767E-005 +7.70569749875E-006 +1.58296272159E-001 +3.75240772963E-001 
+1.62100000000E+010 -6.11215174198E-001 -4.36160027981E-001 -8.87209491339E-004 +1.08863227069E-003 -1.96408091142E-005 -1.22682740766E-006 +2.05804824829E-001 +3.64800751209E-001 
+1.64100000000E+010 -6.13105773926E-001 -4.34649050236E-001 +6.73973408993E-004 +1.21768645477E-003 -1.75050827238E-005 +8.90023329703E-006 +2.52771377563E-001 +3.48324835300E-001 
+1.66100000000E+010 -6.16132974625E-001 -4.32623594999E-001 +1.26944528893E-003 -1.24205733300E-004 -4.25060278531E-007 +1.53194323502E-005 +2.96711564064E-001 +3.24663460255E-001 
+1.68100000000E+010 -6.18908166885E-001 -4.30141508579E-001 +4.28556348197E-004 -1.17967929691E-003 -8.85423014552E-006 +2.72494453384E-005 +3.40010792017E-001 +2.97423183918E-001 
+1.70100000000E+010 -6.20160400867E-001 -4.28269147873E-001 -9.24929452594E-004 -8.15547013190E-004 -3.71035821445E-006 -5.08279435962E-006 +3.80525738001E-001 +2.66037911177E-001 
+1.72100000000E+010 -6.22077941895E-001 -4.26621645689E-001 -9.91929788142E-004 +5.08797995280E-004 +7.36000970392E-007 -9.91539309325E-007 +4.18332248926E-001 +2.27434113622E-001 
+1.74100000000E+010 -6.25279724598E-001 -4.24908161163E-001 +1.00680654214E-005 +1.08944543172E-003 -6.78356354911E-006 +2.24984637498E-006 +4.51786220074E-001 +1.83996811509E-001 
+1.76100000000E+010 -6.28178358078E-001 -4.22846525908E-001 +1.01352785714E-003 +4.02321136789E-004 -2.34592935158E-005 -2.34136059589E-005 +4.79484796524E-001 +1.37756273150E-001 
+1.78100000000E+010 -6.31162941456E-001 -4.20678734779E-001 +6.72731373925E-004 -7.28791987058E-004 +7.45586658013E-006 +1.28373230837E-005 +5.02909898758E-001 +8.91171395779E-002 
+1.80100000000E+010 -6.33487582207E-001 -4.18395280838E-001 -3.31783725414E-004 -9.20246238820E-004 -1.33736766657E-005 -1.14698523248E-005 +5.22041440010E-001 +3.76272201538E-002 
+1.82100000000E+010 -6.36385321617E-001 -4.16336596012E-001 -9.27273707930E-004 -7.35719777367E-006 +2.92447002721E-005 +7.35475714464E-006 +5.34469425678E-001 -1.71037353575E-002 
+1.84100000000E+010 -6.39247179031E-001 -4.14443582296E-001 -3.84006241802E-004 +7.97374406829E-004 +4.50991465186E-005 +2.73713544630E-006 +5.40722548962E-001 -7.43957012892E-002 
+1.86100000000E+010 -6.41897618771E-001 -4.12369489670E-001 +5.28830161784E-004 +6.90687389579E-004 -5.09363735546E-006 +1.84448672371E-005 +5.40812253952E-001 -1.31168857217E-001 
+1.88100000000E+010 -6.44311428070E-001 -4.10307437181E-001 +7.85254058428E-004 -2.63076915871E-004 -1.04263908725E-005 +1.01132436612E-005 +5.35233199596E-001 -1.88150405884E-001 
+1.90100000000E+010 -6.46539688110E-001 -4.08622115850E-001 +7.30471583665E-005 -7.75609281845E-004 +1.26341556097E-005 -2.79060677713E-005 +5.23750603199E-001 -2.44938075542E-001 
+1.92100000000E+010 -6.49637639523E-001 -4.07053828239E-001 -6.59112294670E-004 -3.86946368963E-004 -7.49006221668E-006 -1.90500286408E-005 +5.04879534245E-001 -3.02787095308E-001 
+1.94100000000E+010 -6.52576744556E-001 -4.03844088316E-001 -5.91344898567E-004 +4.57404763438E-004 +5.20096955370E-006 +2.88486808131E-005 +4.79271620512E-001 -3.57798218727E-001 
+1.96100000000E+010 -6.53069555759E-001 -4.01199519634E-001 +1.44830293721E-004 +7.01825250871E-004 -3.16167243000E-005 +6.18811418462E-006 +4.48350161314E-001 -4.09691393375E-001 
+1.98100000000E+010 -6.52230203152E-001 -3.98405820131E-001 +6.93927227985E-004 +1.28843137645E-004 -2.62553439825E-005 -2.66374736384E-005 +4.14194673300E-001 -4.57030028105E-001 
+2.00100000000E+010 -6.51480495930E-001 -3.97963792086E-001 +3.60552425263E-004 -5.42675144970E-004 +6.60867499391E-006 -3.48709982063E-005 +3.71897459030E-001 -5.03941059113E-001 
