!;Filter: kein Filter
!auto
!3/21/2019 9:27:54 AM
!3/21/2019 9:28:10 AM
!SP-Measurements Prober G4
!SP-Measurements Prober G4
!
!134
!237
!12
!20
!-20
!0.00599970
!2.02
!0.74959551
!0.74959551
# Hz S  RI   R 50
+1.00000000000E+007 +1.49097904563E-001 +1.54872210696E-002 +5.35221770406E-002 -2.13740933686E-002 -4.45072073489E-005 -4.57434798591E-004 +4.90510137752E-003 +1.41434092075E-003 
+2.10000000000E+008 +1.75109878182E-001 -2.25194506347E-002 -3.55788157322E-004 -5.38908094168E-002 +1.26822924358E-004 -2.07434077311E-005 +9.05740447342E-003 -4.34871576726E-003 
+4.10000000000E+008 +1.75194635987E-001 -5.26111237705E-002 -5.11282719672E-002 -2.08361558616E-002 +1.06730345578E-004 -1.86710094567E-005 +1.01085929200E-002 -7.27643119171E-003 
+6.10000000000E+008 +1.72478273511E-001 -8.16653296351E-002 -3.64504680037E-002 +4.04774583876E-002 +1.78985210368E-005 +3.40460646839E-005 +9.36909019947E-003 -1.14478021860E-002 
+8.10000000000E+008 +1.66783750057E-001 -1.09992466867E-001 +2.41826213896E-002 +4.92757968605E-002 +1.73132466443E-005 +4.70441736979E-005 +6.83873426169E-003 -1.52642168105E-002 
+1.01000000000E+009 +1.59512802958E-001 -1.36838525534E-001 +5.62753975391E-002 -5.30377775431E-003 +1.39151352414E-005 +9.85089536698E-006 +2.89778714068E-003 -1.88170950860E-002 
+1.21000000000E+009 +1.51257112622E-001 -1.62981837988E-001 +1.41659742221E-002 -5.34636974335E-002 +6.98155326972E-006 +2.02139708563E-005 -1.78054592106E-003 -2.10810787976E-002 
+1.41000000000E+009 +1.41022339463E-001 -1.88677981496E-001 -4.46771979332E-002 -3.27996909618E-002 +6.97622408552E-006 +2.00079921342E-005 -7.71835027263E-003 -2.41657309234E-002 
+1.61000000000E+009 +1.30341574550E-001 -2.12881579995E-001 -4.67074140906E-002 +3.07539682835E-002 +1.14526228572E-005 -2.47950920311E-005 -1.37146674097E-002 -2.68281828612E-002 
+1.81000000000E+009 +1.18025332689E-001 -2.36172243953E-001 +1.19104394689E-002 +5.33893890679E-002 -6.76498257235E-006 +2.07400739782E-006 -1.78162027150E-002 -2.78467070311E-002 
+2.01000000000E+009 +1.05320386589E-001 -2.58515328169E-001 +5.40454462171E-002 +8.74532572925E-003 +7.84680287325E-006 -1.51681915668E-005 -2.30015292764E-002 -2.67564076930E-002 
+2.21000000000E+009 +9.12683010101E-002 -2.80146867037E-001 +2.72078569978E-002 -4.80065904558E-002 -3.25360383613E-006 -2.41470406763E-005 -2.89165247232E-002 -2.46985275298E-002 
+2.41000000000E+009 +7.64660164714E-002 -2.99939185381E-001 -3.43041718006E-002 -4.18828092515E-002 -6.38376013740E-006 -1.81134073500E-005 -3.55791039765E-002 -2.22777146846E-002 
+2.61000000000E+009 +6.12919032574E-002 -3.18598866463E-001 -5.18104359508E-002 +1.64661202580E-002 -2.25817552746E-006 -7.23285154436E-007 -4.06963713467E-002 -1.92228239030E-002 
+2.81000000000E+009 +4.54197116196E-002 -3.36251050234E-001 -2.68068839796E-003 +5.43918162584E-002 +2.25915227929E-005 -1.92329043784E-005 -4.46125157177E-002 -1.43970353529E-002 
+3.01000000000E+009 +2.88122463971E-002 -3.52626949549E-001 +4.89268079400E-002 +2.20794957131E-002 -1.96698019863E-005 -3.41679492522E-006 -4.84015755355E-002 -8.71407892555E-003 
+3.21000000000E+009 +1.20821297169E-002 -3.67809712887E-001 +3.88585105538E-002 -3.76079678535E-002 +2.06457207241E-005 +2.64827376668E-005 -5.25043047965E-002 -2.32223724015E-003 
+3.41000000000E+009 -4.52722236514E-003 -3.81762236357E-001 -2.16571483761E-002 -4.96096573770E-002 +2.22601420319E-006 +2.81894117506E-005 -5.54945170879E-002 +4.92496928200E-003 
+3.61000000000E+009 -2.14245710522E-002 -3.94844442606E-001 -5.36217354238E-002 +1.85589853209E-003 -1.01749162695E-006 -4.39366021965E-006 -5.71873411536E-002 +1.18561657146E-002 
+3.81000000000E+009 -3.86794060469E-002 -4.06658440828E-001 -1.80331654847E-002 +5.12146055698E-002 +2.35112838709E-005 +1.26132351852E-006 -5.71550466120E-002 +1.92813817412E-002 
+4.01000000000E+009 -5.56331314147E-002 -4.17782932520E-001 +4.14681956172E-002 +3.47744897008E-002 -1.39266858241E-005 -1.70965813595E-006 -5.61298839748E-002 +2.73113027215E-002 
+4.21000000000E+009 -7.26081803441E-002 -4.27680790424E-001 +4.74454201758E-002 -2.55240965635E-002 +3.30877310262E-006 -6.37188486508E-006 -5.42069710791E-002 +3.59104722738E-002 
+4.41000000000E+009 -8.92328321934E-002 -4.36648249626E-001 -6.62886165082E-003 -5.42502887547E-002 +2.00094177671E-006 -2.44235943683E-005 -5.10350093246E-002 +4.42623570561E-002 
+4.61000000000E+009 -1.05985894799E-001 -4.44967418909E-001 -5.30014708638E-002 -1.30074936897E-002 +8.71035695127E-007 +6.22483867119E-006 -4.67465780675E-002 +5.15376031399E-002 
+4.81000000000E+009 -1.22834831476E-001 -4.52537566423E-001 -3.18506099284E-002 +4.46172393858E-002 -4.32129090768E-005 +1.68848291651E-005 -4.02952656150E-002 +5.88066391647E-002 
+5.01000000000E+009 -1.39077365398E-001 -4.59436953068E-001 +3.08158528060E-002 +4.66769672930E-002 -4.37481958215E-006 -1.77616425390E-006 -3.37868370116E-002 +6.54643476009E-002 
+5.21000000000E+009 -1.54895603657E-001 -4.65901523829E-001 +5.47922141850E-002 -1.24327335507E-002 +2.79654705082E-005 +1.46972013226E-006 -2.62076873332E-002 +7.15001374483E-002 
+5.41000000000E+009 -1.70752465725E-001 -4.71653550863E-001 +8.54458194226E-003 -5.62853850424E-002 -1.10040446089E-005 -6.32294904790E-006 -1.73461679369E-002 +7.65415430069E-002 
+5.61000000000E+009 -1.86563432217E-001 -4.76564317942E-001 -5.09387925267E-002 -2.82570868731E-002 +1.01112536868E-005 +1.63994263858E-005 -7.54070281982E-003 +7.97651186585E-002 
+5.81000000000E+009 -2.01659888029E-001 -4.80821043253E-001 -4.44797910750E-002 +3.80636192858E-002 +1.14574040708E-005 -1.42995540955E-005 +3.00192856230E-003 +8.07435587049E-002 
+6.01000000000E+009 -2.16359108686E-001 -4.84474956989E-001 +2.00310703367E-002 +5.64127005637E-002 +2.71962417173E-005 -5.10067707182E-007 +1.42187504098E-002 +8.24827328324E-002 
+6.21000000000E+009 -2.31161266565E-001 -4.87730383873E-001 +6.14747293293E-002 +1.09143518785E-004 +3.02883709082E-005 -1.32224122353E-005 +2.51004137099E-002 +8.19647163153E-002 
+6.41000000000E+009 -2.45197787881E-001 -4.90203768015E-001 +2.11861152202E-002 -5.81982843578E-002 -3.04475815938E-006 -1.04815717350E-005 +3.64712812006E-002 +8.00473093987E-002 
+6.61000000000E+009 -2.59387075901E-001 -4.92343664169E-001 -4.88341860473E-002 -4.09511104226E-002 -1.50454516188E-005 +6.11188852417E-006 +4.75895106792E-002 +7.51873850822E-002 
+6.81000000000E+009 -2.72919714451E-001 -4.93994951248E-001 -5.53018897772E-002 +3.39578501880E-002 -8.05229683465E-006 +2.12069903682E-006 +5.86670264602E-002 +6.94010108709E-002 
+7.01000000000E+009 -2.86080598831E-001 -4.95553255081E-001 +1.35802403092E-002 +6.35772868991E-002 -1.34514129968E-005 -5.05498019265E-006 +6.87525123358E-002 +6.30859062076E-002 
+7.21000000000E+009 -2.99004793167E-001 -4.96211409569E-001 +6.63253590465E-002 +7.92784150690E-003 +3.63457620551E-005 -8.26253381092E-006 +7.78245478868E-002 +5.44636584818E-002 
+7.41000000000E+009 -3.11596006155E-001 -4.97692495584E-001 +2.76574417949E-002 -6.10092207789E-002 +5.26071471540E-006 +1.77375623025E-005 +8.68614166975E-002 +4.43508662283E-002 
+7.61000000000E+009 -3.23195695877E-001 -4.97502654791E-001 -4.85546998680E-002 -4.59021218121E-002 +7.96035601525E-006 +3.05199719151E-005 +9.34374481440E-002 +3.22977378964E-002 
+7.81000000000E+009 -3.35362911224E-001 -4.97070133686E-001 -5.92379532754E-002 +3.30925509334E-002 -1.77156198333E-006 -2.95475797429E-006 +9.86771807075E-002 +1.98309421539E-002 
+8.01000000000E+009 -3.46599221230E-001 -4.96349036694E-001 +1.41937173903E-002 +6.46431669593E-002 -1.67922917171E-006 +5.20645744473E-006 +1.02290242910E-001 +6.21470343322E-003 
+8.21000000000E+009 -3.57661962509E-001 -4.95695054531E-001 +6.45890906453E-002 +6.96425186470E-003 +3.87063573726E-006 -8.44062196848E-006 +1.04548446834E-001 -7.85897113383E-003 
+8.41000000000E+009 -3.68316054344E-001 -4.94379401207E-001 +2.50514559448E-002 -5.89715801179E-002 -2.40385770667E-006 +1.56095156854E-005 +1.04138150811E-001 -2.31064837426E-002 
+8.61000000000E+009 -3.78953546286E-001 -4.93478000164E-001 -4.86352518201E-002 -3.96139733493E-002 -3.88088028558E-006 -1.67996622622E-005 +1.00839830935E-001 -3.87038663030E-002 
+8.81000000000E+009 -3.89041453600E-001 -4.92235600948E-001 -4.84904646873E-002 +3.21584120393E-002 +6.43191924610E-006 -1.22485889733E-005 +9.54869464040E-002 -5.42102307081E-002 
+9.01000000000E+009 -3.98892819881E-001 -4.90748912096E-001 +1.46657032892E-002 +5.20825833082E-002 -6.03826856604E-006 -1.67419148056E-005 +8.87530893087E-002 -6.81983381510E-002 
+9.21000000000E+009 -4.08432126045E-001 -4.89229768515E-001 +4.98507358134E-002 +3.23838531040E-003 +5.42502311873E-006 +2.90204275188E-006 +7.87775591016E-002 -8.30652341247E-002 
+9.41000000000E+009 -4.17504936457E-001 -4.88139808178E-001 +1.86369270086E-002 -4.39250171185E-002 -2.06338722819E-006 +2.58804197983E-006 +6.61291927099E-002 -9.67366397381E-002 
+9.61000000000E+009 -4.26489740610E-001 -4.85960483551E-001 -3.31790708005E-002 -2.89114303887E-002 -2.81434986391E-005 -4.43000826635E-005 +5.08387535810E-002 -1.08796894550E-001 
+9.81000000000E+009 -4.34644311666E-001 -4.84457612038E-001 -3.56727577746E-002 +1.90473515540E-002 -3.79313605663E-005 -1.33070052470E-005 +3.57125326991E-002 -1.18120133877E-001 
+1.00100000000E+010 -4.42976117134E-001 -4.82321381569E-001 +5.38193434477E-003 +3.81172709167E-002 -1.96779928956E-005 +6.83869029672E-006 +1.89597960562E-002 -1.26070648432E-001 
+1.02100000000E+010 -4.50842529535E-001 -4.80202585459E-001 +3.46651412547E-002 +6.99776504189E-003 +2.52711670328E-005 -2.70225382337E-006 +7.25340854842E-004 -1.33205771446E-001 
+1.04100000000E+010 -4.59118276834E-001 -4.78671818972E-001 +1.79680678993E-002 -2.75883208960E-002 -1.92014795175E-005 +1.72709023900E-005 -1.99170634151E-002 -1.38631731272E-001 
+1.06100000000E+010 -4.66796904802E-001 -4.76016491652E-001 -1.87161788344E-002 -2.50052232295E-002 -1.13121395771E-005 -1.80517952231E-006 -4.17860448360E-002 -1.41171932220E-001 
+1.08100000000E+010 -4.73619818687E-001 -4.74955379963E-001 -2.74028219283E-002 +8.09131842107E-003 -1.14536178444E-005 -6.89633861839E-006 -6.35349527001E-002 -1.40752032399E-001 
+1.10100000000E+010 -4.80867832899E-001 -4.72595542669E-001 -2.73635471240E-003 +2.66147181392E-002 +5.75900412514E-006 -1.33383455250E-005 -8.56595113873E-002 -1.37127563357E-001 
+1.12100000000E+010 -4.87499028444E-001 -4.70898121595E-001 +2.26613488048E-002 +1.12417889759E-002 -7.03086107023E-006 -1.91083054233E-005 -1.09526202083E-001 -1.30644217134E-001 
+1.14100000000E+010 -4.94197398424E-001 -4.68627214432E-001 +1.72810535878E-002 -1.55733879656E-002 -1.79450544238E-005 -4.24459994974E-006 -1.32499352098E-001 -1.20304621756E-001 
+1.16100000000E+010 -4.99722361565E-001 -4.66755002737E-001 -7.36609473825E-003 -2.07438450307E-002 +7.30830970497E-006 +5.29298358742E-006 -1.54245510697E-001 -1.07020013034E-001 
+1.18100000000E+010 -5.05997836590E-001 -4.64856177568E-001 -2.09094025195E-002 -5.03424031194E-004 -3.10621317112E-006 -3.26770896208E-005 -1.73928990960E-001 -9.03244465590E-002 
+1.20100000000E+010 -5.12229144573E-001 -4.61744040251E-001 -7.50146573409E-003 +1.77616197616E-002 -2.69729389402E-005 +4.87908710056E-006 -1.91304817796E-001 -7.09167495370E-002 
+1.22100000000E+010 -5.18596589565E-001 -4.59134310484E-001 +1.28333605826E-002 +1.31143415347E-002 +1.30150910991E-005 +2.35874031205E-005 -2.08729594946E-001 -4.88405637443E-002 
+1.24100000000E+010 -5.24389445782E-001 -4.56989616156E-001 +1.59187968820E-002 -6.92834565416E-003 +1.42478538692E-005 +1.45476985836E-006 -2.23458826542E-001 -2.32821255922E-002 
+1.26100000000E+010 -5.30007481575E-001 -4.54257994890E-001 -2.75530270301E-004 -1.60348750651E-002 -1.00240913525E-006 -2.26830252359E-005 -2.33524903655E-001 +4.35400288552E-003 
+1.28100000000E+010 -5.35279870033E-001 -4.51385349035E-001 -1.42877800390E-002 -5.76426880434E-003 -1.90178525372E-005 -3.27476845996E-005 -2.39949673414E-001 +3.34792509675E-002 
+1.30100000000E+010 -5.40329456329E-001 -4.47804152966E-001 -9.91714932024E-003 +1.06263803318E-002 +4.30032241638E-006 -1.13655842142E-005 -2.43537262082E-001 +6.32985830307E-002 
+1.32100000000E+010 -5.45599877834E-001 -4.45989876986E-001 +5.48234209418E-003 +1.23388068751E-002 -1.80175302376E-005 -2.10326319916E-007 -2.43857964873E-001 +9.48991626501E-002 
+1.34100000000E+010 -5.50519108772E-001 -4.42569017410E-001 +1.30278365687E-002 -2.98316881526E-004 -8.97508743947E-006 +2.01015893708E-007 -2.40454286337E-001 +1.26582190394E-001 
+1.36100000000E+010 -5.53262352943E-001 -4.38881188631E-001 +4.17876616120E-003 -1.15303024650E-002 +1.20495014926E-005 -9.73238911683E-006 -2.32694789767E-001 +1.59500002861E-001 
+1.38100000000E+010 -5.58039903641E-001 -4.36051756144E-001 -8.34836531430E-003 -7.84880388528E-003 -1.13965661512E-005 +4.42566397396E-006 -2.19766020775E-001 +1.91756278276E-001 
+1.40100000000E+010 -5.62633335590E-001 -4.33533340693E-001 -1.01096061990E-002 +4.50788484886E-003 -2.87101302092E-005 -6.16504894424E-006 -2.03018188477E-001 +2.23090365529E-001 
+1.42100000000E+010 -5.66697061062E-001 -4.30747509003E-001 +4.81307070004E-004 +1.03598926216E-002 +1.02467665783E-005 -4.48230239272E-005 -1.82352021337E-001 +2.54424154758E-001 
+1.44100000000E+010 -5.71210622787E-001 -4.28012251854E-001 +9.13556665182E-003 +3.52440355346E-003 +2.41822690441E-005 +1.40195943459E-005 -1.56564489007E-001 +2.83159077168E-001 
+1.46100000000E+010 -5.74482440948E-001 -4.25337612629E-001 +6.56140549108E-003 -6.84492476285E-003 -1.83501233550E-005 -1.96308610612E-006 -1.25882223248E-001 +3.08714658022E-001 
+1.48100000000E+010 -5.78902542591E-001 -4.21906441450E-001 -3.67576791905E-003 -8.09335056692E-003 +1.21237853818E-005 +3.01827731164E-006 -9.29631292820E-002 +3.30661296844E-001 
+1.50100000000E+010 -5.79557359219E-001 -4.19919997454E-001 -8.44846572727E-003 +1.19044634630E-004 +3.17302037729E-005 -7.78667345003E-006 -5.74887804687E-002 +3.49901318550E-001 
+1.52100000000E+010 -5.82274019718E-001 -4.19296175241E-001 -3.01651703194E-003 +7.52110127360E-003 +9.07642606762E-006 -2.81932298094E-005 -1.86724234372E-002 +3.65371912718E-001 
+1.54100000000E+010 -5.85535764694E-001 -4.17575359344E-001 +5.47987548634E-003 +5.30326552689E-003 +1.98369507416E-005 +4.83077155877E-006 +2.38298550248E-002 +3.75535160303E-001 
+1.56100000000E+010 -5.88973462582E-001 -4.14901286364E-001 +6.75454642624E-003 -2.68399505876E-003 -1.94851804736E-006 -1.18436164485E-005 +6.80205523968E-002 +3.79781484604E-001 
+1.58100000000E+010 -5.89643239975E-001 -4.14358079433E-001 +8.01374480943E-005 -7.04823480919E-003 +6.24046606390E-006 +1.92378251995E-007 +1.12130366266E-001 +3.80123049021E-001 
+1.60100000000E+010 -5.92509210110E-001 -4.14472937584E-001 -6.11505610868E-003 -2.64056888409E-003 -5.61681008548E-006 +9.88903138932E-006 +1.57571196556E-001 +3.75115722418E-001 
+1.62100000000E+010 -5.94023644924E-001 -4.12966519594E-001 -4.70661884174E-003 +4.29577333853E-003 +3.11564108415E-005 -1.26542208818E-005 +2.05107748508E-001 +3.64804148674E-001 
+1.64100000000E+010 -5.95611155033E-001 -4.11778330803E-001 +2.14825291187E-003 +5.80641115084E-003 -5.11482676302E-006 +2.61287641479E-006 +2.52071082592E-001 +3.48493576050E-001 
+1.66100000000E+010 -5.98908960819E-001 -4.10334795713E-001 +5.82744320855E-003 +2.31883444940E-004 -2.91800606647E-005 -3.95629140257E-005 +2.96016156673E-001 +3.24927210808E-001 
+1.68100000000E+010 -6.02073788643E-001 -4.08635288477E-001 +2.48346501030E-003 -5.03968214616E-003 +1.70140119735E-005 +2.31745743804E-005 +3.39350312948E-001 +2.97782689333E-001 
+1.70100000000E+010 -6.03137671947E-001 -4.06976252794E-001 -3.59168928117E-003 -4.05957270414E-003 +1.43697043313E-005 -2.82266337308E-005 +3.79837810993E-001 +2.66454577446E-001 
+1.72100000000E+010 -6.05300664902E-001 -4.05871957541E-001 -4.84570115805E-003 +1.61423615646E-003 +1.33648791234E-005 -2.86444956146E-005 +4.17775928974E-001 +2.28034660220E-001 
+1.74100000000E+010 -6.08680665493E-001 -4.04643207788E-001 -4.48309641797E-004 +4.90157864988E-003 +4.76604145661E-005 -2.26098763960E-005 +4.51267540455E-001 +1.84620499611E-001 
+1.76100000000E+010 -6.11685514450E-001 -4.03005748987E-001 +4.21750312671E-003 +2.18650978059E-003 +3.86216925108E-005 -3.22356063407E-005 +4.79030638933E-001 +1.38558015227E-001 
+1.78100000000E+010 -6.14740967751E-001 -4.01312828064E-001 +3.50631657057E-003 -2.83145508729E-003 -9.35636307986E-006 -3.52739916707E-005 +5.02650380135E-001 +8.99008587003E-002 
+1.80100000000E+010 -6.17370247841E-001 -3.99478286505E-001 -1.12061307300E-003 -4.22904174775E-003 -7.19000468052E-007 -1.02175999928E-005 +5.21792173386E-001 +3.84460054338E-002 
+1.82100000000E+010 -6.20663642883E-001 -3.98026555777E-001 -4.12950152531E-003 -5.34854712896E-004 +2.65357120952E-005 -1.22368044231E-006 +5.34360587597E-001 -1.62308942527E-002 
+1.84100000000E+010 -6.23592972755E-001 -3.96653324366E-001 -2.03147926368E-003 +3.42874648049E-003 +1.01274122244E-006 -3.59845435014E-005 +5.40723264217E-001 -7.35739022493E-002 
+1.86100000000E+010 -6.26600980759E-001 -3.94954413176E-001 +2.18299217522E-003 +3.14484001137E-003 +1.14377653517E-005 +2.44010834649E-006 +5.40938436985E-001 -1.30320593715E-001 
+1.88100000000E+010 -6.29068970680E-001 -3.93229514360E-001 +3.64766875282E-003 -7.93664483353E-004 -2.74715625892E-006 +1.64824195963E-005 +5.35457372665E-001 -1.87301114202E-001 
+1.90100000000E+010 -6.31393373013E-001 -3.91953051090E-001 +6.64105522446E-004 -3.49663686939E-003 -6.86170187691E-006 -3.03745366637E-007 +5.24113774300E-001 -2.44068369269E-001 
+1.92100000000E+010 -6.34592056274E-001 -3.90826433897E-001 -2.84707918763E-003 -1.98494479991E-003 +1.55721263582E-005 +8.05999570730E-006 +5.05409717560E-001 -3.02017748356E-001 
+1.94100000000E+010 -6.37795090675E-001 -3.88176143169E-001 -2.78761703521E-003 +1.78117223550E-003 -1.58203765750E-005 +3.21765264744E-006 +4.80001598597E-001 -3.57056707144E-001 
+1.96100000000E+010 -6.38562500477E-001 -3.85910004377E-001 +4.74639062304E-004 +3.13407485373E-003 -3.33002662956E-006 -1.07200399668E-007 +4.49132114649E-001 -4.09140974283E-001 
+1.98100000000E+010 -6.37767076492E-001 -3.83349835873E-001 +2.97131552361E-003 +8.08108015917E-004 -2.78170718957E-005 +4.04892634833E-005 +4.15076047182E-001 -4.56491321325E-001 
+2.00100000000E+010 -6.37278854847E-001 -3.83300334215E-001 +1.84811674990E-003 -2.31924024411E-003 -3.07894406433E-005 -3.80476230930E-005 +3.72926443815E-001 -5.03513991833E-001 
