!;Filter: kein Filter
!auto
!3/21/2019 9:27:39 AM
!3/21/2019 9:27:53 AM
!SP-Measurements Prober G4
!SP-Measurements Prober G4
!
!134
!233
!12
!20
!-20
!0.00499992
!1.96
!0.64375220
!0.64375220
# Hz S  RI   R 50
+1.00000000000E+007 +2.89106786251E-001 +7.02211959288E-003 +3.38089913130E-002 -1.30726890638E-002 +1.55145724420E-004 +4.65668475954E-004 +4.47329971939E-003 +7.38509697840E-004 
+2.10000000000E+008 +3.09053599834E-001 -2.56812255830E-002 -1.69625959825E-003 -3.45592126250E-002 -2.00806680368E-005 -1.35743528062E-006 +8.99747386575E-003 -4.41076187417E-003 
+4.10000000000E+008 +3.11365246773E-001 -6.14153333008E-002 -3.23688350618E-002 -1.04273678735E-002 -2.85294681817E-005 -4.18710296799E-005 +1.00355939940E-002 -7.30404537171E-003 
+6.10000000000E+008 +3.09116691351E-001 -9.70935747027E-002 -2.03387551010E-002 +2.63954009861E-002 -6.88661293680E-006 -1.60828458320E-005 +9.35633759946E-003 -1.14688258618E-002 
+8.10000000000E+008 +3.03004860878E-001 -1.32441297174E-001 +1.70081946999E-002 +2.80991438776E-002 -2.61122131633E-005 +4.31302760262E-006 +6.83429511264E-003 -1.53045859188E-002 
+1.01000000000E+009 +2.93766379356E-001 -1.66416689754E-001 +3.22414413095E-002 -5.82553539425E-003 -2.56795519817E-005 +1.29159043354E-005 +2.92798411101E-003 -1.88637636602E-002 
+1.21000000000E+009 +2.82845735550E-001 -1.98664709926E-001 +5.62207447365E-003 -3.14454026520E-002 -5.97016332904E-006 -8.56848419062E-006 -1.81422324385E-003 -2.11058035493E-002 
+1.41000000000E+009 +2.69488036633E-001 -2.30265706778E-001 -2.70148590207E-002 -1.65492072701E-002 -1.32196983031E-005 +1.52595669078E-006 -7.77388457209E-003 -2.42117494345E-002 
+1.61000000000E+009 +2.54913508892E-001 -2.59924858809E-001 -2.49090529978E-002 +1.93560793996E-002 -1.43091415339E-006 -1.53923792823E-005 -1.37588428333E-002 -2.68541779369E-002 
+1.81000000000E+009 +2.38787084818E-001 -2.87914961576E-001 +8.95734876394E-003 +2.93619967997E-002 -4.74951912111E-006 +3.18296479236E-005 -1.78616326302E-002 -2.78811473399E-002 
+2.01000000000E+009 +2.21976339817E-001 -3.14609289169E-001 +3.05092297494E-002 +2.56049819291E-003 -5.77427863391E-006 -2.55677732639E-005 -2.30703298002E-002 -2.67764143646E-002 
+2.21000000000E+009 +2.03618228436E-001 -3.39798301458E-001 +1.29430759698E-002 -2.75988355279E-002 +1.04418386400E-005 +8.79598064785E-006 -2.89889797568E-002 -2.47119423002E-002 
+2.41000000000E+009 +1.84404462576E-001 -3.63129884005E-001 -2.04224549234E-002 -2.16877926141E-002 -1.64990633493E-005 +1.35337240863E-005 -3.56090851128E-002 -2.23340075463E-002 
+2.61000000000E+009 +1.64684414864E-001 -3.84767472744E-001 -2.77419351041E-002 +1.12633733079E-002 +8.74057548117E-007 +2.69679503617E-006 -4.07435782254E-002 -1.92583613098E-002 
+2.81000000000E+009 +1.44416779280E-001 -4.04834926128E-001 +8.94660770427E-004 +2.94625274837E-002 +1.19200485642E-005 -2.42857367994E-005 -4.46938201785E-002 -1.44238984212E-002 
+3.01000000000E+009 +1.23455591500E-001 -4.23352539539E-001 +2.71953158081E-002 +9.87729988992E-003 +4.10138864027E-006 -3.28471542161E-005 -4.85185422003E-002 -8.67425370961E-003 
+3.21000000000E+009 +1.02252230048E-001 -4.40452933311E-001 +1.90505869687E-002 -2.18530688435E-002 -2.41210673266E-005 +6.31123566563E-006 -5.25828897953E-002 -2.26365984417E-003 
+3.41000000000E+009 +8.13531503081E-002 -4.56020981073E-001 -1.35005041957E-002 -2.50386856496E-002 -6.40597500023E-006 -3.33501105843E-007 -5.55830784142E-002 +4.97332680970E-003 
+3.61000000000E+009 +6.02171793580E-002 -4.70458418131E-001 -2.79038827866E-002 +3.15907062031E-003 +1.99309361051E-005 +2.50216071436E-005 -5.72702735662E-002 +1.18941655383E-002 
+3.81000000000E+009 +3.87477241457E-002 -4.83290404081E-001 -7.07731209695E-003 +2.72839050740E-002 -1.21176371977E-005 -2.29201009461E-006 -5.72017431259E-002 +1.93851236254E-002 
+4.01000000000E+009 +1.78935248405E-002 -4.95061904192E-001 +2.23733205348E-002 +1.59208830446E-002 +3.90825080103E-005 +4.69530914415E-006 -5.62312565744E-002 +2.73893978447E-002 
+4.21000000000E+009 -3.09681612998E-003 -5.05573391914E-001 +2.29290351272E-002 -1.47022558376E-002 +9.37150161917E-006 -1.25632459458E-005 -5.42629063129E-002 +3.59936989844E-002 
+4.41000000000E+009 -2.37391833216E-002 -5.14925658703E-001 -5.59266284108E-003 -2.67349947244E-002 -8.07135256764E-006 +7.88538091001E-006 -5.10943718255E-002 +4.43511791527E-002 
+4.61000000000E+009 -4.41386699677E-002 -5.23248493671E-001 -2.62354649603E-002 -4.31390712038E-003 +3.93447735405E-005 -4.55951430922E-006 -4.68223616481E-002 +5.16629815102E-002 
+4.81000000000E+009 -6.45566657186E-002 -5.30686855316E-001 -1.38296475634E-002 +2.25659571588E-002 +3.33621028403E-005 +3.79156040253E-006 -4.03371565044E-002 +5.88714070618E-002 
+5.01000000000E+009 -8.43280702829E-002 -5.37470042706E-001 +1.62677206099E-002 +2.09298096597E-002 -1.17955005408E-006 +4.24450036007E-006 -3.37861962616E-002 +6.55679926276E-002 
+5.21000000000E+009 -1.03502832353E-001 -5.43614149094E-001 +2.47251614928E-002 -7.30695854872E-003 -5.92631931795E-006 -3.84047089028E-005 -2.61778552085E-002 +7.16244056821E-002 
+5.41000000000E+009 -1.22466236353E-001 -5.48659086227E-001 +2.64002662152E-003 -2.56730020046E-002 -6.30927706879E-006 +1.66719437402E-005 -1.73097793013E-002 +7.66625031829E-002 
+5.61000000000E+009 -1.41503334045E-001 -5.53188979626E-001 -2.31840293854E-002 -1.15160876885E-002 +5.30581552027E-008 -1.01299920061E-005 -7.49447755516E-003 +7.98696726561E-002 
+5.81000000000E+009 -1.59581169486E-001 -5.56761860847E-001 -1.87569651753E-002 +1.67976785451E-002 +1.37217020892E-005 -1.41485052154E-005 +3.06026614271E-003 +8.08659195900E-002 
+6.01000000000E+009 -1.77061587572E-001 -5.59531748295E-001 +8.51315073669E-003 +2.39394046366E-002 -1.69727572938E-005 +2.77250737923E-008 +1.42952064052E-002 +8.25887098908E-002 
+6.21000000000E+009 -1.94429457188E-001 -5.61804652214E-001 +2.54546385258E-002 +3.34606593242E-004 -9.80285676633E-006 +2.05070627999E-005 +2.51882411540E-002 +8.20965468884E-002 
+6.41000000000E+009 -2.11073204875E-001 -5.63387453556E-001 +9.67144500464E-003 -2.29946393520E-002 -9.29247198656E-006 -7.98308246885E-006 +3.66400294006E-002 +8.01620930433E-002 
+6.61000000000E+009 -2.27641239762E-001 -5.64435958862E-001 -1.80369187146E-002 -1.79920960218E-002 -1.29821955852E-005 -1.11189774543E-006 +4.77405488491E-002 +7.52495750785E-002 
+6.81000000000E+009 -2.43491515517E-001 -5.65075695515E-001 -2.30994764715E-002 +1.09678935260E-002 -2.53911048276E-006 -9.80056847766E-006 +5.88434562087E-002 +6.94895461202E-002 
+7.01000000000E+009 -2.58798509836E-001 -5.65444648266E-001 +1.40542280860E-003 +2.50902883708E-002 +1.29573891172E-005 +1.01345744952E-006 +6.89589828253E-002 +6.31348192692E-002 
+7.21000000000E+009 -2.73878604174E-001 -5.65115272999E-001 +2.46497113258E-002 +8.11268761754E-003 +3.01728732666E-006 -2.81735219687E-006 +7.80011415482E-002 +5.44776581228E-002 
+7.41000000000E+009 -2.88215100765E-001 -5.64910054207E-001 +1.55941126868E-002 -2.05305721611E-002 +7.10525455361E-006 -1.56866935868E-005 +8.70262980461E-002 +4.43533174694E-002 
+7.61000000000E+009 -3.01819145679E-001 -5.63996791840E-001 -1.29230590537E-002 -2.18877308071E-002 +2.36312298512E-005 -6.56646125208E-006 +9.36220586300E-002 +3.22677120566E-002 
+7.81000000000E+009 -3.15819531679E-001 -5.62410414219E-001 -2.60040313005E-002 +4.55969804898E-003 -2.78368297586E-005 +1.56001860887E-005 +9.88629981875E-002 +1.97926070541E-002 
+8.01000000000E+009 -3.28731149435E-001 -5.60667514801E-001 -3.80642153323E-003 +2.56455671042E-002 +2.28085609706E-005 -3.41328559443E-005 +1.02489843965E-001 +6.13795686513E-003 
+8.21000000000E+009 -3.41427743435E-001 -5.58566033840E-001 +2.20774933696E-002 +1.31110968068E-002 +5.13639349720E-007 +1.59721967066E-005 +1.04729689658E-001 -7.95264076442E-003 
+8.41000000000E+009 -3.53522270918E-001 -5.56054353714E-001 +2.04890985042E-002 -1.70098617673E-002 +2.19204175664E-005 -1.55532743520E-005 +1.04279868305E-001 -2.32264902443E-002 
+8.61000000000E+009 -3.65635991096E-001 -5.53870141506E-001 -9.33730136603E-003 -2.39359159023E-002 +3.24146049024E-006 -8.70651638252E-006 +1.00975647569E-001 -3.88721972704E-002 
+8.81000000000E+009 -3.77089470625E-001 -5.51386356354E-001 -2.56673395634E-002 -3.09536088025E-004 +1.12000434456E-005 -2.56372140939E-006 +9.55841168761E-002 -5.43682053685E-002 
+9.01000000000E+009 -3.88172179461E-001 -5.48590540886E-001 -8.54866858572E-003 +2.48990431428E-002 +3.73005127585E-006 +6.57232249068E-006 +8.88529419899E-002 -6.84162750840E-002 
+9.21000000000E+009 -3.98975610733E-001 -5.45826792717E-001 +1.97716057301E-002 +1.51924006641E-002 +1.25130782180E-006 +1.45336598507E-005 +7.88397714496E-002 -8.33146721125E-002 
+9.41000000000E+009 -4.09089654684E-001 -5.43080925941E-001 +2.14414857328E-002 -1.27467680722E-002 -1.63402364706E-005 +2.15868203668E-005 +6.61960467696E-002 -9.70102846622E-002 
+9.61000000000E+009 -4.19164955616E-001 -5.39895594120E-001 -5.96229359508E-003 -2.45155375451E-002 -1.95389202418E-005 +3.84010672860E-005 +5.08934631944E-002 -1.09041742980E-001 
+9.81000000000E+009 -4.28367882967E-001 -5.37209331989E-001 -2.32948008925E-002 -2.37264134921E-003 +6.13148631601E-006 -1.94748627109E-005 +3.56539338827E-002 -1.18410848081E-001 
+1.00100000000E+010 -4.37728077173E-001 -5.34009039402E-001 -1.07067637146E-002 +2.08478532732E-002 +1.53547216541E-006 +2.70360451395E-005 +1.88303254545E-002 -1.26360669732E-001 
+1.02100000000E+010 -4.46363091469E-001 -5.30525565147E-001 +1.65159087628E-002 +1.59747991711E-002 -4.25166263085E-006 +8.89778064561E-008 +6.19980855845E-004 -1.33446291089E-001 
+1.04100000000E+010 -4.55191403627E-001 -5.27449786663E-001 +1.91384460777E-002 -9.10228863358E-003 +2.49509157584E-005 -5.99864506512E-006 -2.01015621424E-002 -1.38863936067E-001 
+1.06100000000E+010 -4.63680505753E-001 -5.24047970772E-001 -1.66316155810E-003 -2.10595503449E-002 -1.02555277408E-005 +3.69309918824E-006 -4.19500730932E-002 -1.41416177154E-001 
+1.08100000000E+010 -4.71032142639E-001 -5.21459460258E-001 -1.96704342961E-002 -4.44282451645E-003 +2.25662734010E-006 -6.64273159146E-007 -6.37180805206E-002 -1.40998572111E-001 
+1.10100000000E+010 -4.78863000870E-001 -5.18012762070E-001 -1.05412891135E-002 +1.54653834179E-002 -3.45385669789E-005 -1.11793751785E-005 -8.59106928110E-002 -1.37347489595E-001 
+1.12100000000E+010 -4.86140161753E-001 -5.15404820442E-001 +1.06221046299E-002 +1.51672223583E-002 -3.31909063789E-006 -3.94588678319E-005 -1.09759531915E-001 -1.30808144808E-001 
+1.14100000000E+010 -4.93365108967E-001 -5.11862635612E-001 +1.66142303497E-002 -5.13249682263E-003 -1.58262610057E-005 -9.48826345848E-006 -1.32793590426E-001 -1.20445810258E-001 
+1.16100000000E+010 -4.99355018139E-001 -5.08886992931E-001 +1.51493831072E-003 -1.61128286272E-002 -1.51103313328E-005 +2.03189702006E-005 -1.54600620270E-001 -1.07096068561E-001 
+1.18100000000E+010 -5.05878448486E-001 -5.05848228931E-001 -1.44286453724E-002 -6.94950949401E-003 -9.12731502467E-006 +1.61856678460E-005 -1.74320444465E-001 -9.02909412980E-002 
+1.20100000000E+010 -5.12660443783E-001 -5.02135872841E-001 -1.03582693264E-002 +1.06380805373E-002 +2.85554364154E-007 -4.22203402195E-006 -1.91680654883E-001 -7.08560794592E-002 
+1.22100000000E+010 -5.19358932972E-001 -4.98208820820E-001 +5.44189428911E-003 +1.28428600729E-002 +4.27956638305E-006 +1.70912753674E-005 -2.09127709270E-001 -4.87152226269E-002 
+1.24100000000E+010 -5.25366306305E-001 -4.94760483503E-001 +1.36559512466E-002 -6.53581577353E-004 -1.10141681944E-005 +1.40532449677E-006 -2.23804995418E-001 -2.31753066182E-002 
+1.26100000000E+010 -5.31309366226E-001 -4.91140484810E-001 +3.66854504682E-003 -1.20308082551E-002 +3.10574614559E-005 +1.03207848952E-005 -2.33830988407E-001 +4.54711588100E-003 
+1.28100000000E+010 -5.36797642708E-001 -4.87408339977E-001 -9.08183399588E-003 -7.63595104218E-003 -1.51492813529E-005 -4.78181982544E-006 -2.40257441998E-001 +3.37248668075E-002 
+1.30100000000E+010 -5.42208909988E-001 -4.83268529177E-001 -9.99394338578E-003 +5.71073964238E-003 -3.29100003000E-005 -2.91815013043E-005 -2.43846252561E-001 +6.35931342840E-002 
+1.32100000000E+010 -5.47141909599E-001 -4.79634791613E-001 +1.64775666781E-003 +1.04906987399E-002 -2.32894453802E-005 +1.77249148692E-005 -2.44158968329E-001 +9.52784046531E-002 
+1.34100000000E+010 -5.52214980125E-001 -4.75315153599E-001 +9.76156629622E-003 +2.39912653342E-003 +1.01607547549E-005 -6.63659875499E-006 -2.40711569786E-001 +1.26981601119E-001 
+1.36100000000E+010 -5.55407047272E-001 -4.71561580896E-001 +5.46190375462E-003 -8.02154745907E-003 +2.85828482447E-005 -1.26530967464E-005 -2.32854172587E-001 +1.59929201007E-001 
+1.38100000000E+010 -5.60379981995E-001 -4.68211352825E-001 -4.97520156205E-003 -7.31125287712E-003 +2.76574428426E-005 -3.22266714647E-005 -2.19846725464E-001 +1.92225083709E-001 
+1.40100000000E+010 -5.64989507198E-001 -4.64725166559E-001 -8.27385392040E-003 +1.63769570645E-003 -3.08831590701E-006 -5.06250353283E-006 -2.03066065907E-001 +2.23564013839E-001 
+1.42100000000E+010 -5.69256544113E-001 -4.61492568254E-001 -1.35558214970E-003 +7.93542247266E-003 -2.82597757177E-005 -8.37748211779E-006 -1.82375311852E-001 +2.54897922277E-001 
+1.44100000000E+010 -5.73651254177E-001 -4.57600206137E-001 +6.28064200282E-003 +3.90308885835E-003 -1.41282034747E-005 -9.29294583329E-006 -1.56567797065E-001 +2.83607065678E-001 
+1.46100000000E+010 -5.77124953270E-001 -4.54384863377E-001 +5.79404737800E-003 -4.01300610974E-003 -3.05527173623E-005 -3.92166612073E-006 -1.25771328807E-001 +3.09190660715E-001 
+1.48100000000E+010 -5.80430269241E-001 -4.48799103498E-001 -1.56957225408E-003 -6.47057779133E-003 -1.35990712806E-005 +2.78948846244E-005 -9.28126275539E-002 +3.31103801727E-001 
+1.50100000000E+010 -5.81927895546E-001 -4.47689384222E-001 -6.11599581316E-003 -1.12825329416E-003 +7.79787205829E-006 -6.00031762588E-006 -5.72737865150E-002 +3.50400626659E-001 
+1.52100000000E+010 -5.84561705589E-001 -4.46722000837E-001 -3.31844040193E-003 +4.97251469642E-003 -2.50210323429E-005 -5.40582459507E-006 -1.83698274195E-002 +3.65768164396E-001 
+1.54100000000E+010 -5.87805747986E-001 -4.44314956665E-001 +3.25534492731E-003 +4.72848117352E-003 -1.45000294651E-005 +9.55125051405E-006 +2.41847261786E-002 +3.75810652971E-001 
+1.56100000000E+010 -5.91013610363E-001 -4.40773725510E-001 +5.26437349617E-003 -1.10108079389E-003 +5.59705995329E-007 +2.68143103312E-005 +6.84199109674E-002 +3.80026251078E-001 
+1.58100000000E+010 -5.91926932335E-001 -4.40232932568E-001 +1.06251135003E-003 -5.10499486700E-003 -1.70164385054E-005 -2.30268906307E-005 +1.12555429339E-001 +3.80364596844E-001 
+1.60100000000E+010 -5.94075024128E-001 -4.39112097025E-001 -4.14000451565E-003 -2.70270393230E-003 +8.17832187749E-006 -2.29149809456E-005 +1.58032178879E-001 +3.75324189663E-001 
+1.62100000000E+010 -5.96195161343E-001 -4.37769025564E-001 -3.93336452544E-003 +2.48419051059E-003 +2.08339624805E-005 +1.47237724377E-005 +2.05589279532E-001 +3.64868909121E-001 
+1.64100000000E+010 -5.98239541054E-001 -4.36498910189E-001 +6.90461136401E-004 +4.49997745454E-003 -2.47368971031E-005 -9.55566156335E-006 +2.52593636513E-001 +3.48520070314E-001 
+1.66100000000E+010 -6.01712942123E-001 -4.34827536345E-001 +4.21081017703E-003 +9.56245348789E-004 +2.93225002679E-005 +2.43673130171E-005 +2.96624153852E-001 +3.24947834015E-001 
+1.68100000000E+010 -6.04847490788E-001 -4.32389825583E-001 +2.47891736217E-003 -3.35040176287E-003 -1.89005459106E-005 +1.12887464638E-005 +3.39975774288E-001 +2.97737032175E-001 
+1.70100000000E+010 -6.06365621090E-001 -4.30480539799E-001 -2.08987412043E-003 -3.52632929571E-003 +2.08944129554E-006 -2.98199552162E-006 +3.80444914103E-001 +2.66309767962E-001 
+1.72100000000E+010 -6.08594536781E-001 -4.28936868906E-001 -3.84730729274E-003 +5.64225076232E-004 -7.29383555154E-006 +3.27253746946E-006 +4.18247759342E-001 +2.27761492133E-001 
+1.74100000000E+010 -6.12016379833E-001 -4.27336812019E-001 -9.59440600127E-004 +3.61669622362E-003 -7.24754772818E-006 -1.09641277959E-005 +4.51761603355E-001 +1.84386715293E-001 
+1.76100000000E+010 -6.15194678307E-001 -4.25458252430E-001 +2.88584106602E-003 +2.19459179789E-003 -2.36889791267E-005 -2.44511429628E-005 +4.79470193386E-001 +1.38205796480E-001 
+1.78100000000E+010 -6.18538379669E-001 -4.23314273357E-001 +2.93094292283E-003 -1.76094984636E-003 +1.38822933877E-005 -4.37018752564E-005 +5.03047764301E-001 +8.95067974925E-002 
+1.80100000000E+010 -6.21236205101E-001 -4.21010792255E-001 -4.26185171818E-004 -3.32739786245E-003 -4.48012588095E-006 -3.25597989104E-006 +5.22109091282E-001 +3.80825698376E-002 
+1.82100000000E+010 -6.24471485615E-001 -4.19071286917E-001 -3.07905324735E-003 -8.43763293233E-004 -2.55282284343E-005 +3.54941112164E-005 +5.34621238708E-001 -1.67323015630E-002 
+1.84100000000E+010 -6.27613961697E-001 -4.17226999998E-001 -1.84397958219E-003 +2.40403763019E-003 +2.52991212619E-005 -1.12913667181E-005 +5.40952503681E-001 -7.40542560816E-002 
+1.86100000000E+010 -6.30641937256E-001 -4.14984196424E-001 +1.41107011586E-003 +2.58188438602E-003 +3.46755291503E-006 -3.24313477904E-005 +5.41076540947E-001 -1.30884483457E-001 
+1.88100000000E+010 -6.33280873299E-001 -4.12794411182E-001 +2.81963683665E-003 -3.12650226988E-004 +1.67490850345E-006 -3.16822915920E-005 +5.35457909107E-001 -1.87866359949E-001 
+1.90100000000E+010 -6.35641694069E-001 -4.11123722792E-001 +7.35069916118E-004 -2.58349068463E-003 -1.49195875565E-005 +1.41468863148E-005 +5.24047434330E-001 -2.44579106569E-001 
+1.92100000000E+010 -6.39048337936E-001 -4.09596085548E-001 -1.94858398754E-003 -1.70191540383E-003 -2.54296519415E-005 +1.12260704555E-005 +5.05349218845E-001 -3.02459269762E-001 
+1.94100000000E+010 -6.42180263996E-001 -4.06616806984E-001 -2.23071896471E-003 +1.10437150579E-003 +1.20895410873E-005 -2.51203564403E-005 +4.79865491390E-001 -3.57579857111E-001 
+1.96100000000E+010 -6.43060505390E-001 -4.04133707285E-001 +1.50445994223E-004 +2.36312183551E-003 +5.86398391533E-006 +1.19349560919E-005 +4.48893219233E-001 -4.09610122442E-001 
+1.98100000000E+010 -6.42810285091E-001 -4.01216924191E-001 +2.16264184564E-003 +7.83454976045E-004 -1.29097788886E-005 -1.81940285984E-005 +4.14689362049E-001 -4.57019627094E-001 
+2.00100000000E+010 -6.42914235592E-001 -4.00026440620E-001 +1.47654314060E-003 -1.64443231188E-003 +5.33201964572E-005 +2.82991077256E-005 +3.72600525618E-001 -5.03999888897E-001 
