!;Filter: kein Filter
!auto
!3/21/2019 9:26:39 AM
!3/21/2019 9:26:51 AM
!SP-Measurements Prober G4
!SP-Measurements Prober G4
!
!134
!237
!12
!20
!-20
!0.00099996
!1.65
!0.05816927
!0.05816927
# Hz S  RI   R 50
+1.00000000000E+007 +4.65242028236E-001 +2.68833036534E-003 +4.14844639599E-002 -1.70487854630E-002 +4.54723514849E-004 -9.81246703304E-005 +5.43961254880E-003 +1.66366808116E-003 
+2.10000000000E+008 +4.70786452293E-001 -5.00307567418E-002 -4.07116534188E-003 -4.24993559718E-002 +1.09628184873E-004 +2.77805211226E-005 +8.83379857987E-003 -4.67324489728E-003 
+4.10000000000E+008 +4.63815659285E-001 -9.82480719686E-002 -4.10174168646E-002 -9.73667856306E-003 +3.48228859366E-005 -1.93190935533E-005 +1.00214108825E-002 -7.21342302859E-003 
+6.10000000000E+008 +4.53644245863E-001 -1.43932372332E-001 -2.27480623871E-002 +3.59176695347E-002 +1.91062736121E-005 -9.66836432781E-006 +9.60799120367E-003 -1.16414437070E-002 
+8.10000000000E+008 +4.40401405096E-001 -1.88643217087E-001 +2.74947676808E-002 +3.33440676332E-002 -1.45120011439E-005 -7.16664681022E-006 +6.88839657232E-003 -1.52651313692E-002 
+1.01000000000E+009 +4.23622310162E-001 -2.30575114489E-001 +4.16529998183E-002 -1.55195202678E-002 +1.73846055986E-005 +1.12191937660E-005 +2.97847250476E-003 -1.88657008111E-002 
+1.21000000000E+009 +4.06496614218E-001 -2.71447598934E-001 -4.53882059082E-003 -4.57356199622E-002 -9.45478041103E-006 +1.43400366142E-005 -1.69321207795E-003 -2.10819914937E-002 
+1.41000000000E+009 +3.82418245077E-001 -3.09864401817E-001 -4.24918904901E-002 -1.20828589424E-002 -8.54698191688E-006 -2.19091543840E-005 -7.59758101776E-003 -2.42669451982E-002 
+1.61000000000E+009 +3.59969824553E-001 -3.42359691858E-001 -2.96210553497E-002 +3.81508246064E-002 +1.08073027150E-005 -1.42433409565E-005 -1.37606384233E-002 -2.68616322428E-002 
+1.81000000000E+009 +3.38198721409E-001 -3.73975366354E-001 +3.23645658791E-002 +4.54715229571E-002 -1.36772332553E-005 -1.67757189047E-005 -1.77151504904E-002 -2.78997868299E-002 
+2.01000000000E+009 +3.19333076477E-001 -4.12066847086E-001 +5.55559881032E-002 -4.22902554274E-002 -3.24170723616E-005 +3.16982295772E-005 -2.30206884444E-002 -2.68702618778E-002 
+2.21000000000E+009 +2.89924025536E-001 -4.51328575611E-001 -5.19224219024E-002 -5.60718998313E-002 +2.03891286219E-005 -2.19718458538E-005 -2.88882423192E-002 -2.47175358236E-002 
+2.41000000000E+009 +2.52402484417E-001 -4.81065660715E-001 -5.11950626969E-002 +5.33228032291E-002 -1.14638896775E-005 +6.35232981949E-006 -3.56589220464E-002 -2.23464425653E-002 
+2.61000000000E+009 +2.19192847610E-001 -5.00723958015E-001 +3.87439057231E-002 +5.35771287978E-002 -4.91910259370E-006 -1.31524284370E-005 -4.07469496131E-002 -1.93079691380E-002 
+2.81000000000E+009 +1.88872292638E-001 -5.17766654491E-001 +5.71146458387E-002 -2.24457550794E-002 +1.17975764624E-006 -2.10406760743E-005 -4.46417890489E-002 -1.44431823865E-002 
+3.01000000000E+009 +1.58286586404E-001 -5.31586050987E-001 -1.11651178449E-002 -5.23332655430E-002 +4.74751095680E-006 -3.92261290472E-006 -4.85538691282E-002 -8.76462366432E-003 
+3.21000000000E+009 +1.31452843547E-001 -5.43999135494E-001 -4.28666472435E-002 -5.06904767826E-003 +3.75920644728E-005 +2.49321456067E-005 -5.25594651699E-002 -2.36632232554E-003 
+3.41000000000E+009 +1.05049841106E-001 -5.54763138294E-001 -1.07461716980E-002 +3.11204232275E-002 -2.08545952773E-006 -1.57906306413E-005 -5.55590316653E-002 +4.81307040900E-003 
+3.61000000000E+009 +7.91704282165E-002 -5.66689670086E-001 +2.50793918967E-002 +1.97703149170E-002 -5.29257931703E-006 +2.22865146497E-005 -5.72982877493E-002 +1.17620900273E-002 
+3.81000000000E+009 +5.38376756012E-002 -5.75821042061E-001 +2.00460162014E-002 -1.51558555663E-002 +2.97058322758E-005 +2.99390612781E-005 -5.72019331157E-002 +1.92664731294E-002 
+4.01000000000E+009 +2.95391976833E-002 -5.85004448891E-001 -5.72394905612E-003 -1.81509293616E-002 -2.76262454690E-007 +1.10109169782E-006 -5.62451295555E-002 +2.71957479417E-002 
+4.21000000000E+009 +4.97230980545E-003 -5.93277335167E-001 -1.81211251765E-002 -1.74714310560E-003 +2.59370335698E-005 +7.76210254116E-006 -5.42554333806E-002 +3.59407849610E-002 
+4.41000000000E+009 -1.89179219306E-002 -5.99967002869E-001 -5.25423185900E-003 +1.41043961048E-002 -2.09598729271E-005 -3.46560300386E-005 -5.10369502008E-002 +4.43135127425E-002 
+4.61000000000E+009 -4.23022471368E-002 -6.06312990189E-001 +8.08786321431E-003 +8.55555851012E-003 +2.71127846645E-005 -5.16437648912E-005 -4.67770658433E-002 +5.15839383006E-002 
+4.81000000000E+009 -6.58902972937E-002 -6.11589252949E-001 +1.03716589510E-002 -3.62957175821E-003 +4.48148148280E-006 -4.96557804581E-005 -4.03029471636E-002 +5.88513761759E-002 
+5.01000000000E+009 -8.84781703353E-002 -6.16339206696E-001 +1.79392125574E-004 -9.65755525976E-003 +2.22049748118E-005 -5.27727161170E-006 -3.37645933032E-002 +6.55346810818E-002 
+5.21000000000E+009 -1.10300347209E-001 -6.20505332947E-001 -6.95469183847E-003 -3.74259334058E-003 -7.17943566997E-006 -3.29014369527E-006 -2.61052697897E-002 +7.15926885605E-002 
+5.41000000000E+009 -1.31689205766E-001 -6.23171329498E-001 -6.52280589566E-003 +4.93902107701E-003 -3.96105788241E-005 -1.29034096972E-005 -1.72872599214E-002 +7.67472684383E-002 
+5.61000000000E+009 -1.52950346470E-001 -6.25235438347E-001 +2.57953931578E-003 +6.65557850152E-003 +2.75780657830E-005 +3.59961122740E-005 -7.52421002835E-003 +7.99404084682E-002 
+5.81000000000E+009 -1.73099860549E-001 -6.26589536667E-001 +6.35263556615E-003 +4.61850664578E-004 -1.35458149089E-005 +4.72794381494E-005 +3.11405956745E-003 +8.08600187302E-002 
+6.01000000000E+009 -1.92493408918E-001 -6.27103388309E-001 +2.58122733794E-003 -5.39580360055E-003 -1.41037044159E-005 +1.18142916108E-005 +1.42816910520E-002 +8.26711058617E-002 
+6.21000000000E+009 -2.11720898747E-001 -6.27113461494E-001 -3.79907502793E-003 -3.80992307328E-003 -3.45815642504E-005 +1.46826487253E-005 +2.51752119511E-002 +8.20942074060E-002 
+6.41000000000E+009 -2.29924246669E-001 -6.26731157303E-001 -4.38731350005E-003 +1.68262573425E-003 -6.07334050073E-006 +8.80311381479E-006 +3.65869998932E-002 +8.01884829998E-002 
+6.61000000000E+009 -2.48100414872E-001 -6.25630438328E-001 -2.25966272410E-004 +4.42971987650E-003 +1.14084639335E-006 +9.60867964750E-006 +4.76976260543E-002 +7.52635225654E-002 
+6.81000000000E+009 -2.65259891748E-001 -6.24437212944E-001 +3.71073139831E-003 +1.58892571926E-003 -2.28307580983E-005 +1.84050622920E-005 +5.87700009346E-002 +6.94235265255E-002 
+7.01000000000E+009 -2.81764566898E-001 -6.22922837734E-001 +2.68785888329E-003 -2.43468466215E-003 +3.52357492375E-005 +3.84576105716E-006 +6.88413381577E-002 +6.30824565887E-002 
+7.21000000000E+009 -2.97963351011E-001 -6.20852410793E-001 -1.13424530718E-003 -3.25774541125E-003 -1.89228103409E-005 -1.44458717841E-005 +7.79727846384E-002 +5.43057397008E-002 
+7.41000000000E+009 -3.13360422850E-001 -6.18661582470E-001 -3.17452987656E-003 -1.29228559672E-004 +1.22083374663E-005 +1.65378078236E-005 +8.70834738016E-002 +4.42760996521E-002 
+7.61000000000E+009 -3.27828526497E-001 -6.15907907486E-001 -1.22074387036E-003 +2.60216114111E-003 +4.35862943959E-007 -7.01721137375E-006 +9.36127975583E-002 +3.21164764464E-002 
+7.81000000000E+009 -3.42515230179E-001 -6.12014770508E-001 +1.74263550434E-003 +2.04858207144E-003 +8.73177611993E-007 -1.34117308335E-005 +9.88418236375E-002 +1.97224412113E-002 
+8.01000000000E+009 -3.56045752764E-001 -6.08134925365E-001 +2.44962470606E-003 -8.34925042000E-004 -1.66902154888E-005 -1.04150931293E-005 +1.02467186749E-001 +5.95446443185E-003 
+8.21000000000E+009 -3.69248807430E-001 -6.04345023632E-001 +2.01851318707E-004 -2.30670650490E-003 -2.73467176157E-005 -3.48363428202E-005 +1.04685992002E-001 -8.05149413645E-003 
+8.41000000000E+009 -3.81984233856E-001 -6.00445091724E-001 -1.90645433031E-003 -1.04861846194E-003 -5.20483154105E-005 -4.24247090791E-008 +1.04295499623E-001 -2.33114659786E-002 
+8.61000000000E+009 -3.94254595041E-001 -5.96160650253E-001 -1.60376343410E-003 +1.28418533131E-003 -2.54967308138E-005 +4.09589711126E-006 +1.00962519646E-001 -3.89789156616E-002 
+8.81000000000E+009 -4.06193584204E-001 -5.92364251614E-001 +5.22922375239E-004 +1.81690743193E-003 +2.59715452557E-005 +3.48872599716E-005 +9.55676138401E-002 -5.45030646026E-002 
+9.01000000000E+009 -4.17768031359E-001 -5.88650047779E-001 +1.77821179386E-003 +2.67960218480E-004 +8.57834493218E-006 -1.80202135880E-007 +8.88243764639E-002 -6.84993267059E-002 
+9.21000000000E+009 -4.28783208132E-001 -5.84338188171E-001 +8.79589642864E-004 -1.45949108992E-003 -1.44341674968E-005 +1.02990234154E-005 +7.88600444794E-002 -8.33880826831E-002 
+9.41000000000E+009 -4.39092010260E-001 -5.80144882202E-001 -9.79034462944E-004 -1.27298186999E-003 -1.10325772766E-005 -7.45282022763E-006 +6.61378055811E-002 -9.70373526216E-002 
+9.61000000000E+009 -4.49357330799E-001 -5.75950980186E-001 -1.43826974090E-003 +2.90743715595E-004 -3.94675134885E-006 -1.54112585733E-005 +5.08377738297E-002 -1.09058074653E-001 
+9.81000000000E+009 -4.58423763514E-001 -5.71608066559E-001 -2.29434546782E-004 +1.36818410829E-003 -5.67486176806E-006 +2.74052508757E-005 +3.56315635145E-002 -1.18337251246E-001 
+1.00100000000E+010 -4.67662125826E-001 -5.66888332367E-001 +1.09541672282E-003 +7.02334160451E-004 +1.49240831888E-005 +1.50210075844E-006 +1.88209638000E-002 -1.26280173659E-001 
+1.02100000000E+010 -4.76338744164E-001 -5.62268853188E-001 +1.07985106297E-003 -6.27406639978E-004 +2.61965160462E-005 +1.25943688545E-005 +5.83892746363E-004 -1.33371129632E-001 
+1.04100000000E+010 -4.85345929861E-001 -5.58216691017E-001 -1.68627768289E-004 -1.21531693731E-003 +2.15603959077E-005 +1.57239301188E-005 -2.01631449163E-002 -1.38819977641E-001 
+1.06100000000E+010 -4.93782460690E-001 -5.53591430187E-001 -1.12235930283E-003 -1.90161517821E-004 +6.37990478936E-006 -1.79599701369E-005 -4.19885404408E-002 -1.41319036484E-001 
+1.08100000000E+010 -5.01145303249E-001 -5.50059139729E-001 -6.39050616883E-004 +8.63358494826E-004 -6.14505324847E-006 +1.19650112538E-005 -6.38148188591E-002 -1.40849173069E-001 
+1.10100000000E+010 -5.08776009083E-001 -5.45724034309E-001 +5.30478311703E-004 +8.63045977894E-004 -3.97412577513E-006 +1.51310732690E-005 -8.60082432628E-002 -1.37203961611E-001 
+1.12100000000E+010 -5.16129493713E-001 -5.42500078678E-001 +9.22211969737E-004 -1.51631844346E-004 -9.98106497718E-006 +7.16780277799E-006 -1.09798006713E-001 -1.30609229207E-001 
+1.14100000000E+010 -5.23364961147E-001 -5.38225591183E-001 +2.57748179138E-004 -8.37655505165E-004 +2.48475316766E-006 -1.85394837899E-005 -1.32842406631E-001 -1.20279826224E-001 
+1.16100000000E+010 -5.29468774796E-001 -5.34782469273E-001 -6.97894545738E-004 -5.91167190578E-004 -2.14490719372E-005 -8.28050997370E-006 -1.54611855745E-001 -1.06910608709E-001 
+1.18100000000E+010 -5.35749852657E-001 -5.30602097511E-001 -7.07212951966E-004 +3.73679184122E-004 +8.64153844304E-006 -2.21020800382E-005 -1.74340009689E-001 -9.02035683393E-002 
+1.20100000000E+010 -5.42233526707E-001 -5.25928974152E-001 +2.06127533602E-005 +8.00310983323E-004 -1.99020996661E-005 +1.63242857525E-005 -1.91587403417E-001 -7.06536173820E-002 
+1.22100000000E+010 -5.48492431641E-001 -5.21086394787E-001 +7.58915673941E-004 +2.21003268962E-004 -5.63114153920E-005 -3.01339714497E-005 -2.09056079388E-001 -4.85848560929E-002 
+1.24100000000E+010 -5.54529547691E-001 -5.17023801804E-001 +4.52462234534E-004 -5.38199790753E-004 +3.11567491735E-005 +1.49404449985E-005 -2.23728656769E-001 -2.29900963604E-002 
+1.26100000000E+010 -5.60183763504E-001 -5.12597858906E-001 -2.02658193302E-004 -5.99464576226E-004 +9.07344929146E-006 -3.10719806293E-005 -2.33571290970E-001 +4.67586610466E-003 
+1.28100000000E+010 -5.65767943859E-001 -5.08472979069E-001 -6.51926035061E-004 -1.69312952494E-005 -2.81144730252E-005 -2.55046743405E-005 -2.39992216229E-001 +3.38110253215E-002 
+1.30100000000E+010 -5.71104288101E-001 -5.03988325596E-001 -2.08188852412E-004 +6.12952804659E-004 +6.24947351753E-005 -1.58513812494E-005 -2.43564411998E-001 +6.37333393097E-002 
+1.32100000000E+010 -5.75947344303E-001 -4.99616801739E-001 +4.22965851612E-004 +4.56297217170E-004 -2.79021514871E-005 +7.94803690951E-006 -2.43811994791E-001 +9.52911674976E-002 
+1.34100000000E+010 -5.81552207470E-001 -4.95473831892E-001 +5.67750306800E-004 -2.41271161940E-004 -1.99245023396E-005 +4.63731157652E-005 -2.40307778120E-001 +1.26965939999E-001 
+1.36100000000E+010 -5.84310293198E-001 -4.90710526705E-001 +2.98408376693E-005 -5.11681486387E-004 +1.64290868270E-005 +7.32182706997E-006 -2.32500478625E-001 +1.59960776567E-001 
+1.38100000000E+010 -5.89095830917E-001 -4.86971020699E-001 -4.70252096420E-004 -1.90220234799E-004 -4.59475995740E-005 -1.91072795133E-005 -2.19442710280E-001 +1.92177325487E-001 
+1.40100000000E+010 -5.92954337597E-001 -4.82017695904E-001 -3.88229498640E-004 +3.20850871503E-004 -1.67552352650E-005 +1.96552173293E-005 -2.02574849129E-001 +2.23378807306E-001 
+1.42100000000E+010 -5.97620487213E-001 -4.78614091873E-001 +1.45440440974E-004 +3.98768781452E-004 +5.00571404700E-005 +1.06898996819E-005 -1.81781888008E-001 +2.54725158215E-001 
+1.44100000000E+010 -6.01822495461E-001 -4.74113672972E-001 +4.40702569904E-004 +8.03327275207E-005 +2.54059377767E-005 +2.32928341575E-005 -1.55925869942E-001 +2.83358275890E-001 
+1.46100000000E+010 -6.05463504791E-001 -4.70601081848E-001 +2.33368817135E-004 -3.99495242164E-004 -3.63253784599E-005 -7.28507529857E-006 -1.25110939145E-001 +3.08785319328E-001 
+1.48100000000E+010 -6.09374582767E-001 -4.64949071407E-001 -2.62743531493E-004 -3.02790227579E-004 -1.24091502585E-005 -1.16755863928E-005 -9.21221971512E-002 +3.30638617277E-001 
+1.50100000000E+010 -6.10451579094E-001 -4.62873518467E-001 -3.73500224669E-004 +6.05866516707E-005 -1.24652660816E-006 +1.28682386276E-005 -5.66337443888E-002 +3.49855184555E-001 
+1.52100000000E+010 -6.12865507603E-001 -4.61115151644E-001 -8.57825943967E-005 +3.68118810002E-004 +3.43564170180E-005 +9.28309327719E-006 -1.77895855159E-002 +3.65230977535E-001 
+1.54100000000E+010 -6.16715729237E-001 -4.59055095911E-001 +2.83532339381E-004 +1.55941830599E-004 +2.27168784477E-005 -4.96266729897E-005 +2.47322320938E-002 +3.75292479992E-001 
+1.56100000000E+010 -6.19721949100E-001 -4.54561531544E-001 +2.65735841822E-004 -1.46524020238E-004 -1.87293844647E-005 +1.52150560098E-005 +6.88629150391E-002 +3.79447489977E-001 
+1.58100000000E+010 -6.20901167393E-001 -4.53439027071E-001 -8.76657795743E-005 -3.07606795104E-004 -3.46151609847E-005 -5.54611797270E-005 +1.13028071821E-001 +3.79737406969E-001 
+1.60100000000E+010 -6.21886074543E-001 -4.51009988785E-001 -3.19558952469E-004 -5.45231850992E-005 -1.05477929537E-005 +1.61677544384E-005 +1.58289462328E-001 +3.74498307705E-001 
+1.62100000000E+010 -6.23873174191E-001 -4.49008435011E-001 -1.77026391611E-004 +1.96261316887E-004 -1.65275923791E-005 -1.35741793201E-005 +2.05776333809E-001 +3.64046663046E-001 
+1.64100000000E+010 -6.25080406666E-001 -4.46637243032E-001 +1.24849073472E-004 +2.78150604572E-004 -2.16901044041E-005 -6.38214842184E-005 +2.52646118402E-001 +3.47614288330E-001 
+1.66100000000E+010 -6.27799808979E-001 -4.43938106298E-001 +3.06321599055E-004 -3.72753820557E-005 +2.16629287024E-005 +3.40092037732E-006 +2.96407639980E-001 +3.23858916759E-001 
+1.68100000000E+010 -6.31642282009E-001 -4.41698640585E-001 +1.11930661660E-004 -2.90246447548E-004 -2.56657549471E-005 +1.01894365798E-005 +3.39592248201E-001 +2.96638369560E-001 
+1.70100000000E+010 -6.33292615414E-001 -4.39573585987E-001 -2.56203231402E-004 -2.11399048567E-004 +1.70202638401E-005 +8.23240679892E-006 +3.79943400621E-001 +2.65150487423E-001 
+1.72100000000E+010 -6.35831475258E-001 -4.37893718481E-001 -2.55843624473E-004 +1.08489199192E-004 +8.82600124896E-006 +1.48160397657E-005 +4.17706251144E-001 +2.26627662778E-001 
+1.74100000000E+010 -6.39171719551E-001 -4.35755729675E-001 -2.42231544689E-005 +2.86325463094E-004 -5.65674199606E-005 +2.04490679607E-005 +4.51007455587E-001 +1.83212727308E-001 
+1.76100000000E+010 -6.41884624958E-001 -4.33316558599E-001 +2.22629867494E-004 +6.53328606859E-005 +5.19868153788E-005 -2.08249821299E-005 +4.78713214397E-001 +1.37059971690E-001 
+1.78100000000E+010 -6.45117521286E-001 -4.30912882090E-001 +1.20666954899E-004 -1.22379497043E-004 +2.20363090193E-005 -2.33112459682E-005 +5.02121448517E-001 +8.84399041533E-002 
+1.80100000000E+010 -6.46017670631E-001 -4.27536547184E-001 -9.04555927264E-005 -2.45156319579E-004 +7.19261322502E-007 -2.80980766547E-005 +5.21079063416E-001 +3.70659828186E-002 
+1.82100000000E+010 -6.49170100689E-001 -4.25277322531E-001 -1.98075940716E-004 -3.30051516357E-005 -6.34533807897E-006 +8.17847248982E-005 +5.33576309681E-001 -1.75691749901E-002 
+1.84100000000E+010 -6.51748359203E-001 -4.23138558865E-001 -6.56130287098E-005 +1.72476982698E-004 +5.24100978510E-005 -1.88739704754E-005 +5.39694905281E-001 -7.47215673327E-002 
+1.86100000000E+010 -6.54127061367E-001 -4.20641869307E-001 +1.00957680843E-004 +1.82893592864E-004 -1.93392206711E-005 -1.59179853654E-005 +5.39787948132E-001 -1.31432861090E-001 
+1.88100000000E+010 -6.56068921089E-001 -4.18306618929E-001 +2.52735801041E-004 -6.68392385705E-005 +2.25451567530E-005 +2.62597241090E-005 +5.34210562706E-001 -1.88169911504E-001 
+1.90100000000E+010 -6.57335996628E-001 -4.16187316179E-001 +3.88629305235E-005 -1.92796956981E-004 +3.95225142711E-005 +1.57143113029E-005 +5.22665262222E-001 -2.44772493839E-001 
+1.92100000000E+010 -6.60397231579E-001 -4.14443463087E-001 -1.39508847496E-004 -8.55895486893E-005 -3.60260273737E-005 +1.67067828443E-005 +5.03773570061E-001 -3.02553445101E-001 
+1.94100000000E+010 -6.63651168346E-001 -4.11311060190E-001 -1.29457432195E-004 +6.59650540911E-005 +3.60911981261E-005 -9.86218583421E-006 +4.78110522032E-001 -3.57403486967E-001 
+1.96100000000E+010 -6.65064871311E-001 -4.08481270075E-001 +5.58022547921E-005 +1.58648123033E-004 -3.80504352506E-005 +3.16319674312E-005 +4.47111725807E-001 -4.09139364958E-001 
+1.98100000000E+010 -6.63350224495E-001 -4.05037701130E-001 +1.43937329995E-004 +1.00636789284E-005 +1.00954521258E-005 -8.56320457387E-006 +4.12764072418E-001 -4.56243366003E-001 
+2.00100000000E+010 -6.61220610142E-001 -4.04325127602E-001 +1.10538843728E-004 -1.51078274939E-004 -4.21651129727E-005 -2.33378868870E-005 +3.70691806078E-001 -5.03074169159E-001 
