!;Filter: kein Filter
!auto
!3/21/2019 9:26:39 AM
!3/21/2019 9:26:51 AM
!SP-Measurements Prober G4
!SP-Measurements Prober G4
!
!134
!235
!12
!20
!-20
!0.00099996
!1.65
!0.05816927
!0.05816927
# Hz S  RI   R 50
+1.00000000000E+007 +5.25604844093E-001 +4.75565111265E-003 +3.37587483227E-002 -1.46455923095E-002 -4.93002298754E-004 -6.98884658050E-004 +4.67840814963E-003 +9.58587392233E-004 
+2.10000000000E+008 +5.32088875771E-001 -5.30690103769E-002 -3.09199537151E-003 -3.45185212791E-002 -1.36935632327E-004 +7.08382794983E-005 +8.99514462799E-003 -4.35370486230E-003 
+4.10000000000E+008 +5.25433003902E-001 -1.05612561107E-001 -3.25864143670E-002 -8.42568464577E-003 +4.08795967815E-005 -4.05618156947E-005 +1.02054812014E-002 -7.28542543948E-003 
+6.10000000000E+008 +5.13772428036E-001 -1.55649080873E-001 -1.86865553260E-002 +2.73600444198E-002 +3.01069812849E-005 -2.55688846664E-005 +9.49012581259E-003 -1.15081854165E-002 
+8.10000000000E+008 +4.98103111982E-001 -2.03437760472E-001 +1.91019028425E-002 +2.68111005425E-002 -1.25996521092E-005 +3.25642977259E-005 +6.96080317721E-003 -1.53313539922E-002 
+1.01000000000E+009 +4.79607462883E-001 -2.47749716043E-001 +3.24855856597E-002 -8.54803342372E-003 +1.81133327715E-005 +3.52928473148E-005 +2.99819605425E-003 -1.88830085099E-002 
+1.21000000000E+009 +4.58609402180E-001 -2.90251225233E-001 +2.73957080208E-003 -3.33165787160E-002 +8.06103707873E-006 +2.63611527771E-005 -1.72813690733E-003 -2.11388114840E-002 
+1.41000000000E+009 +4.34799015522E-001 -3.30083310604E-001 -3.05048152804E-002 -1.45275285468E-002 +2.25725725613E-005 +6.75763340041E-006 -7.65798659995E-003 -2.43037492037E-002 
+1.61000000000E+009 +4.11001056433E-001 -3.66773724556E-001 -2.52091791481E-002 +2.54584681243E-002 +2.17984543269E-005 -1.45942949530E-005 -1.37054761872E-002 -2.69381646067E-002 
+1.81000000000E+009 +3.84306401014E-001 -4.01383191347E-001 +1.65457893163E-002 +3.22561487556E-002 +2.12401009776E-005 -1.57906797540E-005 -1.77991446108E-002 -2.79185324907E-002 
+2.01000000000E+009 +3.56355160475E-001 -4.33201313019E-001 +3.55120711029E-002 -4.32656891644E-003 +9.70988367044E-006 +1.50138566823E-005 -2.30331886560E-002 -2.69126873463E-002 
+2.21000000000E+009 +3.29273402691E-001 -4.61769521236E-001 +9.41981282085E-003 -3.90749610960E-002 -1.79972594196E-005 -3.23336757901E-006 -2.89924070239E-002 -2.47967466712E-002 
+2.41000000000E+009 +3.00444424152E-001 -4.89032119513E-001 -3.66332121193E-002 -2.00364608318E-002 -3.83292936021E-005 -2.01556540560E-005 -3.56718711555E-002 -2.24340856075E-002 
+2.61000000000E+009 +2.71505296230E-001 -5.12688875198E-001 -3.35976928473E-002 +2.90956851095E-002 +1.63579534274E-005 +1.34611855174E-005 -4.07411716878E-002 -1.93463396281E-002 
+2.81000000000E+009 +2.43773758411E-001 -5.36341190338E-001 +2.38473415375E-002 +4.58424240351E-002 -1.04715343241E-006 -2.76139417110E-005 -4.47159744799E-002 -1.44893694669E-002 
+3.01000000000E+009 +2.12862864137E-001 -5.58001875877E-001 +5.07238730788E-002 -1.51795642450E-002 -6.89594207870E-006 -1.62753185577E-005 -4.85022887588E-002 -8.78683943301E-003 
+3.21000000000E+009 +1.82573407888E-001 -5.78314363956E-001 -7.20692425966E-003 -6.00545853376E-002 -1.57881604537E-005 +8.55739472172E-006 -5.26614412665E-002 -2.39640008658E-003 
+3.41000000000E+009 +1.48692831397E-001 -5.95995128155E-001 -6.03556334972E-002 +5.41419396177E-003 +8.63113837113E-006 -3.74616574845E-005 -5.56751489639E-002 +4.85891429707E-003 
+3.61000000000E+009 +1.16041935980E-001 -6.08519971371E-001 -1.91523786634E-003 +5.61889298260E-002 -2.40087083512E-005 -9.09229186163E-007 -5.73793947697E-002 +1.18075162172E-002 
+3.81000000000E+009 +8.48640576005E-002 -6.18375420570E-001 +5.27059435844E-002 +1.15395998582E-002 +1.09545862870E-006 +3.44460545421E-006 -5.73387332261E-002 +1.92868690938E-002 
+4.01000000000E+009 +5.62666840851E-002 -6.25501155853E-001 +1.95701625198E-002 -4.17793914676E-002 +7.00243754181E-006 -3.26302651956E-005 -5.63041791320E-002 +2.73493397981E-002 
+4.21000000000E+009 +2.97749843448E-002 -6.31195545197E-001 -2.57157422602E-002 -2.32169982046E-002 +1.48620040363E-006 -3.47813147528E-006 -5.43593093753E-002 +3.60017195344E-002 
+4.41000000000E+009 +2.86784325726E-003 -6.37549400330E-001 -2.98063717782E-002 +2.04226318747E-002 -1.05263015939E-005 -1.20841123135E-005 -5.11925667524E-002 +4.43826802075E-002 
+4.61000000000E+009 -2.22478304058E-002 -6.41576528549E-001 +1.12304696813E-002 +2.65124272555E-002 -1.78391619556E-005 -4.20978312832E-006 -4.68753278255E-002 +5.16436919570E-002 
+4.81000000000E+009 -4.64401915669E-002 -6.45748972893E-001 +2.32229456306E-002 +4.15807016907E-006 +3.04504592350E-005 -3.50509458258E-006 -4.04101349413E-002 +5.89562654495E-002 
+5.01000000000E+009 -7.02820569277E-002 -6.49250209332E-001 +4.94217779487E-003 -2.04026885331E-002 +2.33758219110E-005 +5.11419602844E-006 -3.38816158473E-002 +6.56454712152E-002 
+5.21000000000E+009 -9.28227454424E-002 -6.52359664440E-001 -1.39861125499E-002 -9.17143188417E-003 -4.10341817769E-005 -7.61745809541E-007 -2.62893643230E-002 +7.16942548752E-002 
+5.41000000000E+009 -1.15070097148E-001 -6.54806852341E-001 -1.23108271509E-002 +7.35496496782E-003 -1.31233227876E-005 -9.80819004326E-006 -1.73551458865E-002 +7.68040791154E-002 
+5.61000000000E+009 -1.37486428022E-001 -6.56607508659E-001 +2.70254840143E-003 +1.30332102999E-002 +4.28911789641E-006 +1.96221117221E-005 -7.52644799650E-003 +7.99812003970E-002 
+5.81000000000E+009 -1.58466950059E-001 -6.57423794270E-001 +1.12409126014E-002 +1.74452411011E-003 -1.87060777534E-006 +3.34796254720E-006 +3.01675754599E-003 +8.10138806701E-002 
+6.01000000000E+009 -1.78765386343E-001 -6.57514810562E-001 +5.71070518345E-003 -8.57754703611E-003 -3.61416023225E-005 -1.30953339976E-005 +1.43125830218E-002 +8.26998651028E-002 
+6.21000000000E+009 -1.98835745454E-001 -6.57054305077E-001 -5.95763325691E-003 -7.49250687659E-003 -4.30513537140E-005 +1.75164859684E-005 +2.51653846353E-002 +8.22490677238E-002 
+6.41000000000E+009 -2.17813149095E-001 -6.55978858471E-001 -7.63310911134E-003 +2.37353029661E-003 +4.62533989776E-006 -1.69697214005E-005 +3.66353839636E-002 +8.02553966641E-002 
+6.61000000000E+009 -2.36627221107E-001 -6.54515802860E-001 -9.98475821689E-004 +7.10276979953E-003 +3.47661284650E-006 +1.02712510852E-006 +4.77900095284E-002 +7.53784030676E-002 
+6.81000000000E+009 -2.54558861256E-001 -6.52597010136E-001 +5.83964539692E-003 +3.29029932618E-003 -1.43031766129E-005 +8.17977615952E-006 +5.88570013642E-002 +6.96273595095E-002 
+7.01000000000E+009 -2.71702259779E-001 -6.50506079197E-001 +4.60486672819E-003 -3.59711563215E-003 +1.77856400114E-005 +7.37362870495E-006 +6.90356343985E-002 +6.32472410798E-002 
+7.21000000000E+009 -2.88579106331E-001 -6.47818505764E-001 -1.13552936818E-003 -5.38867013529E-003 +3.11812218570E-005 -7.97322900326E-006 +7.80771151185E-002 +5.45571856201E-002 
+7.41000000000E+009 -3.04574072361E-001 -6.45228028297E-001 -5.24534517899E-003 -7.00357544702E-004 +1.04211912912E-005 -3.78962322429E-005 +8.71876850724E-002 +4.44050580263E-002 
+7.61000000000E+009 -3.19622427225E-001 -6.41939043999E-001 -2.29099695571E-003 +4.01642778888E-003 -2.40346180362E-005 +1.18697571452E-005 +9.37896743417E-002 +3.23237702250E-002 
+7.81000000000E+009 -3.34967911243E-001 -6.38029038906E-001 +2.48695025221E-003 +3.49560636096E-003 -2.03019353648E-005 +2.74596859526E-005 +9.90223214030E-002 +1.98483671993E-002 
+8.01000000000E+009 -3.49250137806E-001 -6.34064495564E-001 +3.86373698711E-003 -1.04760343675E-003 -7.15327914804E-005 +2.62893559011E-006 +1.02669201791E-001 +6.14301022142E-003 
+8.21000000000E+009 -3.62973988056E-001 -6.29690229893E-001 +4.91694954690E-004 -3.49907088093E-003 +4.34803996541E-006 -2.04765947274E-005 +1.04861602187E-001 -7.99077004194E-003 
+8.41000000000E+009 -3.76191526651E-001 -6.25061094761E-001 -2.81088380143E-003 -1.86978932470E-003 +4.10555003327E-006 -1.65948877111E-005 +1.04467689991E-001 -2.32623331249E-002 
+8.61000000000E+009 -3.89193832874E-001 -6.20807766914E-001 -2.67279241234E-003 +1.85165461153E-003 -9.09279333428E-006 -7.42909014662E-006 +1.01132541895E-001 -3.88941913843E-002 
+8.81000000000E+009 -4.01535928249E-001 -6.16389870644E-001 +6.27108383924E-004 +2.86824908108E-003 +2.21601476369E-005 -2.24174527830E-006 +9.57657694817E-002 -5.44377267361E-002 
+9.01000000000E+009 -4.13414657116E-001 -6.11625552177E-001 +2.73414468393E-003 +5.74879406486E-004 -1.07770283648E-005 -1.27384582811E-005 +8.90327692032E-002 -6.85429573059E-002 
+9.21000000000E+009 -4.24946486950E-001 -6.06990873814E-001 +1.46681291517E-003 -2.21884530038E-003 -3.69147601305E-005 -3.24019674736E-005 +7.89746344090E-002 -8.34231227636E-002 
+9.41000000000E+009 -4.35715079308E-001 -6.02391362190E-001 -1.33192434441E-003 -1.92770594731E-003 -2.60496963165E-005 +3.08155758830E-005 +6.63329362869E-002 -9.71303954720E-002 
+9.61000000000E+009 -4.46379363537E-001 -5.97405850887E-001 -2.23307381384E-003 +3.44043102814E-004 +6.31654802419E-006 -3.49056317646E-005 +5.09100034833E-002 -1.09206981957E-001 
+9.81000000000E+009 -4.56020355225E-001 -5.93024909496E-001 -4.20840748120E-004 +2.10960442200E-003 -2.27820364671E-005 -1.96138898900E-005 +3.56666035950E-002 -1.18591979146E-001 
+1.00100000000E+010 -4.65782016516E-001 -5.88159441948E-001 +1.53686746489E-003 +1.14363920875E-003 -2.36886462517E-005 -2.39044966293E-005 +1.88903622329E-002 -1.26554593444E-001 
+1.02100000000E+010 -4.74863409996E-001 -5.83164453506E-001 +1.66265165899E-003 -9.32807568461E-004 -1.66492263816E-005 +4.64707809442E-005 +6.10619666986E-004 -1.33703261614E-001 
+1.04100000000E+010 -4.84037607908E-001 -5.78473925591E-001 -2.42016409175E-004 -1.76653498784E-003 -1.07365735857E-006 +5.13073382535E-006 -2.00840067118E-002 -1.39181107283E-001 
+1.06100000000E+010 -4.92795914412E-001 -5.73534071445E-001 -1.64194265381E-003 -4.10772743635E-004 +3.35221520800E-005 -3.20812287100E-005 -4.19840887189E-002 -1.41650214791E-001 
+1.08100000000E+010 -5.00394821167E-001 -5.69359838963E-001 -9.76216164418E-004 +1.23012135737E-003 +1.20049353427E-005 -6.11810537521E-006 -6.38082921505E-002 -1.41143828630E-001 
+1.10100000000E+010 -5.08340597153E-001 -5.64557492733E-001 +7.33725551981E-004 +1.29831826780E-003 -1.99796904781E-005 +2.85556761810E-005 -8.60166847706E-002 -1.37483656406E-001 
+1.12100000000E+010 -5.15754580498E-001 -5.60666143894E-001 +1.34829850867E-003 -1.31580556626E-004 +5.15246028954E-007 +3.33398274961E-005 -1.09933860600E-001 -1.30985528231E-001 
+1.14100000000E+010 -5.23006975651E-001 -5.55833041668E-001 +4.26039245212E-004 -1.28194177523E-003 -6.38598930891E-006 +1.31659726321E-005 -1.33027076721E-001 -1.20650082827E-001 
+1.16100000000E+010 -5.29088497162E-001 -5.51626205444E-001 -9.81345423497E-004 -8.55362974107E-004 -1.50233909153E-005 -5.13007398695E-006 -1.54790475965E-001 -1.07198037207E-001 
+1.18100000000E+010 -5.35731315613E-001 -5.47541677952E-001 -1.09356082976E-003 +5.22661779542E-004 -1.10069890980E-006 -2.66914248641E-005 -1.74510717392E-001 -9.04075950384E-002 
+1.20100000000E+010 -5.42538821697E-001 -5.42727828026E-001 +5.23848866578E-005 +1.10615277663E-003 +3.51478665834E-005 +7.02952138454E-006 -1.91932231188E-001 -7.09368884563E-002 
+1.22100000000E+010 -5.49234032631E-001 -5.37757396698E-001 +1.05612445623E-003 +3.68206034182E-004 -3.22506930388E-005 -2.31646445172E-005 -2.09377050400E-001 -4.87582758069E-002 
+1.24100000000E+010 -5.55306613445E-001 -5.33280372620E-001 +6.49926485494E-004 -7.39781477023E-004 +3.14680437441E-005 -2.17465312744E-005 -2.24079251289E-001 -2.31709145010E-002 
+1.26100000000E+010 -5.61300456524E-001 -5.28795957565E-001 -3.56911506969E-004 -9.15795681067E-004 +5.42360248801E-005 +5.91589878240E-006 -2.34092250466E-001 +4.57243947312E-003 
+1.28100000000E+010 -5.66873490810E-001 -5.24204254150E-001 -9.35647112783E-004 -5.41406052434E-006 +2.79461073660E-005 -2.90073530778E-005 -2.40488067269E-001 +3.38044725358E-002 
+1.30100000000E+010 -5.72406172752E-001 -5.19248127937E-001 -3.59923811629E-004 +7.98633787781E-004 +4.03196509069E-006 +1.67089474417E-005 -2.44088083506E-001 +6.38053566217E-002 
+1.32100000000E+010 -5.77501356602E-001 -5.14815032482E-001 +6.06263987720E-004 +6.49804715067E-004 -9.81215521279E-007 -4.51581627203E-006 -2.44338646531E-001 +9.54167693853E-002 
+1.34100000000E+010 -5.82819104195E-001 -5.09671688080E-001 +7.51021550968E-004 -2.32248188695E-004 -3.36787275046E-006 +5.21827041666E-006 -2.40819230676E-001 +1.27150163054E-001 
+1.36100000000E+010 -5.86023032665E-001 -5.05036115646E-001 -5.59330101169E-006 -7.49504601117E-004 +2.57354768110E-005 -2.14873180084E-005 -2.33012691140E-001 +1.60187229514E-001 
+1.38100000000E+010 -5.91170132160E-001 -5.00918626785E-001 -6.50277710520E-004 -3.62132705050E-004 +1.49839997903E-005 +7.40158475310E-006 -2.20008045435E-001 +1.92468300462E-001 
+1.40100000000E+010 -5.95988214016E-001 -4.96623665094E-001 -5.51748904400E-004 +4.32679691585E-004 +7.38910384825E-005 -3.75821218768E-005 -2.03161463141E-001 +2.23879322410E-001 
+1.42100000000E+010 -6.00455999374E-001 -4.92671370506E-001 +1.73217296833E-004 +6.27093890216E-004 +5.58800309136E-007 +7.46162095311E-006 -1.82434350252E-001 +2.55184262991E-001 
+1.44100000000E+010 -6.04961574078E-001 -4.88085120916E-001 +5.90459036175E-004 +7.24779747543E-005 -2.79317446257E-005 -4.16794500779E-006 -1.56487300992E-001 +2.83987551928E-001 
+1.46100000000E+010 -6.08756124973E-001 -4.84107524157E-001 +3.19105543895E-004 -5.25032926816E-004 -1.78439813681E-006 +1.86566321645E-005 -1.25671416521E-001 +3.09530377388E-001 
+1.48100000000E+010 -6.12563371658E-001 -4.77623760700E-001 -3.46464774339E-004 -4.88465710077E-004 +1.15758239190E-005 -2.90888092422E-005 -9.26863476634E-002 +3.31408828497E-001 
+1.50100000000E+010 -6.14219903946E-001 -4.75550800562E-001 -5.12574682944E-004 +1.27391060232E-004 +2.41565903707E-005 -3.36944794981E-005 -5.70551976562E-002 +3.50639402866E-001 
+1.52100000000E+010 -6.17038071156E-001 -4.73695695400E-001 -8.94651821000E-005 +5.32198231667E-004 -4.25177813668E-006 -2.51008641499E-005 -1.81733723730E-002 +3.66013377905E-001 
+1.54100000000E+010 -6.20478987694E-001 -4.70382243395E-001 +4.25751903094E-004 +2.91108444799E-004 -1.04160735646E-005 +1.23397549032E-005 +2.44336631149E-002 +3.76029729843E-001 
+1.56100000000E+010 -6.24059736729E-001 -4.65984255075E-001 +4.57019748865E-004 -2.17098437133E-004 -4.94217092637E-005 +9.43235954765E-006 +6.87391757965E-002 +3.80215942860E-001 
+1.58100000000E+010 -6.25118911266E-001 -4.64258879423E-001 -5.65494883631E-005 -5.20633126143E-004 +3.14721437462E-005 -5.21728770764E-006 +1.12889036536E-001 +3.80514979362E-001 
+1.60100000000E+010 -6.27298772335E-001 -4.62159156799E-001 -3.75278788852E-004 -1.03083417343E-004 -1.53757500811E-005 +4.75896786156E-006 +1.58398583531E-001 +3.75396549702E-001 
+1.62100000000E+010 -6.29528880119E-001 -4.59739476442E-001 -2.54795828369E-004 +3.99035081500E-004 -6.30183876638E-006 -5.57335770281E-005 +2.06000998616E-001 +3.64909619093E-001 
+1.64100000000E+010 -6.31634891033E-001 -4.57470744848E-001 +2.49297241680E-004 +4.11874934798E-004 +1.04197879409E-005 +2.67963478109E-005 +2.52994567156E-001 +3.48489791155E-001 
+1.66100000000E+010 -6.35074555874E-001 -4.54476594925E-001 +4.17081260821E-004 -2.58040818153E-005 -3.99654454668E-005 +1.05007447928E-005 +2.96961277723E-001 +3.24806839228E-001 
+1.68100000000E+010 -6.38115406036E-001 -4.51033443213E-001 +1.52476044605E-004 -3.64472332876E-004 -3.99508207920E-005 -6.92907906341E-006 +3.40247839689E-001 +2.97573864460E-001 
+1.70100000000E+010 -6.39422118664E-001 -4.48060184717E-001 -2.51222110819E-004 -2.75255035376E-004 -2.29747602134E-005 -2.69798601948E-006 +3.80725771189E-001 +2.66136318445E-001 
+1.72100000000E+010 -6.41282379627E-001 -4.45357024670E-001 -3.18353879265E-004 +1.87186044059E-004 +1.54935405590E-005 +2.99829953292E-005 +4.18628752232E-001 +2.27504223585E-001 
+1.74100000000E+010 -6.44419014454E-001 -4.42719250917E-001 +1.87417772395E-005 +2.64174857875E-004 -8.72657983564E-006 +1.88612011698E-005 +4.52028959990E-001 +1.84091061354E-001 
+1.76100000000E+010 -6.47210419178E-001 -4.39734220505E-001 +2.60818371316E-004 +1.78667964065E-004 +1.67007999607E-006 -6.89800344844E-006 +4.79719281197E-001 +1.37809514999E-001 
+1.78100000000E+010 -6.49940967560E-001 -4.36706393957E-001 +2.33123006183E-004 -2.86608003080E-004 -1.16767114378E-005 +2.61799032160E-005 +5.03162384033E-001 +8.91204550862E-002 
+1.80100000000E+010 -6.52074754238E-001 -4.33578670025E-001 -1.06982726720E-004 -3.02224245388E-004 +3.32756244461E-005 -8.10875353636E-005 +5.22268950939E-001 +3.75842265785E-002 
+1.82100000000E+010 -6.54898285866E-001 -4.30879384279E-001 -2.96974496450E-004 -3.44307263731E-005 +4.05475329899E-005 +7.95405321696E-006 +5.34649610519E-001 -1.71521510929E-002 
+1.84100000000E+010 -6.57297492027E-001 -4.28145825863E-001 -1.03312217107E-004 +3.12907417538E-004 +6.16929319222E-005 -2.88050136987E-006 +5.40914058685E-001 -7.44990631938E-002 
+1.86100000000E+010 -6.59810662270E-001 -4.25437033176E-001 +1.55624962645E-004 +2.63571069809E-004 -1.00638890217E-005 -6.95497692504E-006 +5.40949285030E-001 -1.31326839328E-001 
+1.88100000000E+010 -6.61812186241E-001 -4.22737419605E-001 +2.50532524660E-004 -1.17019277241E-004 -1.56304249685E-005 -4.78496112919E-005 +5.35345494747E-001 -1.88355982304E-001 
+1.90100000000E+010 -6.63676142693E-001 -4.20577764511E-001 -4.16157689642E-007 -2.25632233196E-004 -1.15560314953E-005 -3.45628068317E-005 +5.23867785931E-001 -2.45061457157E-001 
+1.92100000000E+010 -6.66463494301E-001 -4.18499171734E-001 -1.67427511769E-004 -1.22652127175E-004 +1.35641739689E-005 +6.05587592872E-006 +5.05137920380E-001 -3.02936732769E-001 
+1.94100000000E+010 -6.69156491756E-001 -4.15074706078E-001 -2.02662078664E-004 +1.05785555206E-004 +3.89307278965E-005 -3.40147380484E-005 +4.79525238276E-001 -3.58056902885E-001 
+1.96100000000E+010 -6.69521152973E-001 -4.11837160587E-001 +8.89446600922E-005 +2.50823359238E-004 +4.86483395434E-006 +1.02317071651E-005 +4.48429226875E-001 -4.09964054823E-001 
+1.98100000000E+010 -6.68380498886E-001 -4.08504575491E-001 +1.99463902391E-004 +5.48315620108E-005 -2.72762827080E-005 +4.26973347203E-005 +4.14195537567E-001 -4.57215577364E-001 
+2.00100000000E+010 -6.67627871037E-001 -4.07494336367E-001 +1.53847708134E-004 -1.57892151037E-004 -4.18857325712E-006 -1.36710514198E-005 +3.71989458799E-001 -5.04234790802E-001 
