!;Filter: kein Filter
!auto
!3/21/2019 9:26:52 AM
!3/21/2019 9:27:07 AM
!SP-Measurements Prober G4
!SP-Measurements Prober G4
!
!134
!233
!12
!20
!-20
!0.00199954
!1.75
!0.22129449
!0.22129449
# Hz S  RI   R 50
+1.00000000000E+007 +4.65072065592E-001 +1.08278114349E-002 +3.29354442656E-002 -1.38471312821E-002 +5.93632401433E-004 -3.79178876756E-004 +4.68829320744E-003 +1.15676422138E-003 
+2.10000000000E+008 +4.79261666536E-001 -4.44264113903E-002 -1.43888127059E-003 -3.40269319713E-002 +1.74758994831E-007 -2.52581176028E-005 +9.08188987523E-003 -4.39847679809E-003 
+4.10000000000E+008 +4.74890321493E-001 -9.16552171111E-002 -3.21816280484E-002 -1.04295294732E-002 +2.10070593312E-005 -2.48125834332E-005 +1.00992042571E-002 -7.33410753310E-003 
+6.10000000000E+008 +4.66687649488E-001 -1.37195676565E-001 -2.05780845135E-002 +2.67716590315E-002 -3.78372424166E-005 +1.59931314556E-005 +9.39732417464E-003 -1.14903524518E-002 
+8.10000000000E+008 +4.54079985619E-001 -1.81290179491E-001 +1.76871214062E-002 +2.82527431846E-002 +3.17638068736E-006 -7.20471098248E-006 +6.86421990395E-003 -1.53179522604E-002 
+1.01000000000E+009 +4.39245879650E-001 -2.23045542836E-001 +3.28201577067E-002 -7.48948333785E-003 -1.76667199412E-005 -1.54449207912E-005 +2.94464081526E-003 -1.88687015325E-002 
+1.21000000000E+009 +4.21175539494E-001 -2.63059437275E-001 +4.09403210506E-003 -3.21072600782E-002 +1.87806672329E-005 -1.44493446896E-006 -1.76806200761E-003 -2.11435519159E-002 
+1.41000000000E+009 +4.00512188673E-001 -3.00691545010E-001 -2.80818901956E-002 -1.52806183323E-002 +6.75959518048E-006 +9.34296338073E-007 -7.72607000545E-003 -2.42455825210E-002 
+1.61000000000E+009 +3.79252344370E-001 -3.36110442877E-001 -2.31620986015E-002 +2.16396991163E-002 +1.63353652169E-005 +2.60583274212E-005 -1.37308295816E-002 -2.69107948989E-002 
+1.81000000000E+009 +3.55052620173E-001 -3.68635237217E-001 +1.06959491968E-002 +2.83417571336E-002 -9.65222989180E-006 -5.15036435900E-006 -1.78335420787E-002 -2.79087759554E-002 
+2.01000000000E+009 +3.31056833267E-001 -3.98737430573E-001 +3.04759498686E-002 +5.80648891628E-004 -1.76630746864E-005 -1.05666663330E-006 -2.30491776019E-002 -2.68609505147E-002 
+2.21000000000E+009 +3.05681735277E-001 -4.27393496037E-001 +1.01473592222E-002 -2.80291363597E-002 +1.30937987706E-005 -2.32040656556E-005 -2.89622005075E-002 -2.47653238475E-002 
+2.41000000000E+009 +2.79021739960E-001 -4.52666133642E-001 -2.11714804173E-002 -1.98312662542E-002 +2.83966510324E-005 -2.55580962403E-005 -3.55952493846E-002 -2.23833285272E-002 
+2.61000000000E+009 +2.52856016159E-001 -4.75920677185E-001 -2.68614515662E-002 +1.25729897991E-002 -1.34216288643E-005 +8.32263140182E-006 -4.07421253622E-002 -1.93452872336E-002 
+2.81000000000E+009 +2.26001262665E-001 -4.97586637735E-001 +3.05912317708E-003 +2.86432635039E-002 -4.24593160631E-008 -8.75984255799E-007 -4.46907430887E-002 -1.44341662526E-002 
+3.01000000000E+009 +1.98711633682E-001 -5.16564965248E-001 +2.70673222840E-002 +8.59878584743E-003 -9.75535567704E-006 +7.82915049058E-006 -4.85453940928E-002 -8.75119119883E-003 
+3.21000000000E+009 +1.71919509768E-001 -5.33970952034E-001 +1.85495223850E-002 -2.29281298816E-002 -1.53482342284E-005 -5.04621584696E-006 -5.26326559484E-002 -2.30405596085E-003 
+3.41000000000E+009 +1.45106509328E-001 -5.49814283848E-001 -1.50521975011E-002 -2.41813175380E-002 -1.97037952603E-005 +6.76552463119E-006 -5.56428097188E-002 +4.92638256401E-003 
+3.61000000000E+009 +1.18683256209E-001 -5.63752710819E-001 -2.81557999551E-002 +3.97089170292E-003 -1.24829311972E-005 +2.87078401016E-005 -5.73993064463E-002 +1.18603911251E-002 
+3.81000000000E+009 +9.23588648438E-002 -5.76164126396E-001 -6.65235845372E-003 +2.93156709522E-002 -2.44603197643E-005 -2.97560818581E-005 -5.73171414435E-002 +1.92972943187E-002 
+4.01000000000E+009 +6.64047673345E-002 -5.87402403355E-001 +2.44108755141E-002 +1.52667202055E-002 +1.47792598000E-005 -3.81980640896E-007 -5.63315376639E-002 +2.73777339607E-002 
+4.21000000000E+009 +4.09961119294E-002 -5.96774518490E-001 +2.41443645209E-002 -1.63003019989E-002 +7.12331029717E-006 +7.50493381929E-006 -5.43214827776E-002 +3.60194258392E-002 
+4.41000000000E+009 +1.62594392896E-002 -6.05357527733E-001 -7.83069618046E-003 -3.02842631936E-002 +1.60072104336E-005 -1.16520377560E-005 -5.11722527444E-002 +4.43776994944E-002 
+4.61000000000E+009 -8.55895038694E-003 -6.12523794174E-001 -2.95579992235E-002 -2.64022452757E-003 +2.28969238378E-005 -5.78094841330E-006 -4.68694120646E-002 +5.16504347324E-002 
+4.81000000000E+009 -3.27352248132E-002 -6.18466079235E-001 -1.49328280240E-002 +2.66621559858E-002 +1.98908237508E-005 +2.45651426667E-006 -4.03950549662E-002 +5.89110888541E-002 
+5.01000000000E+009 -5.60173355043E-002 -6.24247848988E-001 +2.27961558849E-002 +2.42718476802E-002 -1.39320109156E-005 +7.69735106587E-006 -3.38491573930E-002 +6.56306147575E-002 
+5.21000000000E+009 -7.89206549525E-002 -6.28779947758E-001 +2.87024732679E-002 -1.23063102365E-002 -1.08035783342E-006 +1.72539403138E-005 -2.62516941875E-002 +7.16867074370E-002 
+5.41000000000E+009 -1.00897654891E-001 -6.32198989391E-001 +4.10383800045E-004 -3.30695733428E-002 -1.37642500704E-005 -3.32645845447E-006 -1.73337366432E-002 +7.67389759421E-002 
+5.61000000000E+009 -1.23201377690E-001 -6.35660588741E-001 -3.46776396036E-002 -9.38245281577E-003 -1.03808297354E-005 +2.60574361164E-005 -7.55361840129E-003 +7.99235627055E-002 
+5.81000000000E+009 -1.44372418523E-001 -6.37195885181E-001 -1.96466241032E-002 +2.69799064845E-002 +1.58478433150E-005 -3.82158432330E-005 +3.01631703041E-003 +8.09828564525E-002 
+6.01000000000E+009 -1.64352744818E-001 -6.38405859470E-001 +1.88335590065E-002 +3.13239134848E-002 +1.79375747393E-005 -5.99223858444E-006 +1.42768817022E-002 +8.26741755009E-002 
+6.21000000000E+009 -1.84878185391E-001 -6.39142990112E-001 +3.58905345201E-002 -1.34645979851E-002 -9.68740005192E-006 +1.84222135431E-005 +2.51853857189E-002 +8.21928977966E-002 
+6.41000000000E+009 -2.03822284937E-001 -6.38577222824E-001 +1.20414025150E-003 -3.54829691350E-002 +4.07204024668E-005 +2.16908629227E-005 +3.65989282727E-002 +8.02694559097E-002 
+6.61000000000E+009 -2.22677215934E-001 -6.38094246387E-001 -3.74066904187E-002 -1.50739774108E-002 -1.57319718710E-005 -2.27181735681E-005 +4.77821528912E-002 +7.53705874085E-002 
+6.81000000000E+009 -2.41312101483E-001 -6.36627554893E-001 -1.89909059554E-002 +3.33706550300E-002 -1.58338862093E-005 +1.46883276102E-005 +5.88677749038E-002 +6.95713758469E-002 
+7.01000000000E+009 -2.58287400007E-001 -6.34905219078E-001 +2.13324557990E-002 +2.91166957468E-002 +1.25361048049E-005 -2.10732105188E-005 +6.90179914236E-002 +6.32210373878E-002 
+7.21000000000E+009 -2.75462239981E-001 -6.32875919342E-001 +3.83204557002E-002 -1.48464431986E-002 +1.02662161225E-005 -2.69496631518E-005 +7.81070366502E-002 +5.45841827989E-002 
+7.41000000000E+009 -2.91663110256E-001 -6.30100965500E-001 -6.77725719288E-003 -3.37756276131E-002 +9.07443882170E-006 -2.10160669667E-005 +8.71031507850E-002 +4.44334410131E-002 
+7.61000000000E+009 -3.06556522846E-001 -6.27325773239E-001 -3.26008424163E-002 -7.78140174225E-003 +1.45046233229E-005 +7.22668755770E-006 +9.37120839953E-002 +3.23462001979E-002 
+7.81000000000E+009 -3.22188287973E-001 -6.23661339283E-001 -1.47256813943E-002 +3.26694734395E-002 -8.43005182105E-006 +2.48771266342E-005 +9.89950746298E-002 +1.98123957962E-002 
+8.01000000000E+009 -3.36109608412E-001 -6.19643926620E-001 +2.12391540408E-002 +1.82041134685E-002 -3.64605557479E-006 -3.32302479364E-005 +1.02615378797E-001 +6.14647939801E-003 
+8.21000000000E+009 -3.49781125784E-001 -6.15734577179E-001 +2.53809895366E-002 -1.19740599766E-002 +1.07531277536E-005 -1.42342869367E-005 +1.04839518666E-001 -7.96528998762E-003 
+8.41000000000E+009 -3.62956047058E-001 -6.11132860184E-001 -7.20000779256E-003 -2.65028942376E-002 -1.27034782054E-005 +2.48614360316E-005 +1.04407928884E-001 -2.32461988926E-002 
+8.61000000000E+009 -3.75628441572E-001 -6.07143461704E-001 -2.17444598675E-002 -2.67674564384E-003 -1.97121480596E-005 +6.72632677379E-006 +1.01085335016E-001 -3.88835109770E-002 
+8.81000000000E+009 -3.87880086899E-001 -6.03095769882E-001 -1.10622178763E-002 +1.92094296217E-002 +3.47036825588E-006 -1.30316066134E-005 +9.57170501351E-002 -5.44472932816E-002 
+9.01000000000E+009 -3.99621725082E-001 -5.98435461521E-001 +1.51346456259E-002 +1.35189173743E-002 +9.22082381294E-006 -9.35054777074E-006 +8.89482870698E-002 -6.84780254960E-002 
+9.21000000000E+009 -4.10934478045E-001 -5.94189584255E-001 +1.56672522426E-002 -6.59924559295E-003 -7.73006649979E-006 -7.33187698643E-006 +7.89203345776E-002 -8.33703428507E-002 
+9.41000000000E+009 -4.21606779099E-001 -5.89848101139E-001 -2.92141281534E-004 -1.71777028590E-002 +1.18339548862E-005 -2.15343188756E-005 +6.62946850061E-002 -9.70703959465E-002 
+9.61000000000E+009 -4.32064056396E-001 -5.85065126419E-001 -1.48016531020E-002 -3.47525556572E-003 -6.48809646009E-006 -4.09224048781E-006 +5.09119480848E-002 -1.09140388668E-001 
+9.81000000000E+009 -4.41582083702E-001 -5.80937325954E-001 -8.55039991438E-003 +1.01551683620E-002 +2.20028396143E-005 -2.21302507271E-005 +3.57181839645E-002 -1.18540331721E-001 
+1.00100000000E+010 -4.51370865107E-001 -5.76333880424E-001 +6.48904452100E-003 +1.17598772049E-002 -2.09895843000E-005 -2.83357212538E-006 +1.88911855221E-002 -1.26489415765E-001 
+1.02100000000E+010 -4.60265547037E-001 -5.71570038795E-001 +1.14125497639E-002 -2.49678362161E-003 -8.51186723594E-006 +3.20725739584E-005 +6.41029328108E-004 -1.33625283837E-001 
+1.04100000000E+010 -4.69286441803E-001 -5.67192196846E-001 +2.67861410975E-003 -1.02389128879E-002 +3.08817470795E-005 -9.71009558270E-006 -2.00929902494E-002 -1.39049708843E-001 
+1.06100000000E+010 -4.78045970201E-001 -5.62527358532E-001 -8.71322304010E-003 -6.12927414477E-003 +6.23622645435E-006 -3.07135487674E-005 -4.19697761536E-002 -1.41579195857E-001 
+1.08100000000E+010 -4.85508769751E-001 -5.58656632900E-001 -7.37838307396E-003 +5.46344835311E-003 +6.32266437606E-006 -2.46382410296E-006 -6.37800619006E-002 -1.41129568219E-001 
+1.10100000000E+010 -4.93429183960E-001 -5.54148554802E-001 +1.43264362123E-003 +8.44515953213E-003 +3.60457443094E-006 +1.60354727541E-006 -8.59940871596E-002 -1.37439742684E-001 
+1.12100000000E+010 -5.00830173492E-001 -5.50399184227E-001 +8.42216238379E-003 +1.55321648344E-003 -1.51423482748E-005 -1.98804609681E-005 -1.09852023423E-001 -1.30925208330E-001 
+1.14100000000E+010 -5.08084237576E-001 -5.45716464520E-001 +3.76009405591E-003 -6.36080279946E-003 +7.02054785506E-006 +2.29415745707E-005 -1.32897853851E-001 -1.20587594807E-001 
+1.16100000000E+010 -5.14138102531E-001 -5.41746556759E-001 -3.83205339313E-003 -5.94713538885E-003 -7.34643390388E-006 +3.36380471708E-005 -1.54756397009E-001 -1.07187688351E-001 
+1.18100000000E+010 -5.20747601986E-001 -5.37718713284E-001 -6.77982438356E-003 +1.56460586004E-003 -3.68925338989E-006 -2.12490922422E-005 -1.74498915672E-001 -9.03916954994E-002 
+1.20100000000E+010 -5.27527153492E-001 -5.33062100410E-001 -8.74236284290E-004 +5.98046509549E-003 -2.39888850047E-005 +2.16888911382E-005 -1.91866025329E-001 -7.09169730544E-002 
+1.22100000000E+010 -5.34251213074E-001 -5.28195559978E-001 +4.82682883739E-003 +3.31562012434E-003 +2.90878165288E-006 -1.47844048115E-005 -2.09311038256E-001 -4.87828701735E-002 
+1.24100000000E+010 -5.40219902992E-001 -5.23873388767E-001 +4.67525236309E-003 -3.36298439652E-003 +1.02138246802E-005 -6.92216144671E-006 -2.24012494087E-001 -2.31722034514E-002 
+1.26100000000E+010 -5.46154975891E-001 -5.19327700138E-001 -1.15718902089E-003 -4.88185184076E-003 -1.46663014675E-005 +7.27527378785E-007 -2.34026804566E-001 +4.57993336022E-003 
+1.28100000000E+010 -5.51620960236E-001 -5.14780879021E-001 -4.81217401102E-003 -1.06388307177E-003 -3.66047129319E-006 -1.31909100674E-005 -2.40447506309E-001 +3.37496884167E-002 
+1.30100000000E+010 -5.56981861591E-001 -5.09880185127E-001 -2.52756150439E-003 +4.03652247041E-003 -1.57423874043E-005 +7.85772499512E-006 -2.43997082114E-001 +6.36970773339E-002 
+1.32100000000E+010 -5.61859965324E-001 -5.05407512188E-001 +2.38632876426E-003 +3.45240789466E-003 -2.71524695563E-005 -1.84505242942E-005 -2.44339644909E-001 +9.53595563769E-002 
+1.34100000000E+010 -5.66919744015E-001 -5.00284612179E-001 +4.10159165040E-003 -6.72232417855E-004 +5.15763474596E-007 -6.32467299511E-006 -2.40820929408E-001 +1.27134680748E-001 
+1.36100000000E+010 -5.69927573204E-001 -4.95759755373E-001 +7.05932558049E-004 -3.94512899220E-003 -7.53682570576E-007 -6.29105556982E-007 -2.32993796468E-001 +1.60087093711E-001 
+1.38100000000E+010 -5.74845731258E-001 -4.91792947054E-001 -2.97159235924E-003 -2.01948173344E-003 -1.16474629976E-005 +1.08526628537E-005 -2.19976261258E-001 +1.92407518625E-001 
+1.40100000000E+010 -5.79346776009E-001 -4.87597614527E-001 -2.99898930825E-003 +1.82863394730E-003 -1.02470030470E-005 -6.38413212073E-007 -2.03134894371E-001 +2.23807707429E-001 
+1.42100000000E+010 -5.83497643471E-001 -4.83698695898E-001 +7.05207115971E-004 +3.31489671953E-003 +1.59047231136E-005 +2.21343407247E-006 -1.82404920459E-001 +2.55131214857E-001 
+1.44100000000E+010 -5.87783455849E-001 -4.79140043259E-001 +2.93802563101E-003 +7.11711472832E-004 -1.52515685841E-005 +8.67021117301E-006 -1.56529828906E-001 +2.83896118402E-001 
+1.46100000000E+010 -5.91137766838E-001 -4.75303024054E-001 +1.84268213343E-003 -2.41349125281E-003 -2.50596735896E-006 -4.09974973081E-006 -1.25729888678E-001 +3.09414952993E-001 
+1.48100000000E+010 -5.94298601151E-001 -4.69000041485E-001 -1.57820060849E-003 -2.45398632251E-003 +1.54581557581E-005 +4.72179272037E-006 -9.27175879478E-002 +3.31315189600E-001 
+1.50100000000E+010 -5.95607459545E-001 -4.67377066612E-001 -2.61881668121E-003 +3.22340260027E-004 -6.91871036906E-007 -1.00348688648E-005 -5.71295171976E-002 +3.50610047579E-001 
+1.52100000000E+010 -5.98119080067E-001 -4.65852826834E-001 -7.27465027012E-004 +2.51907785423E-003 +3.38716927217E-006 +3.80095502805E-006 -1.82493850589E-002 +3.65996241570E-001 
+1.54100000000E+010 -6.01139903069E-001 -4.62907344103E-001 +1.98751082644E-003 +1.48524111137E-003 -2.21959926421E-005 -1.48764938785E-005 +2.43241209537E-002 +3.76038163900E-001 
+1.56100000000E+010 -6.04222476482E-001 -4.58894103765E-001 +2.04242276959E-003 -1.05903367512E-003 -1.06035724912E-006 -1.77512210939E-005 +6.86220005155E-002 +3.80218684673E-001 
+1.58100000000E+010 -6.04940235615E-001 -4.57879960537E-001 -1.56389709446E-004 -2.27872631513E-003 -3.56088712579E-005 +3.40035985573E-005 +1.12780086696E-001 +3.80509793758E-001 
+1.60100000000E+010 -6.06955409050E-001 -4.56304907799E-001 -2.05383519642E-003 -6.26895925961E-004 -3.70470079361E-005 +1.48024028022E-005 +1.58301711082E-001 +3.75425308943E-001 
+1.62100000000E+010 -6.08865737915E-001 -4.54553157091E-001 -1.36908481363E-003 +1.46615365520E-003 +1.30367716338E-005 +7.87503813626E-006 +2.05862432718E-001 +3.64970833063E-001 
+1.64100000000E+010 -6.10771238804E-001 -4.52913671732E-001 +7.92164530139E-004 +1.83699151967E-003 -1.65809378814E-005 -3.33403222612E-005 +2.52873063087E-001 +3.48544329405E-001 
+1.66100000000E+010 -6.14108264446E-001 -4.50797230005E-001 +1.91060651559E-003 -1.23756937683E-004 +2.15542513615E-005 -4.50937733376E-007 +2.96874582767E-001 +3.24885725975E-001 
+1.68100000000E+010 -6.17074966431E-001 -4.47998315096E-001 +6.34153140709E-004 -1.66555470787E-003 -1.65086948982E-005 -2.24293198698E-005 +3.40256720781E-001 +2.97664046288E-001 
+1.70100000000E+010 -6.18436396122E-001 -4.45686340332E-001 -1.23597565107E-003 -1.27093086485E-003 -1.15209638807E-006 -1.70537123267E-006 +3.80702316761E-001 +2.66255646944E-001 
+1.72100000000E+010 -6.20496451855E-001 -4.43821996450E-001 -1.50587735698E-003 +6.62366568577E-004 +2.43347039941E-005 +3.41760714946E-005 +4.18556123972E-001 +2.27600827813E-001 
+1.74100000000E+010 -6.23749196529E-001 -4.41824585199E-001 -7.01450480847E-005 +1.54813565314E-003 +2.20440069825E-005 +1.79854450835E-005 +4.52037245035E-001 +1.84174358845E-001 
+1.76100000000E+010 -6.26841485500E-001 -4.39621180296E-001 +1.42018462066E-003 +6.60568359308E-004 +5.18337492394E-006 +1.40282445500E-005 +4.79655086994E-001 +1.37959316373E-001 
+1.78100000000E+010 -6.30059540272E-001 -4.37119334936E-001 +1.04544789065E-003 -9.81397577561E-004 -6.26708015261E-006 +2.61335826508E-005 +5.03220379353E-001 +8.92842337489E-002 
+1.80100000000E+010 -6.32590115070E-001 -4.34565544128E-001 -4.44187084213E-004 -1.33440154605E-003 +1.10802311610E-005 +3.55863539880E-006 +5.22289872169E-001 +3.77863980830E-002 
+1.82100000000E+010 -6.35724246502E-001 -4.32292938232E-001 -1.40565133188E-003 -8.05664458312E-005 +2.13912353502E-005 -4.30755790148E-007 +5.34737169743E-001 -1.70446336269E-002 
+1.84100000000E+010 -6.38740897179E-001 -4.30113196373E-001 -5.85563655477E-004 +1.12016755156E-003 -2.29685929298E-006 -2.37967342400E-005 +5.40964245796E-001 -7.43987560272E-002 
+1.86100000000E+010 -6.41581654549E-001 -4.27613645792E-001 +7.44403863791E-004 +9.73573944066E-004 -2.81787924905E-005 +3.57246899512E-005 +5.41102945805E-001 -1.31235286593E-001 
+1.88100000000E+010 -6.44177436829E-001 -4.25112158060E-001 +1.16748688743E-003 -3.26397479512E-004 -4.46946251031E-006 +5.46723049411E-006 +5.35465121269E-001 -1.88189476728E-001 
+1.90100000000E+010 -6.46462202072E-001 -4.23102557659E-001 +1.63617398357E-004 -1.13930902444E-003 -6.79850381857E-006 -1.95365623767E-006 +5.23980438709E-001 -2.44962856174E-001 
+1.92100000000E+010 -6.49669706821E-001 -4.21298831701E-001 -9.10450529773E-004 -5.90576557443E-004 -5.84843292017E-007 -7.93568779045E-006 +5.05196094513E-001 -3.02860260010E-001 
+1.94100000000E+010 -6.52654111385E-001 -4.18045341969E-001 -9.00377926882E-004 +6.54035247862E-004 +6.17780051471E-006 +3.08479525302E-006 +4.79688316584E-001 -3.57921242714E-001 
+1.96100000000E+010 -6.53416395187E-001 -4.15295779705E-001 +2.11198799661E-004 +9.79614676908E-004 +9.71173994913E-006 +7.78209710006E-007 +4.48687940836E-001 -4.09925818443E-001 
+1.98100000000E+010 -6.52996540070E-001 -4.12069469690E-001 +9.77454939857E-004 +1.98481604457E-004 +4.94334290124E-006 -4.00801000069E-005 +4.14501100779E-001 -4.57284778357E-001 
+2.00100000000E+010 -6.52903199196E-001 -4.10674542189E-001 +5.73207915295E-004 -7.72386614699E-004 -1.15316124720E-005 +6.65431707603E-006 +3.72287511826E-001 -5.04218995571E-001 
