!;Filter: kein Filter
!auto
!3/21/2019 9:27:54 AM
!3/21/2019 9:28:10 AM
!SP-Measurements Prober G4
!SP-Measurements Prober G4
!
!134
!235
!12
!20
!-20
!0.00599970
!2.02
!0.74959551
!0.74959551
# Hz S  RI   R 50
+1.00000000000E+007 +2.00234189630E-001 +8.51941108704E-003 +4.21696901321E-002 -1.69464647770E-002 -2.60000291746E-004 -8.79077779246E-005 +5.22697903216E-003 +1.19088159408E-003 
+2.10000000000E+008 +2.24240079522E-001 -2.02777367085E-002 -2.07262020558E-003 -4.34748008847E-002 +6.80652665324E-005 -2.88511819235E-005 +9.06009413302E-003 -4.40575229004E-003 
+4.10000000000E+008 +2.27445363998E-001 -5.28418943286E-002 -4.06365729868E-002 -1.38732269406E-002 +8.50140349939E-006 +4.04661004723E-005 +1.00837759674E-002 -7.25928833708E-003 
+6.10000000000E+008 +2.25571915507E-001 -8.47436413169E-002 -2.66777034849E-002 +3.21301706135E-002 -1.23395875562E-005 +3.33816860802E-005 +9.37045272440E-003 -1.14066526294E-002 
+8.10000000000E+008 +2.20426037908E-001 -1.16133637726E-001 +1.96470301598E-002 +3.61035056412E-002 -1.94014864974E-006 +1.82899821084E-005 +6.81503163651E-003 -1.52806518599E-002 
+1.01000000000E+009 +2.12541103363E-001 -1.45656049252E-001 +4.19910997152E-002 -5.78830065206E-003 -8.02189425997E-009 +1.28054189190E-005 +2.92509514838E-003 -1.88728086650E-002 
+1.21000000000E+009 +2.03591510653E-001 -1.74308508635E-001 +9.10757854581E-003 -4.04188111424E-002 +1.50343639689E-005 +1.42247909025E-005 -1.83234026190E-003 -2.10938453674E-002 
+1.41000000000E+009 +1.92472755909E-001 -2.02243402600E-001 -3.42157296836E-002 -2.32120677829E-002 +5.05848129251E-006 -1.91151721083E-005 -7.74723896757E-003 -2.41891033947E-002 
+1.61000000000E+009 +1.80728584528E-001 -2.28801697493E-001 -3.35508622229E-002 +2.43913102895E-002 +2.96184907711E-006 -1.69540453498E-005 -1.37338005006E-002 -2.68423743546E-002 
+1.81000000000E+009 +1.67179286480E-001 -2.54087537527E-001 +1.04888547212E-002 +3.91016788781E-002 +1.51374533743E-005 +2.64762161351E-006 -1.78784653544E-002 -2.78652701527E-002 
+2.01000000000E+009 +1.53096124530E-001 -2.78355211020E-001 +4.01117391884E-002 +4.74890880287E-003 +7.84140502219E-006 -2.75610018434E-005 -2.30491645634E-002 -2.67509054393E-002 
+2.21000000000E+009 +1.37662574649E-001 -3.01420241594E-001 +1.82051174343E-002 -3.60630266368E-002 +1.91777053260E-005 +1.48530234583E-005 -2.89715770632E-002 -2.46651452035E-002 
+2.41000000000E+009 +1.21220551431E-001 -3.22861224413E-001 -2.63470504433E-002 -2.93830167502E-002 -5.70547626921E-006 -1.82218227565E-005 -3.56190018356E-002 -2.22808159888E-002 
+2.61000000000E+009 +1.04375287890E-001 -3.42952966690E-001 -3.70317921042E-002 +1.37195074931E-002 +7.08961988494E-006 -7.06827313479E-006 -4.07131835818E-002 -1.92421674728E-002 
+2.81000000000E+009 +8.69454741478E-002 -3.61675709486E-001 -3.02882581309E-005 +3.92208807170E-002 +1.14649446914E-006 -3.52339498022E-006 -4.46309857070E-002 -1.43814329058E-002 
+3.01000000000E+009 +6.87704533339E-002 -3.79077404737E-001 +3.57619039714E-002 +1.42268510535E-002 -1.08472238480E-006 +3.96777238620E-007 -4.84781786799E-002 -8.67360364646E-003 
+3.21000000000E+009 +5.03460951149E-002 -3.95172178745E-001 +2.64540333301E-002 -2.81320158392E-002 -1.16058627100E-005 +1.39375324579E-005 -5.25545068085E-002 -2.27048248053E-003 
+3.41000000000E+009 +3.20120491087E-002 -4.09996926785E-001 -1.69613733888E-002 -3.42954471707E-002 -1.53193395818E-005 -1.53608550590E-006 -5.55151030421E-002 +4.93895635009E-003 
+3.61000000000E+009 +1.35372960940E-002 -4.23761785030E-001 -3.76162901521E-002 +3.00716888160E-003 -1.58788388944E-005 -2.24595314648E-005 -5.72264492512E-002 +1.18948007002E-002 
+3.81000000000E+009 -5.36330044270E-003 -4.36114251614E-001 -1.08955660835E-002 +3.62170562148E-002 +4.54992175491E-007 -9.49978220888E-006 -5.71876429021E-002 +1.93020477891E-002 
+4.01000000000E+009 -2.37403046340E-002 -4.47580397129E-001 +2.97687295824E-002 +2.27531082928E-002 +1.02223748399E-005 +2.19059893425E-005 -5.61498589814E-002 +2.73316409439E-002 
+4.21000000000E+009 -4.22770977020E-002 -4.57803010941E-001 +3.18071469665E-002 -1.89520586282E-002 +5.21402262166E-006 +5.41095869266E-006 -5.42321391404E-002 +3.59630323946E-002 
+4.41000000000E+009 -6.05189353228E-002 -4.67081606388E-001 -6.19801506400E-003 -3.66512835026E-002 +3.38133177138E-005 -2.93112098007E-005 -5.10636083782E-002 +4.43558022380E-002 
+4.61000000000E+009 -7.86642059684E-002 -4.75503265858E-001 -3.60799022019E-002 -7.12562119588E-003 +3.86645551771E-005 -1.07018422568E-005 -4.67682294548E-002 +5.16013056040E-002 
+4.81000000000E+009 -9.68800559640E-002 -4.83047485352E-001 -1.98012162000E-002 +3.06452214718E-002 -9.26582742977E-006 -3.66407039110E-006 -4.03133258224E-002 +5.88135309517E-002 
+5.01000000000E+009 -1.14544339478E-001 -4.90106165409E-001 +2.15225927532E-002 +2.94835623354E-002 +1.86582037713E-005 -6.12475923845E-006 -3.37697863579E-002 +6.55231997371E-002 
+5.21000000000E+009 -1.31672054529E-001 -4.96532618999E-001 +3.46735343337E-002 -9.32797696441E-003 -3.80116739507E-006 +5.49109108761E-006 -2.61941570789E-002 +7.15531185269E-002 
+5.41000000000E+009 -1.48681074381E-001 -5.01945793629E-001 +4.34646196663E-003 -3.54928150773E-002 -2.86970498564E-006 +5.00998839925E-006 -1.73095650971E-002 +7.66151472926E-002 
+5.61000000000E+009 -1.65825277567E-001 -5.06970763206E-001 -3.17328833044E-002 -1.69809870422E-002 +8.29861801321E-006 +3.78937766072E-005 -7.51937273890E-003 +7.98121839762E-002 
+5.81000000000E+009 -1.82134911418E-001 -5.11048793793E-001 -2.70190946758E-002 +2.31812223792E-002 +3.25949008584E-006 +7.90682861407E-006 +3.07962740771E-003 +8.08246582747E-002 
+6.01000000000E+009 -1.97841435671E-001 -5.14345109463E-001 +1.13777834922E-002 +3.38187180459E-002 -8.17938234832E-006 +8.09041830507E-006 +1.42415584996E-002 +8.25291872025E-002 
+6.21000000000E+009 -2.13666066527E-001 -5.17290413380E-001 +3.61936278641E-002 +1.44488725346E-003 +2.72722877526E-006 +4.02603791372E-006 +2.51311156899E-002 +8.20194631815E-002 
+6.41000000000E+009 -2.28746592999E-001 -5.19536137581E-001 +1.42721841112E-002 -3.30858975649E-002 +7.39993129173E-006 +9.11593633646E-006 +3.65509353578E-002 +8.00741985440E-002 
+6.61000000000E+009 -2.43887305260E-001 -5.21294713020E-001 -2.56860088557E-002 -2.59415414184E-002 -1.41523805723E-005 +5.86874250530E-007 +4.76752668619E-002 +7.52272754908E-002 
+6.81000000000E+009 -2.58339703083E-001 -5.22650897503E-001 -3.37859466672E-002 +1.55940223485E-002 -6.81474830344E-006 -9.20409365790E-006 +5.87522722781E-002 +6.94680288434E-002 
+7.01000000000E+009 -2.72341698408E-001 -5.23742198944E-001 +2.57149967365E-003 +3.69172021747E-002 -3.93094160245E-006 -6.15532098891E-006 +6.88475295901E-002 +6.30831420422E-002 
+7.21000000000E+009 -2.86169707775E-001 -5.24207890034E-001 +3.62284258008E-002 +1.10989250243E-002 +1.29275877043E-005 -1.27141447592E-005 +7.79191181064E-002 +5.44744543731E-002 
+7.41000000000E+009 -2.99275398254E-001 -5.24748206139E-001 +2.26193424314E-002 -3.08245718479E-002 -1.91885392269E-005 -1.02212538877E-007 +8.68997424841E-002 +4.43519242108E-002 
+7.61000000000E+009 -3.11772942543E-001 -5.24648666382E-001 -2.07331422716E-002 -3.17967087030E-002 -2.44614548137E-005 -3.28237206304E-006 +9.35312062502E-002 +3.23066450655E-002 
+7.81000000000E+009 -3.24637234211E-001 -5.23825407028E-001 -3.80191504955E-002 +8.71224328876E-003 +7.30925285097E-006 +2.44376296905E-005 +9.87369716167E-002 +1.98175571859E-002 
+8.01000000000E+009 -3.36604356766E-001 -5.22921621799E-001 -3.72416130267E-003 +3.86825352907E-002 +2.46194504143E-005 +2.94600567941E-006 +1.02401517332E-001 +6.20223814622E-003 
+8.21000000000E+009 -3.48256796598E-001 -5.21596252918E-001 +3.46906892955E-002 +1.68924648315E-002 -1.03548700281E-005 +2.54790375038E-005 +1.04631960392E-001 -7.89063330740E-003 
+8.41000000000E+009 -3.59515190125E-001 -5.19936144352E-001 +2.78519988060E-002 -2.80223973095E-002 +2.97639689961E-005 -1.69824925251E-005 +1.04200191796E-001 -2.31376625597E-002 
+8.61000000000E+009 -3.70725423098E-001 -5.18677413464E-001 -1.76429543644E-002 -3.40691208839E-002 -9.56869098445E-006 +1.28592428155E-005 +1.00886285305E-001 -3.87471690774E-002 
+8.81000000000E+009 -3.81417006254E-001 -5.17029881477E-001 -3.74682284892E-002 +4.43431315944E-003 -4.01426113967E-005 +7.94566130935E-006 +9.55071151257E-002 -5.42712137103E-002 
+9.01000000000E+009 -3.91783714294E-001 -5.15070557594E-001 -7.27880047634E-003 +3.71143110096E-002 -1.85642529686E-005 +1.91599920072E-005 +8.87991786003E-002 -6.82989954948E-002 
+9.21000000000E+009 -4.01886850595E-001 -5.13177573681E-001 +3.12605351210E-002 +1.81982219219E-002 -8.82822121184E-007 -9.29715224629E-006 +7.87976309657E-002 -8.31778869033E-002 
+9.41000000000E+009 -4.11383807659E-001 -5.11319220066E-001 +2.75529064238E-002 -2.25543659180E-002 -1.66904465004E-005 -3.87524733014E-006 +6.61918446422E-002 -9.68874394894E-002 
+9.61000000000E+009 -4.20812308788E-001 -5.08942425251E-001 -1.33979497477E-002 -3.30494977534E-002 -1.10721181557E-007 -2.39959372266E-005 +5.08175939322E-002 -1.08935296535E-001 
+9.81000000000E+009 -4.29452687502E-001 -5.07026135921E-001 -3.31387296319E-002 +2.13230517693E-003 -1.66445097420E-005 +3.18301545121E-006 +3.56693863869E-002 -1.18257381022E-001 
+1.00100000000E+010 -4.38230335712E-001 -5.04678308964E-001 -8.93748365343E-003 +3.12741547823E-002 +1.46126767504E-005 -1.41412010635E-006 +1.88737660646E-002 -1.26191154122E-001 
+1.02100000000E+010 -4.46450084448E-001 -5.02123773098E-001 +2.56784521043E-002 +1.66999343783E-002 +1.22782639664E-005 +1.95961547433E-005 +6.66154315695E-004 -1.33306443691E-001 
+1.04100000000E+010 -4.54912573099E-001 -4.99868392944E-001 +2.28095911443E-002 -1.67571436614E-002 +1.77872789209E-005 +1.28829460664E-005 -2.00280137360E-002 -1.38748899102E-001 
+1.06100000000E+010 -4.63037371635E-001 -4.97261852026E-001 -7.58199207485E-003 -2.59752701968E-002 -2.13279363379E-005 -3.79464072466E-005 -4.18246090412E-002 -1.41303241253E-001 
+1.08100000000E+010 -4.70057368279E-001 -4.95332211256E-001 -2.50836405903E-002 -1.54501083307E-003 -1.44759324030E-005 +9.14517386263E-006 -6.35864213109E-002 -1.40878573060E-001 
+1.10100000000E+010 -4.77501839399E-001 -4.92647141218E-001 -1.01632662117E-002 +2.16834452003E-002 +9.69223492575E-006 +6.36685172140E-006 -8.57712626457E-002 -1.37191414833E-001 
+1.12100000000E+010 -4.84446614981E-001 -4.90696907043E-001 +1.64255909622E-002 +1.64070278406E-002 +1.96228884306E-005 -8.16581541585E-006 -1.09589621425E-001 -1.30746334791E-001 
+1.14100000000E+010 -4.91406470537E-001 -4.87924188375E-001 +1.90069973469E-002 -9.14361886680E-003 -9.45275132835E-006 -1.41165110108E-005 -1.32617652416E-001 -1.20363757014E-001 
+1.16100000000E+010 -4.97180938721E-001 -4.85629796982E-001 -1.01212598383E-003 -1.98923926800E-002 -2.46383624471E-005 +1.14512761229E-006 -1.54405772686E-001 -1.07040107250E-001 
+1.18100000000E+010 -5.03589689732E-001 -4.83242154121E-001 -1.82492956519E-002 -5.87660493329E-003 -2.72812735602E-006 +7.95274991106E-006 -1.74077153206E-001 -9.03126224875E-002 
+1.20100000000E+010 -5.10056912899E-001 -4.80150043964E-001 -1.10936518759E-002 +1.38952387497E-002 +7.43228792999E-006 -2.77411277239E-006 -1.91482827067E-001 -7.08870515227E-002 
+1.22100000000E+010 -5.16497254372E-001 -4.76924508810E-001 +8.17181821913E-003 +1.47787453607E-002 +7.58744874929E-007 -1.01106961665E-005 -2.08928599954E-001 -4.87908273935E-002 
+1.24100000000E+010 -5.22364914417E-001 -4.74161028862E-001 +1.60243604332E-002 -2.38476390950E-003 -1.01008818092E-005 +1.04384446331E-006 -2.23641321063E-001 -2.32306309044E-002 
+1.26100000000E+010 -5.28195202351E-001 -4.71119731665E-001 +3.31558287144E-003 -1.45759014413E-002 -1.95330885617E-005 +1.57159684022E-005 -2.33640328050E-001 +4.47805831209E-003 
+1.28100000000E+010 -5.33585071564E-001 -4.68017429113E-001 -1.16039235145E-002 -8.32951441407E-003 -1.74731937364E-007 -4.20792275690E-006 -2.40075126290E-001 +3.35895754397E-002 
+1.30100000000E+010 -5.38893878460E-001 -4.64511811733E-001 -1.14041985944E-002 +7.47315539047E-003 +1.82670792128E-005 -1.52910088218E-005 -2.43659704924E-001 +6.34621530771E-002 
+1.32100000000E+010 -5.43772995472E-001 -4.61465656757E-001 +2.51297233626E-003 +1.25048449263E-002 -1.42409617183E-005 +2.78244488072E-006 -2.44000032544E-001 +9.50744152069E-002 
+1.34100000000E+010 -5.48821985722E-001 -4.57730889320E-001 +1.20945367962E-002 +2.35197576694E-003 +6.07038646194E-006 +3.48635112459E-005 -2.40559056401E-001 +1.26775220037E-001 
+1.36100000000E+010 -5.52013695240E-001 -4.54523980618E-001 +6.13540038466E-003 -9.97900497168E-003 +2.79506730294E-005 +1.09658485599E-005 -2.32741072774E-001 +1.59725010395E-001 
+1.38100000000E+010 -5.56947588921E-001 -4.51652228832E-001 -6.41528237611E-003 -8.81892349571E-003 +5.31139176019E-006 -2.40472763835E-005 -2.19776168466E-001 +1.91972941160E-001 
+1.40100000000E+010 -5.61524748802E-001 -4.48676437140E-001 -1.02089988068E-002 +2.47035594657E-003 -1.92885308934E-005 +2.73729278888E-006 -2.03017771244E-001 +2.23322302103E-001 
+1.42100000000E+010 -5.65740346909E-001 -4.45955991745E-001 -1.27998250537E-003 +9.82127152383E-003 -1.36934095281E-005 -1.07488276626E-005 -1.82360664010E-001 +2.54679620266E-001 
+1.44100000000E+010 -5.70017278194E-001 -4.42539662123E-001 +8.01882799715E-003 +4.65821893886E-003 +8.04550018074E-006 +2.77280123555E-005 -1.56558558345E-001 +2.83372312784E-001 
+1.46100000000E+010 -5.73536992073E-001 -4.39777135849E-001 +7.10793491453E-003 -5.38636092097E-003 +1.47757491504E-005 -1.72323907464E-005 -1.25825524330E-001 +3.08941692114E-001 
+1.48100000000E+010 -5.76961040497E-001 -4.34828728437E-001 -2.31244647875E-003 -8.09296872467E-003 +2.72599231721E-006 +5.75013336857E-006 -9.28621217608E-002 +3.30852776766E-001 
+1.50100000000E+010 -5.78625023365E-001 -4.33980345726E-001 -7.84847326577E-003 -1.05125620030E-003 -1.69135455508E-005 +1.40536676554E-005 -5.73883727193E-002 +3.50107222795E-001 
+1.52100000000E+010 -5.81373751163E-001 -4.33323651552E-001 -3.81558435038E-003 +6.63684448227E-003 -3.06098881993E-005 -1.19827300296E-005 -1.85478813946E-002 +3.65545332432E-001 
+1.54100000000E+010 -5.84510982037E-001 -4.31254625320E-001 +4.45941602811E-003 +5.66034950316E-003 -1.80052065843E-005 +5.15653846378E-006 +2.39827465266E-002 +3.75657737255E-001 
+1.56100000000E+010 -5.87750136852E-001 -4.28168714046E-001 +6.58506155014E-003 -1.75735808443E-003 -3.57200065082E-006 -4.78266701975E-006 +6.81956708431E-002 +3.79870116711E-001 
+1.58100000000E+010 -5.88785767555E-001 -4.27813947201E-001 +7.76276632678E-004 -6.50133611634E-003 -2.49282529694E-005 +2.12969334825E-005 +1.12312227488E-001 +3.80259811878E-001 
+1.60100000000E+010 -5.90913176537E-001 -4.27050977945E-001 -5.36868954077E-003 -2.99594900571E-003 -9.34295258048E-007 +1.94827971427E-005 +1.57771721482E-001 +3.75215530396E-001 
+1.62100000000E+010 -5.92967629433E-001 -4.25949186087E-001 -4.65159537271E-003 +3.41877294704E-003 -2.81557663584E-006 -2.23901915888E-005 +2.05331340432E-001 +3.64868223667E-001 
+1.64100000000E+010 -5.95060348511E-001 -4.25035178661E-001 +1.27654115204E-003 +5.47608500347E-003 -3.35883032676E-006 +1.45929780047E-005 +2.52320647240E-001 +3.48498135805E-001 
+1.66100000000E+010 -5.98431110382E-001 -4.23550277948E-001 +5.26219792664E-003 +8.65310954396E-004 +8.65944821271E-006 -3.51481830876E-005 +2.96278089285E-001 +3.24908316135E-001 
+1.68100000000E+010 -6.01541817188E-001 -4.21493500471E-001 +2.79370741919E-003 -4.26406599581E-003 -3.93775917473E-005 +1.91000854102E-005 +3.39650511742E-001 +2.97780245543E-001 
+1.70100000000E+010 -6.03054285049E-001 -4.19928044081E-001 -2.79505294748E-003 -4.07194206491E-003 -1.28806977955E-005 -2.08301989915E-005 +3.80127340555E-001 +2.66427755356E-001 
+1.72100000000E+010 -6.05271160603E-001 -4.18672412634E-001 -4.58586914465E-003 +9.38631594181E-004 +2.41978978011E-005 +6.23302985332E-005 +4.18029785156E-001 +2.27858647704E-001 
+1.74100000000E+010 -6.08616232872E-001 -4.17310446501E-001 -9.60699573625E-004 +4.44864062592E-003 +6.04046817898E-006 -3.99177042709E-006 +4.51548188925E-001 +1.84539005160E-001 
+1.76100000000E+010 -6.11870527267E-001 -4.15673345327E-001 +3.60963284038E-003 +2.45710322633E-003 +4.75122506032E-005 -1.54611770995E-005 +4.79219734669E-001 +1.38418510556E-001 
+1.78100000000E+010 -6.15123271942E-001 -4.13738429546E-001 +3.52833699435E-003 -2.20857234672E-003 +2.55050167652E-006 -2.28876820074E-006 +5.02875149250E-001 +8.97431895137E-002 
+1.80100000000E+010 -6.17721736431E-001 -4.11824584007E-001 -5.40408247616E-004 -3.96020710468E-003 +1.99133341994E-006 +4.43579347120E-006 +5.21995663643E-001 +3.83329093456E-002 
+1.82100000000E+010 -6.21015012264E-001 -4.10197556019E-001 -3.74768325128E-003 -9.32838127483E-004 +9.00355098565E-006 +3.27494512931E-006 +5.34516632557E-001 -1.64217110723E-002 
+1.84100000000E+010 -6.24066770077E-001 -4.08531874418E-001 -2.19792895950E-003 +2.95102712698E-003 +1.15576212920E-005 -4.51372079624E-006 +5.40870547295E-001 -7.37586542964E-002 
+1.86100000000E+010 -6.27032995224E-001 -4.06663686037E-001 +1.76230724901E-003 +3.09802056290E-003 +4.14193709730E-006 -1.00329898487E-005 +5.41046798229E-001 -1.30579158664E-001 
+1.88100000000E+010 -6.29631936550E-001 -4.04773503542E-001 +3.42495064251E-003 -3.88178974390E-004 +4.97060364069E-006 +6.14933014731E-006 +5.35515069962E-001 -1.87498793006E-001 
+1.90100000000E+010 -6.32038056850E-001 -4.03410434723E-001 +9.32697555982E-004 -3.14223789610E-003 +1.13293526738E-005 +2.18035620492E-005 +5.24102210999E-001 -2.44352892041E-001 
+1.92100000000E+010 -6.35474443436E-001 -4.02175694704E-001 -2.43679643609E-003 -2.06058262847E-003 -6.29304395261E-006 -3.09816437039E-006 +5.05403101444E-001 -3.02297919989E-001 
+1.94100000000E+010 -6.38571679592E-001 -3.99348288774E-001 -2.77250842191E-003 +1.40828511212E-003 +8.44355236040E-006 +1.39925796248E-005 +4.79910492897E-001 -3.57338368893E-001 
+1.96100000000E+010 -6.39309167862E-001 -3.97061467171E-001 +2.11171281990E-004 +2.92458431795E-003 -3.51539965777E-005 +7.84547410149E-006 +4.49081391096E-001 -4.09349441528E-001 
+1.98100000000E+010 -6.38873338699E-001 -3.94550055265E-001 +2.68001132645E-003 +9.83303063549E-004 -5.34978971700E-006 +1.23031459225E-005 +4.14897263050E-001 -4.56748604774E-001 
+2.00100000000E+010 -6.38709247112E-001 -3.94032895565E-001 +1.84198969509E-003 -2.03546066768E-003 -3.23723579641E-005 -6.12848543824E-006 +3.72713476419E-001 -5.03776133060E-001 
