!;Filter: kein Filter
!auto
!3/21/2019 9:27:07 AM
!3/21/2019 9:27:22 AM
!SP-Measurements Prober G4
!SP-Measurements Prober G4
!
!134
!235
!12
!20
!-20
!0.00299959
!1.83
!0.38139174
!0.38139174
# Hz S  RI   R 50
+1.00000000000E+007 +3.45403432846E-001 +1.69395953417E-002 +4.44157868624E-002 -1.87687445432E-002 +4.01637837058E-004 -1.52323336806E-004 +5.08905947208E-003 +8.15305567812E-004 
+2.10000000000E+008 +3.67535233498E-001 -3.49809117615E-002 -2.02130270191E-003 -4.50388640165E-002 +4.32108754467E-005 +3.92214169551E-005 +9.06222313643E-003 -4.38048737124E-003 
+4.10000000000E+008 +3.65354269743E-001 -7.66285732388E-002 -4.23527769744E-002 -1.43033657223E-002 -2.77397703030E-005 -2.16937514779E-005 +1.00542278960E-002 -7.29113398120E-003 
+6.10000000000E+008 +3.58801990747E-001 -1.16360589862E-001 -2.74568609893E-002 +3.45284156501E-002 +1.68151600519E-005 +1.68709029822E-005 +9.45184938610E-003 -1.14910649136E-002 
+8.10000000000E+008 +3.48956674337E-001 -1.54513418674E-001 +2.22379527986E-002 +3.75345945358E-002 -3.88524167647E-005 +1.34980846269E-005 +6.86052534729E-003 -1.53100080788E-002 
+1.01000000000E+009 +3.36712986231E-001 -1.90744087100E-001 +4.33625727892E-002 -7.44617823511E-003 -1.41914542837E-005 -2.40450867750E-006 +2.95810005628E-003 -1.88515111804E-002 
+1.21000000000E+009 +3.22527736425E-001 -2.25420862436E-001 +7.48631311581E-003 -4.20978479087E-002 +1.50211699292E-005 -6.62312322675E-006 -1.78589101415E-003 -2.11275927722E-002 
+1.41000000000E+009 +3.05925279856E-001 -2.58567094803E-001 -3.62170860171E-002 -2.24319398403E-002 +1.35047512231E-005 -7.93517392594E-006 -7.69084598869E-003 -2.42418497801E-002 
+1.61000000000E+009 +2.88711577654E-001 -2.89614379406E-001 -3.42033579946E-002 +2.64826640487E-002 +3.39287580573E-005 -6.38672054265E-006 -1.37297846377E-002 -2.69004013389E-002 
+1.81000000000E+009 +2.69427180290E-001 -3.18852424622E-001 +1.26632871106E-002 +4.05102968216E-002 +8.55542748468E-006 +1.65914207173E-005 -1.78379081190E-002 -2.78907604516E-002 
+2.01000000000E+009 +2.49988183379E-001 -3.46365064383E-001 +4.19939272106E-002 +2.40175495856E-003 -2.68796648015E-005 -2.71241378869E-006 -2.30261497200E-002 -2.68132239580E-002 
+2.21000000000E+009 +2.29000046849E-001 -3.72456043959E-001 +1.68551225215E-002 -3.86328250170E-002 +2.25891199079E-005 -2.36690175370E-005 -2.89488099515E-002 -2.47464291751E-002 
+2.41000000000E+009 +2.06875264645E-001 -3.96258860826E-001 -2.92552914470E-002 -2.86169555038E-002 +2.04983989534E-005 +1.02837120721E-005 -3.55900935829E-002 -2.23712157458E-002 
+2.61000000000E+009 +1.84700980783E-001 -4.18169975281E-001 -3.70458252728E-002 +1.60949435085E-002 -1.64601460710E-005 +2.30668047152E-006 -4.07513119280E-002 -1.93232279271E-002 
+2.81000000000E+009 +1.62027969956E-001 -4.38381314278E-001 +2.37260805443E-003 +4.05920222402E-002 -1.08711656139E-005 -6.06370713285E-006 -4.46777231991E-002 -1.44200827926E-002 
+3.01000000000E+009 +1.38640478253E-001 -4.56745058298E-001 +3.73089835048E-002 +1.25609608367E-002 -1.09440015876E-005 -1.83816719073E-005 -4.85182143748E-002 -8.73146578670E-003 
+3.21000000000E+009 +1.15446306765E-001 -4.73496854305E-001 +2.64831352979E-002 -3.00942379981E-002 +4.79453638036E-006 -3.65621986020E-007 -5.26237748563E-002 -2.31285789050E-003 
+3.41000000000E+009 +9.23918783665E-002 -4.88854914904E-001 -1.95916350931E-002 -3.50735969841E-002 +8.23374739412E-006 -1.54172266775E-005 -5.56043870747E-002 +4.88896155730E-003 
+3.61000000000E+009 +6.94030523300E-002 -5.02726256847E-001 -3.92700806260E-002 +4.45586908609E-003 +4.82394079881E-006 -3.12152515107E-005 -5.73301874101E-002 +1.18555547670E-002 
+3.81000000000E+009 +4.63201813400E-002 -5.15024483204E-001 -1.07409358025E-002 +3.93441468477E-002 -1.61688185472E-005 -9.30725127546E-006 -5.72753883898E-002 +1.92944128066E-002 
+4.01000000000E+009 +2.38036550581E-002 -5.26282668114E-001 +3.30416895449E-002 +2.33685038984E-002 -1.35084792419E-005 -7.26928101358E-006 -5.62339089811E-002 +2.73575168103E-002 
+4.21000000000E+009 +1.42362865154E-003 -5.36067903042E-001 +3.45053039491E-002 -2.12564878166E-002 -3.59224504791E-005 -6.77380148772E-006 -5.42872399092E-002 +3.59910465777E-002 
+4.41000000000E+009 -2.04306505620E-002 -5.44908881187E-001 -7.56678497419E-003 -4.20144163072E-002 +1.17971640066E-005 -9.27839391807E-006 -5.11454492807E-002 +4.43659052253E-002 
+4.61000000000E+009 -4.22625057399E-002 -5.52728891373E-001 -4.21480014920E-002 -6.68198568746E-003 +2.85573623842E-005 +1.72959553311E-005 -4.68209534883E-002 +5.16100116074E-002 
+4.81000000000E+009 -6.38383179903E-002 -5.59374690056E-001 -2.29569952935E-002 +3.69110032916E-002 -1.26624922814E-006 +2.74963241509E-007 -4.03864383698E-002 +5.88894113898E-002 
+5.01000000000E+009 -8.46100002527E-002 -5.65644741058E-001 +2.87090148777E-002 +3.64925041795E-002 +1.19432115753E-005 -4.08128516938E-006 -3.38342525065E-002 +6.56020641327E-002 
+5.21000000000E+009 -1.04956060648E-001 -5.71085512638E-001 +4.33459952474E-002 -1.53685379773E-002 -2.15600312004E-006 -5.12754513693E-006 -2.62499395758E-002 +7.16304406524E-002 
+5.41000000000E+009 -1.24745734036E-001 -5.75450539589E-001 +2.43138708174E-003 -4.77632768452E-002 -2.16749558604E-005 -2.18609584408E-005 -1.73761192709E-002 +7.66973868012E-002 
+5.61000000000E+009 -1.44815295935E-001 -5.79632818699E-001 -4.80330698192E-002 -1.80844776332E-002 +9.64476498666E-007 +1.94239637494E-005 -7.55025772378E-003 +7.98974186182E-002 
+5.81000000000E+009 -1.63840010762E-001 -5.82353830338E-001 -3.17633785307E-002 +3.86826731265E-002 +2.68716430583E-005 +3.43394858646E-005 +3.03383846767E-003 +8.09317007661E-002 
+6.01000000000E+009 -1.81977614760E-001 -5.84472179413E-001 +2.62010004371E-002 +4.66802008450E-002 +1.75066998054E-006 -2.35301722569E-005 +1.42833087593E-002 +8.26160535216E-002 
+6.21000000000E+009 -2.00489521027E-001 -5.86336851120E-001 +5.54828569293E-002 -1.42173403874E-002 +1.93024152395E-005 +2.18668992602E-005 +2.51502934843E-002 +8.20741876960E-002 
+6.41000000000E+009 -2.17848196626E-001 -5.86979091167E-001 +3.96508350968E-003 -5.52400164306E-002 -5.53800009584E-006 -1.14238209790E-005 +3.65984886885E-002 +8.01909491420E-002 
+6.61000000000E+009 -2.35189571977E-001 -5.87498486042E-001 -5.61751052737E-002 -2.27109659463E-002 -1.90655500774E-005 -1.53517539729E-005 +4.77375350893E-002 +7.53139927983E-002 
+6.81000000000E+009 -2.52125978470E-001 -5.87289571762E-001 -3.27815264463E-002 +5.07348775864E-002 -9.19979174796E-006 +1.58490875037E-005 +5.88259957731E-002 +6.95429071784E-002 
+7.01000000000E+009 -2.67872422934E-001 -5.86621582508E-001 +3.47658544779E-002 +4.55563925207E-002 +1.51519707288E-005 +5.79289780944E-006 +6.89296722412E-002 +6.32060021162E-002 
+7.21000000000E+009 -2.83759146929E-001 -5.85743486881E-001 +5.67009560764E-002 -2.57351920009E-002 -9.87045950751E-006 -2.99382900266E-005 +7.80353844166E-002 +5.45252673328E-002 
+7.41000000000E+009 -2.98728704453E-001 -5.84288954735E-001 -1.33200949058E-002 -5.14528155327E-002 +3.19198898069E-006 +1.49879733726E-005 +8.70585218072E-002 +4.44090403616E-002 
+7.61000000000E+009 -3.12431097031E-001 -5.82289278507E-001 -4.83536720276E-002 -5.19585795701E-003 -1.91406361409E-005 -2.00672093342E-005 +9.36631560326E-002 +3.23238708079E-002 
+7.81000000000E+009 -3.26646387577E-001 -5.79711914063E-001 -1.81465223432E-002 +4.05868478119E-002 -1.78374784809E-006 -1.15592558814E-006 +9.88955795765E-002 +1.97983402759E-002 
+8.01000000000E+009 -3.39705288410E-001 -5.77039897442E-001 +2.99440845847E-002 +2.79100965708E-002 -5.57454222871E-006 -1.32939294417E-005 +1.02499529719E-001 +6.17895973846E-003 
+8.21000000000E+009 -3.52468043566E-001 -5.74302256107E-001 +3.72588671744E-002 -1.78656373173E-002 +2.38887514570E-005 -1.47497439684E-005 +1.04751609266E-001 -7.92151689529E-003 
+8.41000000000E+009 -3.64748269320E-001 -5.71029186249E-001 -9.01007186621E-003 -3.78521084785E-002 -9.41074176808E-006 -1.21991388369E-005 +1.04362450540E-001 -2.31953430921E-002 
+8.61000000000E+009 -3.76668632030E-001 -5.68104267120E-001 -3.29119078815E-002 -3.76007403247E-003 -5.26153962710E-006 -7.65547270021E-007 +1.01007215679E-001 -3.88530753553E-002 
+8.81000000000E+009 -3.88053774834E-001 -5.64929902554E-001 -1.48090040311E-002 +2.87081822753E-002 -6.81404981151E-006 -5.83745213589E-006 +9.56330969930E-002 -5.43933026493E-002 
+9.01000000000E+009 -3.99069547653E-001 -5.61483860016E-001 +2.07495540380E-002 +1.99010800570E-002 +4.78426443351E-007 -1.95723828256E-007 +8.89172777534E-002 -6.84005320072E-002 
+9.21000000000E+009 -4.09808784723E-001 -5.58403432369E-001 +2.34318636358E-002 -9.92680434138E-003 +8.54598511069E-006 +6.34873777017E-006 +7.89179801941E-002 -8.33395272493E-002 
+9.41000000000E+009 -4.19929355383E-001 -5.55313050747E-001 -1.22570444364E-003 -2.49444954097E-002 +2.42578007601E-005 +1.99194055313E-005 +6.62540197372E-002 -9.70567241311E-002 
+9.61000000000E+009 -4.29811328650E-001 -5.51312804222E-001 -2.12699528784E-002 -5.68170985207E-003 -6.90696197125E-007 -3.99397758883E-005 +5.08978068829E-002 -1.09077118337E-001 
+9.81000000000E+009 -4.38953012228E-001 -5.48418998718E-001 -1.25513011590E-002 +1.54037745669E-002 -2.77274943983E-006 +7.52033201934E-006 +3.56964282691E-002 -1.18438236415E-001 
+1.00100000000E+010 -4.48189318180E-001 -5.44831216335E-001 +9.93734784424E-003 +1.65721513331E-002 +1.54822082550E-005 +3.87658838008E-006 +1.89137235284E-002 -1.26383051276E-001 
+1.02100000000E+010 -4.56647127867E-001 -5.40957033634E-001 +1.67522113770E-002 -3.27362469397E-003 +2.11329170270E-005 +3.46080269082E-005 +6.93431240506E-004 -1.33578106761E-001 
+1.04100000000E+010 -4.65586066246E-001 -5.37831306458E-001 +3.63318808377E-003 -1.54131045565E-002 +2.61281838903E-005 -1.07341766125E-005 -2.00468394905E-002 -1.38957902789E-001 
+1.06100000000E+010 -4.74091291428E-001 -5.34238696098E-001 -1.28330886364E-002 -8.34885332733E-003 +1.42879780469E-005 +6.77243360769E-006 -4.19475287199E-002 -1.41458585858E-001 
+1.08100000000E+010 -4.81093108654E-001 -5.30837416649E-001 -1.09419142827E-002 +7.96331930906E-003 +1.09431912279E-005 -5.79054767513E-006 -6.37010037899E-002 -1.41048252583E-001 
+1.10100000000E+010 -4.88827884197E-001 -5.27202486992E-001 +2.51496233977E-003 +1.25014288351E-002 +4.02323212256E-006 +5.61579054192E-006 -8.59462320805E-002 -1.37420430779E-001 
+1.12100000000E+010 -4.95993614197E-001 -5.24228990078E-001 +1.20910927653E-002 +1.75253057387E-003 +2.07016928471E-005 +6.60305795464E-006 -1.09803706408E-001 -1.30861327052E-001 
+1.14100000000E+010 -5.03046810627E-001 -5.20460188389E-001 +5.49826398492E-003 -9.33616422117E-003 -8.61766602611E-006 +1.73603348230E-005 -1.32814347744E-001 -1.20504200459E-001 
+1.16100000000E+010 -5.08963167667E-001 -5.17306625843E-001 -5.89729053900E-003 -8.46634339541E-003 +1.90613754967E-005 -1.09593547677E-005 -1.54606059194E-001 -1.07122890651E-001 
+1.18100000000E+010 -5.15517950058E-001 -5.14159083366E-001 -9.51621308923E-003 +2.56587029435E-003 -2.46394320129E-005 -2.81171242023E-006 -1.74377307296E-001 -9.03696864843E-002 
+1.20100000000E+010 -5.22200047970E-001 -5.10251581669E-001 -1.24767958187E-003 +8.72486922890E-003 +1.15569000627E-005 +5.87589056522E-006 -1.91722840071E-001 -7.09259733558E-002 
+1.22100000000E+010 -5.28672695160E-001 -5.05992710590E-001 +7.17827444896E-003 +4.55038342625E-003 +9.13620988285E-006 -1.37646811709E-005 -2.09190368652E-001 -4.88012768328E-002 
+1.24100000000E+010 -5.34594774246E-001 -5.02405643463E-001 +6.41177129000E-003 -4.89037018269E-003 -1.37849592647E-005 -2.11330188904E-005 -2.23890334368E-001 -2.32139937580E-002 
+1.26100000000E+010 -5.40426790714E-001 -4.98644173145E-001 -1.65303959511E-003 -7.06211011857E-003 +2.55636823567E-005 +8.01761325420E-006 -2.33899205923E-001 +4.56211715937E-003 
+1.28100000000E+010 -5.45960903168E-001 -4.94811892509E-001 -6.95072067901E-003 -1.35329132900E-003 -1.18112584460E-005 -1.09984546270E-006 -2.40331575274E-001 +3.36872562766E-002 
+1.30100000000E+010 -5.51246941090E-001 -4.90492433310E-001 -3.51941073313E-003 +5.67362364382E-003 -1.44066098073E-006 -2.25554285862E-005 -2.43916705251E-001 +6.36049211025E-002 
+1.32100000000E+010 -5.56276738644E-001 -4.86868560314E-001 +3.37508553639E-003 +5.12941647321E-003 -2.04698935704E-005 +1.50186833707E-005 -2.44184404612E-001 +9.53007191420E-002 
+1.34100000000E+010 -5.61364471912E-001 -4.82416957617E-001 +5.97586296499E-003 -1.03688216768E-003 -3.50055161107E-005 +1.58256825671E-005 -2.40718528628E-001 +1.26973763108E-001 
+1.36100000000E+010 -5.64439952374E-001 -4.78353202343E-001 +1.05639919639E-003 -5.63607737422E-003 +3.20136023220E-005 +1.89266538655E-005 -2.32912659645E-001 +1.59962981939E-001 
+1.38100000000E+010 -5.69282472134E-001 -4.74816322327E-001 -4.37993928790E-003 -3.05935484357E-003 +8.95281937119E-006 +7.69842154114E-006 -2.19909623265E-001 +1.92281648517E-001 
+1.40100000000E+010 -5.73858439922E-001 -4.71142798662E-001 -4.49020974338E-003 +2.76353512891E-003 -2.18083259824E-005 -2.92814947898E-005 -2.03123182058E-001 +2.23631650209E-001 
+1.42100000000E+010 -5.78216314316E-001 -4.67998027802E-001 +9.35849035159E-004 +4.81132650748E-003 +1.34255606099E-005 +2.23668598665E-006 -1.82413935661E-001 +2.54967391491E-001 
+1.44100000000E+010 -5.82481563091E-001 -4.64039057493E-001 +4.40210150555E-003 +1.10427115578E-003 +1.87100181392E-006 +3.02156931866E-005 -1.56554847956E-001 +2.83676266670E-001 
+1.46100000000E+010 -5.85900485516E-001 -4.60653007030E-001 +2.71034217440E-003 -3.62154119648E-003 -3.95399947593E-005 -8.85060489964E-006 -1.25749573112E-001 +3.09246957302E-001 
+1.48100000000E+010 -5.89221358299E-001 -4.55010205507E-001 -2.20899283886E-003 -3.60381905921E-003 +2.57945794147E-005 -1.55762045324E-005 -9.27308201790E-002 +3.31152468920E-001 
+1.50100000000E+010 -5.90650796890E-001 -4.53566640615E-001 -3.99579387158E-003 +5.48754469492E-004 -1.89608988421E-006 -1.82509575097E-005 -5.72014711797E-002 +3.50445836782E-001 
+1.52100000000E+010 -5.93197107315E-001 -4.52350288630E-001 -9.96908056550E-004 +3.74062079936E-003 -3.48954722540E-006 +2.59591488430E-005 -1.83518957347E-002 +3.65848600864E-001 
+1.54100000000E+010 -5.96558332443E-001 -4.49963539839E-001 +2.85581359640E-003 +2.11397744715E-003 -1.91452782019E-005 -6.13222982793E-006 +2.42398139089E-002 +3.75922620296E-001 
+1.56100000000E+010 -5.99620461464E-001 -4.46309536695E-001 +2.96621886082E-003 -1.52857461944E-003 -2.98327831842E-005 +1.55515463121E-005 +6.85011371970E-002 +3.80080789328E-001 
+1.58100000000E+010 -6.00682914257E-001 -4.45561200380E-001 -2.69237294560E-004 -3.37524153292E-003 +3.66532913176E-005 +1.27006990169E-006 +1.12629629672E-001 +3.80422443151E-001 
+1.60100000000E+010 -6.02328479290E-001 -4.44229483604E-001 -3.00930929370E-003 -9.93767986074E-004 +4.28920902777E-005 -4.88506520924E-006 +1.58076688647E-001 +3.75349938869E-001 
+1.62100000000E+010 -6.04416370392E-001 -4.42781776190E-001 -2.08361796103E-003 +2.24327016622E-003 +1.02989702100E-006 -3.59007572115E-005 +2.05667674541E-001 +3.64924758673E-001 
+1.64100000000E+010 -6.06141865253E-001 -4.41233426332E-001 +1.31218146998E-003 +2.72637046874E-003 +2.58602740359E-005 -3.52622919308E-005 +2.52659529448E-001 +3.48522454500E-001 
+1.66100000000E+010 -6.09551548958E-001 -4.39508736134E-001 +2.82914121635E-003 -2.00422873604E-004 -2.02326918952E-005 +1.46836473505E-005 +2.96657413244E-001 +3.24855357409E-001 
+1.68100000000E+010 -6.12455248833E-001 -4.36987400055E-001 +9.30836540647E-004 -2.46786628850E-003 +3.27796296915E-005 -1.92158713617E-005 +3.39974999428E-001 +2.97670304775E-001 
+1.70100000000E+010 -6.13791525364E-001 -4.34992253780E-001 -1.91982509568E-003 -1.82951055467E-003 +1.23929994515E-005 -7.92801893112E-006 +3.80453795195E-001 +2.66263306141E-001 
+1.72100000000E+010 -6.16065323353E-001 -4.33474898338E-001 -2.19012680463E-003 +1.02565193083E-003 +9.38582252275E-006 +7.33362230676E-006 +4.18357908726E-001 +2.27681294084E-001 
+1.74100000000E+010 -6.19232714176E-001 -4.31718528271E-001 -4.70190716442E-005 +2.35251989216E-003 -1.26422071389E-006 -1.17368608699E-005 +4.51849609613E-001 +1.84250488877E-001 
+1.76100000000E+010 -6.22413992882E-001 -4.29707199335E-001 +2.12843529880E-003 +8.77694226801E-004 +8.18742591946E-006 -3.89830347558E-005 +4.79566812515E-001 +1.38054132462E-001 
+1.78100000000E+010 -6.25462472439E-001 -4.27512884140E-001 +1.52122625150E-003 -1.51048088446E-003 +2.97172518913E-005 +1.29310583361E-005 +5.03011405468E-001 +8.93888473511E-002 
+1.80100000000E+010 -6.27937972546E-001 -4.25189852715E-001 -6.84128317516E-004 -1.97171419859E-003 +2.61802597379E-005 +1.31536980916E-005 +5.22148847580E-001 +3.78227159381E-002 
+1.82100000000E+010 -6.31055712700E-001 -4.23223286867E-001 -2.03967327252E-003 -1.08633037598E-004 +4.13208617829E-005 +1.88469748537E-005 +5.34615814686E-001 -1.69138684869E-002 
+1.84100000000E+010 -6.34137392044E-001 -4.21270281076E-001 -8.20031622425E-004 +1.70446035918E-003 -9.12792438612E-006 -4.99922934978E-005 +5.40885686874E-001 -7.42463693023E-002 
+1.86100000000E+010 -6.36967778206E-001 -4.19130980968E-001 +1.17829791270E-003 +1.47505034693E-003 +7.50228764446E-006 -2.85640471702E-005 +5.41053891182E-001 -1.31063729525E-001 
+1.88100000000E+010 -6.39484822750E-001 -4.17015552521E-001 +1.70124741271E-003 -5.05099422298E-004 -6.14058671999E-006 -2.09125137189E-005 +5.35429298878E-001 -1.87994584441E-001 
+1.90100000000E+010 -6.41771197319E-001 -4.15349453688E-001 +1.98158464627E-004 -1.66026456282E-003 -3.17851117870E-005 -1.25500400827E-005 +5.24008691311E-001 -2.44864031672E-001 
+1.92100000000E+010 -6.45107090473E-001 -4.13824737072E-001 -1.40033510979E-003 -8.49545293022E-004 +1.83887937055E-006 -2.93075027002E-006 +5.05174040794E-001 -3.02737683058E-001 
+1.94100000000E+010 -6.48240387440E-001 -4.10661935806E-001 -1.26420822926E-003 +9.38209646847E-004 +6.72474379826E-006 -8.67211383593E-006 +4.79630738497E-001 -3.57777565718E-001 
+1.96100000000E+010 -6.48696601391E-001 -4.08153265715E-001 +3.43654246535E-004 +1.42758328002E-003 -2.47332973231E-005 +1.70886505657E-005 +4.48699504137E-001 -4.09723877907E-001 
+1.98100000000E+010 -6.48190438747E-001 -4.05376851559E-001 +1.48926000111E-003 +3.06933652610E-004 +3.43435167451E-005 -1.07911191662E-005 +4.14530545473E-001 -4.57107007504E-001 
+2.00100000000E+010 -6.47986590862E-001 -4.04640883207E-001 +7.95590225607E-004 -1.21661555022E-003 +4.50253501185E-005 -2.50922403211E-005 +3.72345358133E-001 -5.04103600979E-001 
