!;Filter: kein Filter
!auto
!3/21/2019 9:26:52 AM
!3/21/2019 9:27:07 AM
!SP-Measurements Prober G4
!SP-Measurements Prober G4
!
!134
!235
!12
!20
!-20
!0.00199954
!1.75
!0.22129449
!0.22129449
# Hz S  RI   R 50
+1.00000000000E+007 +4.22400683165E-001 +1.16100041196E-002 +4.07000221312E-002 -1.72730907798E-002 -3.19014216075E-004 -3.68819484720E-004 +4.85128397122E-003 +8.58870800585E-004 
+2.10000000000E+008 +4.34844732285E-001 -4.27890159190E-002 -2.21721455455E-003 -4.19598966837E-002 -9.19087906368E-005 +5.51151424588E-005 +9.00979060680E-003 -4.33574477211E-003 
+4.10000000000E+008 +4.30475682020E-001 -8.77917483449E-002 -3.93543280661E-002 -1.28139061853E-002 +4.96852553624E-005 +6.23940359219E-005 +1.00913038477E-002 -7.29231350124E-003 
+6.10000000000E+008 +4.22785967588E-001 -1.30871072412E-001 -2.50001866370E-002 +3.32509465516E-002 -4.49532717539E-006 -3.36176708515E-005 +9.42507013679E-003 -1.14793358371E-002 
+8.10000000000E+008 +4.11233305931E-001 -1.72837600112E-001 +2.23638676107E-002 +3.43084856868E-002 -1.47273694893E-005 +1.44559735418E-005 +6.86268648133E-003 -1.52972685173E-002 
+1.01000000000E+009 +3.97165983915E-001 -2.12461054325E-001 +4.07967865467E-002 -8.92260111868E-003 +1.01956620711E-005 +1.38543264256E-005 +2.98163853586E-003 -1.88619885594E-002 
+1.21000000000E+009 +3.80903750658E-001 -2.51146227121E-001 +3.55323753320E-003 -4.02197018266E-002 -2.16436583287E-005 +5.68067207496E-006 -1.75378622953E-003 -2.11551114917E-002 
+1.41000000000E+009 +3.61245512962E-001 -2.87964552641E-001 -3.46513316035E-002 -1.69711876661E-002 -1.21925404528E-005 +1.15004104373E-005 -7.70282465965E-003 -2.42639854550E-002 
+1.61000000000E+009 +3.41027051210E-001 -3.21720242500E-001 -2.85974424332E-002 +2.69036218524E-002 -2.11487495108E-005 -3.36669363605E-005 -1.37031320482E-002 -2.68971063197E-002 
+1.81000000000E+009 +3.18050950766E-001 -3.53378385305E-001 +1.49037363008E-002 +3.40453647077E-002 +1.50735115767E-006 -7.34149261916E-006 -1.78018826991E-002 -2.79296971858E-002 
+2.01000000000E+009 +2.94833928347E-001 -3.82453083992E-001 +3.58823202550E-002 -2.38158012507E-004 +8.30549197417E-006 -1.51287895278E-005 -2.30335947126E-002 -2.68519483507E-002 
+2.21000000000E+009 +2.71089047194E-001 -4.09698337317E-001 +1.31050106138E-002 -3.51267568767E-002 -4.14697524320E-007 +4.15890754084E-005 -2.89405696094E-002 -2.47694775462E-002 
+2.41000000000E+009 +2.45438441634E-001 -4.34585034847E-001 -2.68497988582E-002 -2.34491787851E-002 +4.23601413786E-005 +7.16594331607E-006 -3.56084704399E-002 -2.23838835955E-002 
+2.61000000000E+009 +2.20256567001E-001 -4.56816911697E-001 -3.24673429132E-002 +1.48084238172E-002 +1.90071787074E-005 -8.62161687110E-006 -4.07647415996E-002 -1.93083640188E-002 
+2.81000000000E+009 +1.95281356573E-001 -4.77641642094E-001 +3.57644632459E-003 +3.75782251358E-002 -1.27628845803E-005 -5.44947579328E-006 -4.46974001825E-002 -1.44523875788E-002 
+3.01000000000E+009 +1.69090330601E-001 -4.96226757765E-001 +3.46262082458E-002 +1.00695136935E-002 -2.71375174634E-005 +1.52903851358E-006 -4.85383756459E-002 -8.73634964228E-003 
+3.21000000000E+009 +1.43471628428E-001 -5.12815237045E-001 +2.42444183677E-002 -2.83582527190E-002 -1.64836528711E-005 +5.49055039301E-006 -5.26345632970E-002 -2.34114984050E-003 
+3.41000000000E+009 +1.18358559906E-001 -5.28547048569E-001 -2.07239761949E-002 -3.36938984692E-002 +3.68232176697E-005 -1.22756659948E-006 -5.56275211275E-002 +4.87434910610E-003 
+3.61000000000E+009 +9.29113999009E-002 -5.42326152325E-001 -3.76570932567E-002 +6.48197252303E-003 -1.95908833120E-005 -1.15907778309E-006 -5.73595948517E-002 +1.18145123124E-002 
+3.81000000000E+009 +6.80321827531E-002 -5.54293513298E-001 -9.99832339585E-003 +3.98544669151E-002 +3.76546522602E-005 +2.31923768297E-005 -5.72837516665E-002 +1.93115063012E-002 
+4.01000000000E+009 +4.36615608633E-002 -5.65796077251E-001 +3.76196838915E-002 +2.16632932425E-002 +1.64739885804E-005 +1.59683750098E-005 -5.63296042383E-002 +2.73446552455E-002 
+4.21000000000E+009 +1.92791931331E-002 -5.75046837330E-001 +3.32616269588E-002 -2.59511675686E-002 -2.09671034099E-005 -2.46188324127E-006 -5.43310157955E-002 +3.60163301229E-002 
+4.41000000000E+009 -4.17365878820E-003 -5.83697438240E-001 -1.23639255762E-002 -4.51320111752E-002 -1.76088033186E-005 -3.22473679262E-005 -5.11620789766E-002 +4.43683303893E-002 
+4.61000000000E+009 -2.80666295439E-002 -5.91678321362E-001 -4.89654690027E-002 +1.03007070720E-003 -1.68229689734E-005 -8.41458859213E-006 -4.68641705811E-002 +5.16248233616E-002 
+4.81000000000E+009 -5.15356883407E-002 -5.97777247429E-001 -1.71199999750E-002 +4.56938669086E-002 -2.24493905989E-005 +8.98283701645E-007 -4.04002256691E-002 +5.89342266321E-002 
+5.01000000000E+009 -7.35218822956E-002 -6.03969931602E-001 +4.35043536127E-002 +3.58993150294E-002 +5.08853236170E-006 -5.66387643630E-006 -3.38592641056E-002 +6.56255483627E-002 
+5.21000000000E+009 -9.61111485958E-002 -6.09191179276E-001 +4.42115888000E-002 -3.61827351153E-002 +3.85978410122E-006 +2.73129899142E-006 -2.62669399381E-002 +7.16820359230E-002 
+5.41000000000E+009 -1.17685809731E-001 -6.12916886806E-001 -1.94269791245E-002 -5.44350817800E-002 -3.81575227948E-006 +8.94531785889E-006 -1.73520576209E-002 +7.67608508468E-002 
+5.61000000000E+009 -1.39795571566E-001 -6.16806030273E-001 -6.45096302032E-002 +7.57580948994E-003 -1.11274493975E-005 +6.41335191176E-006 -7.55567848682E-003 +7.99710080028E-002 
+5.81000000000E+009 -1.61082819104E-001 -6.18317723274E-001 -5.14775514603E-003 +6.07917346060E-002 -6.91116656526E-006 -8.86657471710E-006 +3.03306803107E-003 +8.09498131275E-002 
+6.01000000000E+009 -1.80952161551E-001 -6.19469046593E-001 +5.64234554768E-002 +2.25197598338E-002 +1.20187050925E-005 -1.73816679307E-005 +1.43065862358E-002 +8.26983004808E-002 
+6.21000000000E+009 -2.01362565160E-001 -6.19625806808E-001 +3.14653627574E-002 -5.35138733685E-002 +1.22411784105E-005 +6.73960039421E-006 +2.51803006977E-002 +8.21889862418E-002 
+6.41000000000E+009 -2.19499275088E-001 -6.18364393711E-001 -3.87140773237E-002 -3.79202440381E-002 -1.55645066116E-005 -7.80421760282E-006 +3.66320796311E-002 +8.02371278405E-002 
+6.61000000000E+009 -2.37489446998E-001 -6.17084503174E-001 -4.38870042562E-002 +2.51513980329E-002 -4.80968628835E-006 +6.76353965900E-006 +4.77614589036E-002 +7.53694400191E-002 
+6.81000000000E+009 -2.54627674818E-001 -6.15396201611E-001 +1.35591086000E-002 +4.35604080558E-002 +8.17267937236E-006 +1.38752466228E-006 +5.88591843843E-002 +6.95848688483E-002 
+7.01000000000E+009 -2.70624160767E-001 -6.13834619522E-001 +3.93581539392E-002 +8.77973507158E-004 -1.02441117633E-005 +1.18676707643E-005 +6.89806714654E-002 +6.32455348969E-002 
+7.21000000000E+009 -2.86523580551E-001 -6.11888289452E-001 +1.19368368760E-002 -3.34787406027E-002 -1.00587594716E-005 +9.97372444544E-006 +7.80914127827E-002 +5.45584000647E-002 
+7.41000000000E+009 -3.01522970200E-001 -6.09892547131E-001 -2.54099350423E-002 -1.90539043397E-002 +1.37084452945E-006 -1.12391990115E-005 +8.71016457677E-002 +4.44275066257E-002 
+7.61000000000E+009 -3.15678179264E-001 -6.07458233833E-001 -2.34978925437E-002 +1.55853461474E-002 -2.46471627179E-005 -2.49600070674E-005 +9.37177538872E-002 +3.23130339384E-002 
+7.81000000000E+009 -3.30119132996E-001 -6.04207515717E-001 +5.96733856946E-003 +2.42886450142E-002 -3.16750483762E-005 -4.06853450841E-006 +9.89468395710E-002 +1.98413878679E-002 
+8.01000000000E+009 -3.43404173851E-001 -6.00913405418E-001 +2.22665220499E-002 +2.42435559630E-003 -2.04381603908E-006 +1.86507149920E-005 +1.02592319250E-001 +6.16807257757E-003 
+8.21000000000E+009 -3.56555372477E-001 -5.97616136074E-001 +9.07973665744E-003 -1.80151313543E-002 -1.76220219146E-005 +2.41706165980E-005 +1.04827784002E-001 -7.95941241086E-003 
+8.41000000000E+009 -3.69161427021E-001 -5.94004929066E-001 -1.18307871744E-002 -1.34171685204E-002 -1.80379338417E-005 +8.65325273480E-006 +1.04400485754E-001 -2.32253987342E-002 
+8.61000000000E+009 -3.81458103657E-001 -5.90571641922E-001 -1.55199859291E-002 +5.51098072901E-003 -6.30585645922E-006 -1.40882175401E-005 +1.01054936647E-001 -3.88873182237E-002 
+8.81000000000E+009 -3.93007665873E-001 -5.86560845375E-001 -2.23124952754E-004 +1.51471896097E-002 -1.52880566020E-005 -2.52542827184E-006 +9.56788957119E-002 -5.44149912894E-002 
+9.01000000000E+009 -4.04462426901E-001 -5.82699179649E-001 +1.24539257959E-002 +5.35904616117E-003 -4.07278685088E-006 -2.73434598057E-005 +8.89401137829E-002 -6.85040429235E-002 
+9.21000000000E+009 -4.15401846170E-001 -5.78727483749E-001 +9.03955008835E-003 -8.85377451777E-003 +9.54597453529E-006 -4.24675999966E-006 +7.89507105947E-002 -8.33898186684E-002 
+9.41000000000E+009 -4.25805062056E-001 -5.75110018253E-001 -4.76232776418E-003 -1.05855166912E-002 -2.64854606939E-005 -1.35153295560E-005 +6.62852078676E-002 -9.70810800791E-002 
+9.61000000000E+009 -4.36071127653E-001 -5.70874512196E-001 -1.03717120364E-002 +1.17078809126E-004 -1.69153081515E-005 -1.93315008801E-005 +5.09108193219E-002 -1.09132982790E-001 
+9.81000000000E+009 -4.45326119661E-001 -5.67272603512E-001 -3.80061799660E-003 +9.11640748382E-003 +3.20737526636E-005 -5.06567175762E-006 +3.57053466141E-002 -1.18491455913E-001 
+1.00100000000E+010 -4.54586267471E-001 -5.62848508358E-001 +6.63129054010E-003 +6.21240492910E-003 -1.59829360200E-005 +1.78096179297E-005 +1.88532024622E-002 -1.26441136003E-001 
+1.02100000000E+010 -4.63510334492E-001 -5.58761954308E-001 +7.60153634474E-003 -3.20764631033E-003 +4.11604305555E-005 -5.70045449422E-006 +6.78755284753E-004 -1.33611410856E-001 
+1.04100000000E+010 -4.72705781460E-001 -5.55101096630E-001 +5.78137478442E-005 -7.97192566097E-003 -1.97669305635E-005 -1.90306254808E-005 -2.01095584780E-002 -1.39024078846E-001 
+1.06100000000E+010 -4.80995029211E-001 -5.50644397736E-001 -6.90043065697E-003 -2.54175113514E-003 +2.05774740607E-005 +2.84868431066E-008 -4.19655926526E-002 -1.41556933522E-001 
+1.08100000000E+010 -4.88536685705E-001 -5.47344684601E-001 -4.68905549496E-003 +4.75260056555E-003 -1.63123640959E-005 +8.52838729770E-006 -6.37476518750E-002 -1.41109287739E-001 
+1.10100000000E+010 -4.96192306280E-001 -5.42983055115E-001 +2.38511431962E-003 +6.05299649760E-003 -1.75174427568E-005 -1.11218396341E-005 -8.59814286232E-002 -1.37477844954E-001 
+1.12100000000E+010 -5.02858877182E-001 -5.39044857025E-001 +5.99635299295E-003 -1.36011367431E-004 +1.42152684930E-005 +8.46029161039E-006 -1.09885357320E-001 -1.30934581161E-001 
+1.14100000000E+010 -5.10755062103E-001 -5.35536766052E-001 +2.19128141180E-003 -5.03360060975E-003 +8.17990894575E-006 +3.80083693017E-005 -1.32919460535E-001 -1.20522961020E-001 
+1.16100000000E+010 -5.16647279263E-001 -5.31872034073E-001 -3.66959697567E-003 -3.96243575960E-003 +2.26574138651E-005 +3.45717648997E-006 -1.54705107212E-001 -1.07182845473E-001 
+1.18100000000E+010 -5.22978007793E-001 -5.28004765511E-001 -4.62253997102E-003 +1.89364561811E-003 +6.77955586070E-006 +2.47720618063E-005 -1.74468860030E-001 -9.04075130820E-002 
+1.20100000000E+010 -5.29664993286E-001 -5.23769080639E-001 -1.81237992365E-004 +4.58044465631E-003 +2.23321912927E-005 -1.00947936517E-005 -1.91841334105E-001 -7.09607526660E-002 
+1.22100000000E+010 -5.36856770515E-001 -5.19822418690E-001 +4.11356566474E-003 +1.96641706862E-003 -7.02073475622E-006 -1.31587694341E-005 -2.09292083979E-001 -4.87437099218E-002 
+1.24100000000E+010 -5.42460739613E-001 -5.15518069267E-001 +3.01250535995E-003 -2.89430050179E-003 +1.60937579494E-005 -3.58571287506E-006 -2.24016621709E-001 -2.31520496309E-002 
+1.26100000000E+010 -5.48171103001E-001 -5.11245548725E-001 -1.20279495604E-003 -3.67391086183E-003 +1.25754540932E-005 -6.14265354670E-006 -2.34024330974E-001 +4.59167361259E-003 
+1.28100000000E+010 -5.53791463375E-001 -5.07097482681E-001 -3.82379000075E-003 -3.14716366120E-004 -6.72037731420E-006 +1.19125088531E-005 -2.40421891212E-001 +3.37600894272E-002 
+1.30100000000E+010 -5.59048175812E-001 -5.02430975437E-001 -1.52839068323E-003 +3.18823708221E-003 +1.67593516380E-005 -2.16672765418E-006 -2.43959665298E-001 +6.37050122023E-002 
+1.32100000000E+010 -5.64400494099E-001 -4.98653382063E-001 +2.04209215008E-003 +2.58854939602E-003 +7.63898333389E-006 +1.82000021596E-005 -2.44283124804E-001 +9.53492671251E-002 
+1.34100000000E+010 -5.69606900215E-001 -4.94025796652E-001 +3.18920635618E-003 -9.19797457755E-004 -1.32893228511E-006 -2.07880802918E-005 -2.40766614676E-001 +1.27119705081E-001 
+1.36100000000E+010 -5.73107004166E-001 -4.90042358637E-001 +2.53936828813E-004 -3.00127128139E-003 +3.99455484512E-006 +1.00879533420E-005 -2.32973128557E-001 +1.60025477409E-001 
+1.38100000000E+010 -5.77701151371E-001 -4.85936850309E-001 -2.46506044641E-003 -1.43346434925E-003 -2.12085305975E-005 -2.12494305742E-005 -2.19916984439E-001 +1.92366033792E-001 
+1.40100000000E+010 -5.82404494286E-001 -4.82044577599E-001 -2.23611993715E-003 +1.74366938882E-003 -2.14280862565E-006 +2.75254160442E-006 -2.03102275729E-001 +2.23743319511E-001 
+1.42100000000E+010 -5.86452364922E-001 -4.78300660849E-001 +7.28909857571E-004 +2.50347517431E-003 +7.03821933712E-006 -2.82176260953E-005 -1.82362481952E-001 +2.55149066448E-001 
+1.44100000000E+010 -5.90914726257E-001 -4.74117815495E-001 +2.42376863025E-003 +4.42444084911E-004 +2.36877403950E-005 +9.03121508600E-006 -1.56501203775E-001 +2.83894330263E-001 
+1.46100000000E+010 -5.94914376736E-001 -4.70883458853E-001 +1.32051785477E-003 -2.07183812745E-003 +7.82714687375E-006 +1.53118162416E-005 -1.25667810440E-001 +3.09370905161E-001 
+1.48100000000E+010 -5.99064767361E-001 -4.65279221535E-001 -1.34089728817E-003 -1.79093703628E-003 -7.34308059691E-006 -2.57175379375E-005 -9.26625281572E-002 +3.31250727177E-001 
+1.50100000000E+010 -5.99951744080E-001 -4.63190376759E-001 -2.10378132761E-003 +3.77957767341E-004 +2.73538535112E-006 +1.00858157381E-008 -5.71357235312E-002 +3.50538879633E-001 
+1.52100000000E+010 -6.02571487427E-001 -4.61611479521E-001 -4.41834679805E-004 +2.08325544372E-003 -8.91366926226E-006 +1.26097875182E-005 -1.82503368706E-002 +3.65919351578E-001 
+1.54100000000E+010 -6.05710625648E-001 -4.58752512932E-001 +1.63815764245E-003 +1.07521505561E-003 +8.36233266455E-006 -1.06212446553E-005 +2.43479572237E-002 +3.76026839018E-001 
+1.56100000000E+010 -6.08657717705E-001 -4.54698562622E-001 +1.61721569020E-003 -9.27839428186E-004 -1.70694565895E-005 +2.06375207199E-005 +6.86094537377E-002 +3.80206137896E-001 
+1.58100000000E+010 -6.10050678253E-001 -4.53746199608E-001 -2.77971907053E-004 -1.87925947830E-003 -2.66558981821E-005 -1.31327954023E-006 +1.12757079303E-001 +3.80456775427E-001 
+1.60100000000E+010 -6.12861096859E-001 -4.52366411686E-001 -1.67865445837E-003 -4.08470048569E-004 +2.17388369492E-005 +3.03901797452E-005 +1.58295184374E-001 +3.75361919403E-001 
+1.62100000000E+010 -6.13812923431E-001 -4.50252056122E-001 -1.06171309017E-003 +1.26060016919E-003 -7.35099865778E-006 -5.19589912074E-006 +2.05889821053E-001 +3.64932358265E-001 
+1.64100000000E+010 -6.15882754326E-001 -4.48539882898E-001 +8.11857578810E-004 +1.46807706915E-003 +8.29730925034E-006 -8.39136009745E-006 +2.52884596586E-001 +3.48511815071E-001 
+1.66100000000E+010 -6.19306921959E-001 -4.46252107620E-001 +1.51760445442E-003 -1.40701362398E-004 +1.88059475477E-005 -1.33273251777E-005 +2.96816915274E-001 +3.24841827154E-001 
+1.68100000000E+010 -6.21925055981E-001 -4.43401724100E-001 +4.92581981234E-004 -1.36558967642E-003 +2.06909135159E-005 +3.23865606333E-005 +3.40161353350E-001 +2.97602027655E-001 
+1.70100000000E+010 -6.23746752739E-001 -4.41192090511E-001 -1.07868982013E-003 -9.20180289540E-004 -2.44367038249E-005 +1.92894572137E-006 +3.80647152662E-001 +2.66206383705E-001 
+1.72100000000E+010 -6.26117587090E-001 -4.39246803522E-001 -1.17583561223E-003 +5.59273816179E-004 -4.44179158876E-006 +4.00556527893E-005 +4.18501287699E-001 +2.27582678199E-001 
+1.74100000000E+010 -6.28645062447E-001 -4.37232226133E-001 +5.67645383853E-006 +1.29167840350E-003 -6.18149670117E-006 +3.87454019801E-005 +4.51995253563E-001 +1.84143573046E-001 
+1.76100000000E+010 -6.31930708885E-001 -4.34720307589E-001 +1.18644733448E-003 +4.65456687380E-004 -4.02917885367E-006 +6.12741268924E-006 +4.79599088430E-001 +1.37916937470E-001 
+1.78100000000E+010 -6.34889900684E-001 -4.32112842798E-001 +8.22367437650E-004 -8.72891396284E-004 +1.90982154891E-006 -5.68380937693E-006 +5.03183066845E-001 +8.91895592213E-002 
+1.80100000000E+010 -6.36792719364E-001 -4.29594516754E-001 -3.70809662854E-004 -1.06187781785E-003 -6.61374633637E-006 -1.42875069287E-005 +5.22190511227E-001 +3.76403965056E-002 
+1.82100000000E+010 -6.40468478203E-001 -4.27241742611E-001 -1.11482874490E-003 -3.46049673681E-005 +1.82810399565E-005 -5.87170325161E-006 +5.34721493721E-001 -1.70883629471E-002 
+1.84100000000E+010 -6.43279135227E-001 -4.25147563219E-001 -4.17468079831E-004 +9.35696065426E-004 -2.38322925838E-007 +2.23598431148E-006 +5.40920317173E-001 -7.44096115232E-002 
+1.86100000000E+010 -6.45943522453E-001 -4.22768920660E-001 +6.70941488352E-004 +7.71649647504E-004 +1.53667733684E-005 -2.02892351808E-005 +5.41010260582E-001 -1.31236284971E-001 
+1.88100000000E+010 -6.48254334927E-001 -4.20260906219E-001 +9.82266617939E-004 -2.98244412988E-004 +2.97774113278E-005 +4.36670347881E-007 +5.35404920578E-001 -1.88215151429E-001 
+1.90100000000E+010 -6.50480091572E-001 -4.18218344450E-001 +8.25139286462E-005 -9.59766039159E-004 +1.88809972315E-005 +1.41877853821E-005 +5.23962795734E-001 -2.45037168264E-001 
+1.92100000000E+010 -6.53383672237E-001 -4.16610121727E-001 -7.94656632934E-004 -5.05810836330E-004 -7.76093111199E-006 +3.20478261528E-006 +5.05065023899E-001 -3.02936226130E-001 
+1.94100000000E+010 -6.56005680561E-001 -4.13470894098E-001 -7.25908612367E-004 +5.51772711333E-004 -2.28093485930E-005 +2.39498822339E-005 +4.79496479034E-001 -3.57997834682E-001 
+1.96100000000E+010 -6.57088398933E-001 -4.10507321358E-001 +2.04126801691E-004 +7.76552886236E-004 +3.66594690604E-006 +1.93415489775E-005 +4.48556542397E-001 -4.09894436598E-001 
+1.98100000000E+010 -6.56814813614E-001 -4.07348483801E-001 +7.82273418736E-004 +1.52893087943E-004 -3.18519523717E-005 -8.30823228171E-006 +4.14388984442E-001 -4.57197517157E-001 
+2.00100000000E+010 -6.55370414257E-001 -4.06880319118E-001 +4.42366552306E-004 -6.66953797918E-004 -1.92954994418E-005 +1.18195612231E-005 +3.72107863426E-001 -5.04189491272E-001 
