!;Filter: kein Filter
!auto
!3/21/2019 9:27:07 AM
!3/21/2019 9:27:22 AM
!SP-Measurements Prober G4
!SP-Measurements Prober G4
!
!134
!233
!12
!20
!-20
!0.00299959
!1.83
!0.38139174
!0.38139174
# Hz S  RI   R 50
+1.00000000000E+007 +3.92390757799E-001 +1.09096243978E-002 +3.45313362777E-002 -1.41646554694E-002 -9.73688511294E-005 -2.42336274823E-004 +4.92531666532E-003 +6.31507602520E-004 
+2.10000000000E+008 +4.13771659136E-001 -3.66316884756E-002 -1.42192374915E-003 -3.54229100049E-002 +1.08344784167E-005 -5.36101579200E-005 +8.99009872228E-003 -4.42359829322E-003 
+4.10000000000E+008 +4.11922186613E-001 -8.02933648229E-002 -3.33460308611E-002 -1.10421972349E-002 +7.95203814050E-005 +3.72411741409E-005 +1.00930798799E-002 -7.30016361922E-003 
+6.10000000000E+008 +4.05629992485E-001 -1.22367255390E-001 -2.13680341840E-002 +2.68282294273E-002 -3.39993785019E-005 +1.42119015436E-005 +9.40167531371E-003 -1.14836217836E-002 
+8.10000000000E+008 +3.95011305809E-001 -1.63089081645E-001 +1.69522669166E-002 +2.94800978154E-002 +1.66541508406E-006 +1.95497595996E-005 +6.84619927779E-003 -1.53068955988E-002 
+1.01000000000E+009 +3.81768465042E-001 -2.02057018876E-001 +3.35387326777E-002 -5.41032524779E-003 -2.80535259662E-005 -1.27144166981E-005 +2.92633171193E-003 -1.88527181745E-002 
+1.21000000000E+009 +3.66106331348E-001 -2.38157853484E-001 +7.03914649785E-003 -3.31909954548E-002 +8.69524137670E-006 +2.39862347371E-005 -1.76498608198E-003 -2.11385097355E-002 
+1.41000000000E+009 +3.48461449146E-001 -2.73128867149E-001 -2.84224972129E-002 -1.84512138367E-002 -6.01539156264E-008 -1.05192002593E-005 -7.71978916600E-003 -2.42291521281E-002 
+1.61000000000E+009 +3.29572200775E-001 -3.05922478437E-001 -2.72873640060E-002 +2.03922837973E-002 -2.47546158789E-005 +1.23933359646E-005 -1.37531654909E-002 -2.69071143121E-002 
+1.81000000000E+009 +3.08991491795E-001 -3.36244791746E-001 +9.30909067392E-003 +3.22770588100E-002 -4.87438683194E-006 -4.15554641222E-005 -1.78234558553E-002 -2.78797075152E-002 
+2.01000000000E+009 +2.88047850132E-001 -3.65038275719E-001 +3.35240289569E-002 +2.87885824218E-003 -1.93992377717E-006 -1.82917319762E-005 -2.30568330735E-002 -2.68309395760E-002 
+2.21000000000E+009 +2.65518069267E-001 -3.92072737217E-001 +1.37937450781E-002 -3.06234080344E-002 +4.97647943121E-006 +4.31187663708E-006 -2.89900191128E-002 -2.47287806123E-002 
+2.41000000000E+009 +2.42121979594E-001 -4.16661053896E-001 -2.28513572365E-002 -2.32334677130E-002 +1.77205802174E-005 +1.66405079653E-005 -3.56226973236E-002 -2.23641917109E-002 
+2.61000000000E+009 +2.18519851565E-001 -4.39449280500E-001 -3.00674270838E-002 +1.27612538636E-002 -2.28427579714E-005 -5.73208899368E-006 -4.07643839717E-002 -1.93075314164E-002 
+2.81000000000E+009 +1.94360792637E-001 -4.60433989763E-001 +2.09913938306E-003 +3.20167206228E-002 -7.53025778977E-006 -2.70966465905E-005 -4.46912348270E-002 -1.44574241713E-002 
+3.01000000000E+009 +1.69675126672E-001 -4.79405164719E-001 +2.94116307050E-002 +9.94448550045E-003 -1.19671165066E-006 -3.93207710658E-006 -4.85340729356E-002 -8.70849750936E-003 
+3.21000000000E+009 +1.44980549812E-001 -4.96700555086E-001 +2.06314120442E-002 -2.40266621113E-002 +1.88570975297E-005 -1.39686653711E-005 -5.25970235467E-002 -2.28953338228E-003 
+3.41000000000E+009 +1.20545901358E-001 -5.12410223484E-001 -1.54265873134E-002 -2.66488511115E-002 -8.34908576053E-007 -1.49754851009E-005 -5.55740408599E-002 +4.90733189508E-003 
+3.61000000000E+009 +9.62100774050E-002 -5.26594579220E-001 -2.99723371863E-002 +3.54684842750E-003 +1.14259555630E-005 +9.67055257206E-006 -5.73438294232E-002 +1.18560167030E-002 
+3.81000000000E+009 +7.17613473535E-002 -5.39196252823E-001 -7.94027745724E-003 +3.02801262587E-002 -4.02815639973E-005 -6.40213102088E-006 -5.72469718754E-002 +1.93291660398E-002 
+4.01000000000E+009 +4.78968210518E-002 -5.50578653812E-001 +2.48670708388E-002 +1.68887730688E-002 +1.65455076058E-005 -2.50962857535E-005 -5.62303774059E-002 +2.73868907243E-002 
+4.21000000000E+009 +2.42495518178E-002 -5.60406565666E-001 +2.54125371575E-002 -1.57914645970E-002 +1.82184630830E-005 +4.25220059697E-006 -5.42749166489E-002 +3.59691157937E-002 
+4.41000000000E+009 +1.13075878471E-003 -5.69240987301E-001 -6.25163549557E-003 -3.08539997786E-002 -1.28503743326E-005 +2.88491446554E-005 -5.11455051601E-002 +4.43602688611E-002 
+4.61000000000E+009 -2.18232721090E-002 -5.76898992062E-001 -2.95593086630E-002 -4.39751660451E-003 +2.56614603131E-005 +1.93649375433E-005 -4.68341484666E-002 +5.16468062997E-002 
+4.81000000000E+009 -4.45140711963E-002 -5.83444476128E-001 -1.63197424263E-002 +2.54800822586E-002 +1.33814182846E-005 -5.93095273871E-006 -4.03774045408E-002 +5.88916242123E-002 
+5.01000000000E+009 -6.63778856397E-002 -5.89474797249E-001 +1.98912993073E-002 +2.52046510577E-002 +3.06046749756E-005 +6.82923200657E-006 -3.38161662221E-002 +6.55863583088E-002 
+5.21000000000E+009 -8.76828506589E-002 -5.94693422318E-001 +2.87909302860E-002 -9.17570851743E-003 -1.59521678142E-005 -1.82468829735E-006 -2.62436885387E-002 +7.16477558017E-002 
+5.41000000000E+009 -1.08482919633E-001 -5.98765850067E-001 +3.59326740727E-003 -3.10198608786E-002 -2.09594763874E-005 +2.37026779359E-006 -1.73461064696E-002 +7.67250582576E-002 
+5.61000000000E+009 -1.29376128316E-001 -6.02548897266E-001 -3.03633082658E-002 -1.33841922507E-002 +2.47813513852E-005 +2.65013040917E-005 -7.52848014235E-003 +7.99254104495E-002 
+5.81000000000E+009 -1.49242013693E-001 -6.05045258999E-001 -2.20156274736E-002 +2.18457952142E-002 -3.49774418282E-005 +7.76054184826E-006 +3.04121128283E-003 +8.09345692396E-002 
+6.01000000000E+009 -1.68198674917E-001 -6.06829345226E-001 +1.17245288566E-002 +3.07811945677E-002 +9.51597394305E-006 -1.29699419631E-005 +1.42804896459E-002 +8.26363638043E-002 
+6.21000000000E+009 -1.87222152948E-001 -6.08163237572E-001 +3.44011560082E-002 -3.54408961721E-003 -1.66262143466E-005 -1.10490118459E-005 +2.51675806940E-002 +8.21423232555E-002 
+6.41000000000E+009 -2.05224871635E-001 -6.08553647995E-001 +9.14563331753E-003 -3.08800060302E-002 -3.06828005705E-005 -6.15879844190E-006 +3.66179533303E-002 +8.01731944084E-002 
+6.61000000000E+009 -2.23040089011E-001 -6.08638286591E-001 -2.71225422621E-002 -2.23250873387E-002 -7.98429664428E-006 -7.61309092923E-006 +4.77671921253E-002 +7.53051564097E-002 
+6.81000000000E+009 -2.40306839347E-001 -6.08284056187E-001 -2.78928764164E-002 +2.18395870179E-002 -5.14470627877E-007 +2.16966654989E-005 +5.88471777737E-002 +6.95587322116E-002 
+7.01000000000E+009 -2.56760746241E-001 -6.07473254204E-001 +7.81625788659E-003 +3.23311574757E-002 +2.44314542215E-005 -1.57953345479E-005 +6.89647719264E-002 +6.32171034813E-002 
+7.21000000000E+009 -2.72882103920E-001 -6.06231212616E-001 +3.72958853841E-002 +4.69031045213E-003 -2.58235604633E-006 +1.93855521502E-005 +7.80896097422E-002 +5.45455291867E-002 
+7.41000000000E+009 -2.88412988186E-001 -6.04874491692E-001 +1.11063225195E-002 -3.37994806468E-002 -1.09257071017E-005 -1.62537423876E-006 +8.70772153139E-002 +4.44055721164E-002 
+7.61000000000E+009 -3.02878499031E-001 -6.02847278118E-001 -2.46105175465E-002 -2.34936922789E-002 -6.16079114479E-006 +6.45848422209E-006 +9.36773791909E-002 +3.23233604431E-002 
+7.81000000000E+009 -3.17806333303E-001 -6.00308775902E-001 -3.40676829219E-002 +1.89588833600E-002 -9.69583652477E-006 -6.81314440953E-006 +9.89531800151E-002 +1.98196116835E-002 
+8.01000000000E+009 -3.31668287516E-001 -5.97382843494E-001 +1.01171880960E-002 +3.26094888151E-002 +2.32158745348E-005 +1.00779734566E-005 +1.02568618953E-001 +6.16192398593E-003 
+8.21000000000E+009 -3.44987213612E-001 -5.94160854816E-001 +3.32584679127E-002 +5.03132352605E-003 +2.85403821181E-005 +8.78194441611E-006 +1.04773893952E-001 -7.95559771359E-003 
+8.41000000000E+009 -3.57936263084E-001 -5.90641379356E-001 +1.37496553361E-002 -3.47681082785E-002 -8.77528418641E-006 -1.98534792162E-007 +1.04332424700E-001 -2.32300795615E-002 
+8.61000000000E+009 -3.70562046766E-001 -5.87246835232E-001 -2.44273748249E-002 -1.85633320361E-002 +2.19013763854E-005 +4.49709705208E-006 +1.01026475430E-001 -3.88874746859E-002 
+8.81000000000E+009 -3.82564485073E-001 -5.83841860294E-001 -2.76945699006E-002 +1.45093863830E-002 +1.67769042037E-006 -1.01756331787E-005 +9.56631600857E-002 -5.44078238308E-002 
+9.01000000000E+009 -3.94248515368E-001 -5.79960882664E-001 +9.66888666153E-003 +3.09805274010E-002 +7.02289662513E-006 -2.03852846425E-006 +8.89022797346E-002 -6.84761255980E-002 
+9.21000000000E+009 -4.05400902033E-001 -5.76184451580E-001 +2.61179897934E-002 +1.38743733987E-003 +1.42523804243E-005 -2.23010611080E-005 +7.89367184043E-002 -8.33427160978E-002 
+9.41000000000E+009 -4.15946573019E-001 -5.72479426861E-001 +1.23288752511E-002 -2.42922771722E-002 +4.84065731143E-006 -2.63942820311E-005 +6.62592798471E-002 -9.70130488276E-002 
+9.61000000000E+009 -4.26364153624E-001 -5.68298995495E-001 -2.07345616072E-002 -1.58009249717E-002 +1.37779679790E-005 +5.33936656666E-007 +5.08672259748E-002 -1.09152227640E-001 
+9.81000000000E+009 -4.35777246952E-001 -5.64715683460E-001 -1.90134961158E-002 +1.03136477992E-002 -1.62379310495E-005 +2.02881728910E-005 +3.56791242957E-002 -1.18506699800E-001 
+1.00100000000E+010 -4.45329129696E-001 -5.60626029968E-001 +2.42964667268E-003 +2.24097687751E-002 +5.70329666516E-006 +3.50038644683E-005 +1.88686922193E-002 -1.26455083489E-001 
+1.02100000000E+010 -4.54202592373E-001 -5.56285917759E-001 +2.03244779259E-002 +2.28440295905E-003 -3.75993040507E-005 -8.39111544337E-006 +6.39101956040E-004 -1.33587747812E-001 
+1.04100000000E+010 -4.63155597448E-001 -5.52466273308E-001 +9.42356232554E-003 -1.49152697995E-002 +2.50192697422E-005 -4.54844075648E-006 -2.00846903026E-002 -1.39014482498E-001 
+1.06100000000E+010 -4.71797585487E-001 -5.48274159431E-001 -1.09530454502E-002 -1.46831199527E-002 +3.40215137840E-006 +4.96286384077E-006 -4.19719219208E-002 -1.41525983810E-001 
+1.08100000000E+010 -4.79263484478E-001 -5.44872701168E-001 -1.48678366095E-002 +6.03445805609E-003 -1.11876415758E-005 -1.85115113709E-005 -6.37314096093E-002 -1.41088888049E-001 
+1.10100000000E+010 -4.87185686827E-001 -5.40794730186E-001 -1.21107231826E-003 +1.44344782457E-002 -1.16411883937E-005 +1.51609438035E-005 -8.59587937593E-002 -1.37430369854E-001 
+1.12100000000E+010 -4.94555711746E-001 -5.37451803684E-001 +1.33945932612E-002 +6.30620587617E-003 +8.23322170618E-006 +6.97704990671E-006 -1.09851837158E-001 -1.30897104740E-001 
+1.14100000000E+010 -5.01802086830E-001 -5.33215403557E-001 +8.63451883197E-003 -9.50446259230E-003 +5.16570435138E-006 +1.74816682375E-006 -1.32842794061E-001 -1.20549708605E-001 
+1.16100000000E+010 -5.07797062397E-001 -5.29652357101E-001 -4.21265792102E-003 -1.10543640330E-002 +6.70951339998E-006 -2.99065432046E-005 -1.54673501849E-001 -1.07146419585E-001 
+1.18100000000E+010 -5.14467239380E-001 -5.25973916054E-001 -1.20117468759E-002 +2.62095360085E-004 +3.47235727531E-005 -3.40639053320E-006 -1.74431040883E-001 -9.03398394585E-002 
+1.20100000000E+010 -5.21251678467E-001 -5.21736621857E-001 -3.10947676189E-003 +9.96001437306E-003 -3.99614782509E-006 -1.50303230839E-005 -1.91782906651E-001 -7.09116905928E-002 
+1.22100000000E+010 -5.28002321720E-001 -5.17238557339E-001 +7.05967796966E-003 +6.83512864634E-003 -3.20008584822E-005 -3.41891900462E-005 -2.09212988615E-001 -4.87423576415E-002 
+1.24100000000E+010 -5.33998787403E-001 -5.13243496418E-001 +8.77168588340E-003 -4.38465690240E-003 +3.03583219647E-005 -1.34487963805E-005 -2.23943740129E-001 -2.31712125242E-002 
+1.26100000000E+010 -5.39888501167E-001 -5.09069025517E-001 -8.83797300048E-004 -8.45443177968E-003 +9.04992521100E-006 -3.47081595464E-006 -2.33932077885E-001 +4.60142455995E-003 
+1.28100000000E+010 -5.45426130295E-001 -5.04811465740E-001 -7.67854182050E-003 -2.82188761048E-003 +5.13870008945E-006 -1.68183469214E-005 -2.40344822407E-001 +3.37147191167E-002 
+1.30100000000E+010 -5.50814688206E-001 -5.00227868557E-001 -5.12183131650E-003 +6.18578726426E-003 -1.30098680984E-006 -2.77385734080E-005 -2.43966028094E-001 +6.36584907770E-002 
+1.32100000000E+010 -5.55717527866E-001 -4.96104061604E-001 +3.34853539243E-003 +6.26895064488E-003 +7.85209249443E-006 +7.19001809557E-006 -2.44251593947E-001 +9.53443646431E-002 
+1.34100000000E+010 -5.60795068741E-001 -4.91299271584E-001 +6.85505010188E-003 -3.16338439006E-004 -1.61017505889E-005 -5.27881456946E-006 -2.40777969360E-001 +1.27062022686E-001 
+1.36100000000E+010 -5.63872396946E-001 -4.87101763487E-001 +1.95843400434E-003 -6.43407367170E-003 +5.26341000295E-006 -7.03639125277E-006 -2.32924297452E-001 +1.60041511059E-001 
+1.38100000000E+010 -5.68877518177E-001 -4.83356535435E-001 -4.56175999716E-003 -3.81999346428E-003 -2.33218520407E-006 -3.12730003316E-006 -2.19905003905E-001 +1.92348465323E-001 
+1.40100000000E+010 -5.73377847672E-001 -4.79416787624E-001 -5.33271208405E-003 +2.47818161733E-003 +2.36484129346E-006 +1.42293210956E-005 -2.03123047948E-001 +2.23691821098E-001 
+1.42100000000E+010 -5.77634811401E-001 -4.75809186697E-001 +5.49689168110E-004 +5.62871526927E-003 -7.68039899413E-006 -1.08404110506E-005 -1.82379186153E-001 +2.55060821772E-001 
+1.44100000000E+010 -5.81936120987E-001 -4.71485257149E-001 +4.83566243201E-003 +1.58642104361E-003 -2.24172272283E-005 +1.15791908684E-006 -1.56575009227E-001 +2.83749133348E-001 
+1.46100000000E+010 -5.85367441177E-001 -4.67901736498E-001 +3.43015231192E-003 -3.71059938334E-003 -3.26624685840E-005 -5.25369978277E-006 -1.25778615475E-001 +3.09307813644E-001 
+1.48100000000E+010 -5.88633239269E-001 -4.61853921413E-001 -2.22076568753E-003 -4.25795745105E-003 -3.33482385031E-005 +9.63667571341E-006 -9.27797853947E-002 +3.31269383430E-001 
+1.50100000000E+010 -5.89943528175E-001 -4.60426628590E-001 -4.33007767424E-003 +2.22174159717E-004 +1.04290356830E-005 -1.63596723723E-005 -5.71954101324E-002 +3.50553959608E-001 
+1.52100000000E+010 -5.92583060265E-001 -4.59108084440E-001 -1.52329169214E-003 +4.06446866691E-003 +1.39594203574E-005 +1.23506370073E-005 -1.83071661741E-002 +3.65897715092E-001 
+1.54100000000E+010 -5.95698535442E-001 -4.56437855959E-001 +3.06405872107E-003 +2.68841534853E-003 +3.66159656551E-005 -1.53650182710E-006 +2.42685880512E-002 +3.75951915979E-001 
+1.56100000000E+010 -5.98790585995E-001 -4.52523916960E-001 +3.43658309430E-003 -1.54943834059E-003 -8.83371831151E-006 +1.80461593118E-005 +6.85045346618E-002 +3.80160659552E-001 
+1.58100000000E+010 -5.99625706673E-001 -4.51798856258E-001 -3.57650496881E-005 -3.74387786724E-003 -2.21742793656E-005 -6.47393335385E-006 +1.12677693367E-001 +3.80469888449E-001 
+1.60100000000E+010 -6.01715981960E-001 -4.50406998396E-001 -3.27014946379E-003 -1.20535423048E-003 +2.05374781217E-005 +9.69315806287E-007 +1.58139124513E-001 +3.75391572714E-001 
+1.62100000000E+010 -6.03725433350E-001 -4.48709219694E-001 -2.36539239995E-003 +2.29433574714E-003 -1.91244271264E-005 -9.41239704844E-006 +2.05721750855E-001 +3.64999115467E-001 
+1.64100000000E+010 -6.05674505234E-001 -4.47229474783E-001 +1.20121240616E-003 +3.02010797895E-003 -1.43856675550E-006 -3.40555707226E-005 +2.52763479948E-001 +3.48598986864E-001 
+1.66100000000E+010 -6.09096348286E-001 -4.45305645466E-001 +3.05521069095E-003 -3.55913507519E-005 +2.61081959252E-006 -1.01017303678E-005 +2.96746760607E-001 +3.24953407049E-001 
+1.68100000000E+010 -6.12263679504E-001 -4.42691355944E-001 +1.20657880325E-003 -2.63162166812E-003 -3.12128104270E-005 -9.81354514806E-006 +3.40083628893E-001 +2.97709852457E-001 
+1.70100000000E+010 -6.13588094711E-001 -4.40451949835E-001 -1.92790315486E-003 -2.08185380325E-003 +9.09752907319E-006 +4.31108383054E-005 +3.80558431149E-001 +2.66262441874E-001 
+1.72100000000E+010 -6.15745782852E-001 -4.38662230968E-001 -2.45184288360E-003 +9.58365912084E-004 +1.34388237711E-005 -1.78213376785E-005 +4.18417543173E-001 +2.27692261338E-001 
+1.74100000000E+010 -6.19058310986E-001 -4.36908066273E-001 -1.35564841912E-004 +2.51435651444E-003 -4.80019343740E-006 -8.31965553516E-006 +4.51932191849E-001 +1.84327706695E-001 
+1.76100000000E+010 -6.22160613537E-001 -4.34837341309E-001 +2.26226728410E-003 +1.13852426875E-003 +3.64739316865E-005 +3.54412586603E-005 +4.79622900486E-001 +1.38116523623E-001 
+1.78100000000E+010 -6.25406086445E-001 -4.32410001755E-001 +1.72231998295E-003 -1.54367799405E-003 +3.07681475533E-005 +1.94502672457E-006 +5.03108799458E-001 +8.93685519695E-002 
+1.80100000000E+010 -6.28053009510E-001 -4.29892510176E-001 -6.39041827526E-004 -2.14698002674E-003 +3.72857648472E-005 +6.15723001829E-006 +5.22234141827E-001 +3.79004143178E-002 
+1.82100000000E+010 -6.31247222424E-001 -4.27749127150E-001 -2.18280893750E-003 -2.34199134866E-004 -2.87062939606E-005 +1.00601764643E-005 +5.34715414047E-001 -1.69529374689E-002 
+1.84100000000E+010 -6.34373188019E-001 -4.25758093596E-001 -9.60087229032E-004 +1.76810717676E-003 +1.09165530375E-005 +2.19464309339E-005 +5.41020333767E-001 -7.42676705122E-002 
+1.86100000000E+010 -6.37241721153E-001 -4.23384338617E-001 +1.16368837189E-003 +1.59190129489E-003 -2.27618565987E-005 -3.90106361010E-005 +5.41106641293E-001 -1.31104975939E-001 
+1.88100000000E+010 -6.39843225479E-001 -4.20936465263E-001 +1.90995249432E-003 -5.14959800057E-004 +9.86102986644E-006 +3.92403853766E-006 +5.35487055779E-001 -1.88049986959E-001 
+1.90100000000E+010 -6.42109692097E-001 -4.19091373682E-001 +2.79138272163E-004 -1.80526031181E-003 +8.37567858980E-006 +4.12936351495E-005 +5.24032652378E-001 -2.44776666164E-001 
+1.92100000000E+010 -6.45480155945E-001 -4.17411446571E-001 -1.48455507588E-003 -9.98223433271E-004 -1.31341375891E-005 -3.77492979169E-005 +5.05289912224E-001 -3.02733778954E-001 
+1.94100000000E+010 -6.48660838604E-001 -4.14182424545E-001 -1.45109591540E-003 +9.94305126369E-004 +4.98709232488E-006 +2.84281668428E-005 +4.79792624712E-001 -3.57793450356E-001 
+1.96100000000E+010 -6.49408102036E-001 -4.11478668451E-001 +3.08418180794E-004 +1.59165146761E-003 -7.46625073589E-006 +4.41736774519E-005 +4.48827564716E-001 -4.09772396088E-001 
+1.98100000000E+010 -6.48997604847E-001 -4.08419162035E-001 +1.56692625023E-003 +3.67361382814E-004 +4.10109748827E-007 +4.46427184215E-005 +4.14623886347E-001 -4.57212328911E-001 
+2.00100000000E+010 -6.49039924145E-001 -4.07137751579E-001 +8.37602769025E-004 -1.23930617701E-003 -2.62409485003E-005 +2.63118927251E-005 +3.72383117676E-001 -5.04191040993E-001 
