!;Filter: kein Filter
!auto
!3/21/2019 9:25:24 AM
!3/21/2019 9:25:40 AM
!SP-Measurements Prober G4
!SP-Measurements Prober G4
!
!134
!233
!12
!20
!-20
!0.00399976
!1.88
!0.54220246
!0.54220246
# Hz S  RI   R 50
+1.00000000000E+007 +3.35977911949E-001 +9.12879034877E-003 +3.52932997048E-002 -1.43021419644E-002 +8.07598524261E-004 -3.59378231224E-004 +5.10733621195E-003 +6.71815476380E-004 
+2.10000000000E+008 +3.58152598143E-001 -3.02603524178E-002 -1.57607230358E-003 -3.55472639203E-002 +3.69901827071E-005 +6.18397389189E-005 +9.11456253380E-003 -4.33572009206E-003 
+4.10000000000E+008 +3.58930259943E-001 -7.00440704823E-002 -3.33192721009E-002 -1.10546071082E-002 -7.09541382093E-006 -3.96943250962E-005 +1.00770089775E-002 -7.34025752172E-003 
+6.10000000000E+008 +3.54586780071E-001 -1.09396830201E-001 -2.14905776083E-002 +2.65848413110E-002 +2.88948522211E-005 -1.97785211640E-005 +9.36121772975E-003 -1.14898951724E-002 
+8.10000000000E+008 +3.46349120140E-001 -1.46705180407E-001 +1.70705802739E-002 +2.94548198581E-002 -1.69934480709E-006 +9.20051934372E-006 +6.84504397213E-003 -1.52953742072E-002 
+1.01000000000E+009 +3.35254997015E-001 -1.83112293482E-001 +3.38021665812E-002 -5.57653885335E-003 +4.20013520852E-006 +1.58536186063E-005 +2.92339758016E-003 -1.88780706376E-002 
+1.21000000000E+009 +3.22002649307E-001 -2.17300966382E-001 +6.52590719983E-003 -3.26127707958E-002 +1.17851877803E-005 +2.31515787164E-005 -1.81632896420E-003 -2.11447663605E-002 
+1.41000000000E+009 +3.06745886803E-001 -2.50567793846E-001 -2.77266837656E-002 -1.80982165039E-002 +1.86638080777E-005 -1.29795143948E-005 -7.76139367372E-003 -2.42252107710E-002 
+1.61000000000E+009 +2.90003150702E-001 -2.81921476126E-001 -2.69242655486E-002 +1.97294726968E-002 +1.12501456897E-005 -3.55512238457E-005 -1.37324510142E-002 -2.68582794815E-002 
+1.81000000000E+009 +2.71606475115E-001 -3.10912132263E-001 +8.59941821545E-003 +3.13615575433E-002 +1.12076077130E-005 -2.67032319243E-005 -1.78661979735E-002 -2.78592854738E-002 
+2.01000000000E+009 +2.52742916346E-001 -3.38488757610E-001 +3.24957519770E-002 +3.55839054100E-003 -1.02133535620E-005 -1.35054042403E-005 -2.30536051095E-002 -2.67701707780E-002 
+2.21000000000E+009 +2.32399567962E-001 -3.64454388618E-001 +1.43667869270E-002 -2.93759126216E-002 -2.19748944801E-005 +1.28446927192E-005 -2.89734117687E-002 -2.47080791742E-002 
+2.41000000000E+009 +2.11121663451E-001 -3.88243645430E-001 -2.15150769800E-002 -2.35606599599E-002 +1.57966769621E-005 -1.98985362658E-005 -3.56343723834E-002 -2.22979951650E-002 
+2.61000000000E+009 +1.89645841718E-001 -4.10317212343E-001 -2.99236178398E-002 +1.15829957649E-002 -3.67877214558E-006 +3.58010947821E-005 -4.07388694584E-002 -1.92937329412E-002 
+2.81000000000E+009 +1.67585536838E-001 -4.30748105049E-001 +6.58623466734E-004 +3.16560268402E-002 +1.23730615087E-005 -9.74483555183E-006 -4.46962080896E-002 -1.43828475848E-002 
+3.01000000000E+009 +1.44871994853E-001 -4.49404865503E-001 +2.90573965758E-002 +1.09314322472E-002 +1.35432692332E-005 +2.23161459871E-005 -4.85198870301E-002 -8.70253890753E-003 
+3.21000000000E+009 +1.22178964317E-001 -4.66553300619E-001 +2.07848902792E-002 -2.32731606811E-002 -2.55714621744E-005 +1.14363785997E-006 -5.25738261640E-002 -2.28368770331E-003 
+3.41000000000E+009 +9.96026843786E-002 -4.82169687748E-001 -1.43468230963E-002 -2.70173940808E-002 -1.63946078828E-005 +7.90113153926E-006 -5.55895045400E-002 +4.92837559432E-003 
+3.61000000000E+009 +7.70553275943E-002 -4.96452301741E-001 -2.99383103848E-002 +3.11769824475E-003 +4.19739699282E-005 -3.10520181301E-006 -5.73183484375E-002 +1.19136990979E-002 
+3.81000000000E+009 +5.41843213141E-002 -5.09193062782E-001 -7.96810537577E-003 +2.91247516870E-002 -1.01201676443E-005 -1.21940820463E-006 -5.72318173945E-002 +1.93176437169E-002 
+4.01000000000E+009 +3.19213680923E-002 -5.20754635334E-001 +2.38327812403E-002 +1.73859372735E-002 -2.24066279770E-005 -1.52063933001E-007 -5.62047585845E-002 +2.73707676679E-002 
+4.21000000000E+009 +9.75197553635E-003 -5.30962109566E-001 +2.49470323324E-002 -1.52556691319E-002 +9.23705010791E-006 +1.26518816614E-005 -5.42540214956E-002 +3.60003486276E-002 
+4.41000000000E+009 -1.20837604627E-002 -5.40028989315E-001 -5.19474176690E-003 -2.90579479188E-002 +2.30729256145E-006 +1.69182003447E-005 -5.11321462691E-002 +4.43692952394E-002 
+4.61000000000E+009 -3.36142554879E-002 -5.48034489155E-001 -2.84456852823E-002 -5.53927663714E-003 -1.78845027676E-006 +6.88098953106E-006 -4.68109063804E-002 +5.16704916954E-002 
+4.81000000000E+009 -5.50866685808E-002 -5.55029034615E-001 -1.60161275417E-002 +2.42326613516E-002 -1.33094081320E-005 +1.15271259347E-005 -4.03167977929E-002 +5.88736385107E-002 
+5.01000000000E+009 -7.58213773370E-002 -5.61411261559E-001 +1.72335579991E-002 +2.40033995360E-002 -1.51976455527E-005 +5.23913558936E-006 -3.37802655995E-002 +6.56049698591E-002 
+5.21000000000E+009 -9.59236323833E-002 -5.67132592201E-001 +2.81218513846E-002 -7.27625982836E-003 +6.96867559213E-008 +1.23934830754E-006 -2.61949636042E-002 +7.16428831220E-002 
+5.41000000000E+009 -1.15740768611E-001 -5.71721911430E-001 +3.88809246942E-003 -2.90112458169E-002 -8.37372408569E-006 +2.54642873188E-006 -1.73098370433E-002 +7.67191946507E-002 
+5.61000000000E+009 -1.35627776384E-001 -5.75881361961E-001 -2.64008119702E-002 -1.40104033053E-002 +1.28474339363E-005 -5.69239182369E-006 -7.51498108730E-003 +7.98919796944E-002 
+5.81000000000E+009 -1.54448166490E-001 -5.78956365585E-001 -2.22256872803E-002 +1.91592872143E-002 +5.14649809702E-006 -2.98120539810E-005 +3.04275797680E-003 +8.08911025524E-002 
+6.01000000000E+009 -1.72596424818E-001 -5.81271171570E-001 +9.61601547897E-003 +2.82642487437E-002 +1.69952170381E-006 +1.12173556772E-005 +1.42884198576E-002 +8.26041698456E-002 
+6.21000000000E+009 -1.90709039569E-001 -5.83096265793E-001 +3.03887519985E-002 +4.79905691464E-004 -1.10319988380E-005 +1.17857998703E-005 +2.52014920115E-002 +8.21049064398E-002 
+6.41000000000E+009 -2.07932680845E-001 -5.84138453007E-001 +1.13460682333E-002 -2.77348775417E-002 -1.62144551723E-005 +2.00248232431E-005 +3.66105511785E-002 +8.01703184843E-002 
+6.61000000000E+009 -2.25112497807E-001 -5.84778547287E-001 -2.21881009638E-002 -2.12549101561E-002 -2.82877090285E-006 +1.86093348020E-005 +4.77786622941E-002 +7.52499625087E-002 
+6.81000000000E+009 -2.41546958685E-001 -5.84963381290E-001 -2.76707038283E-002 +1.42666986212E-002 +7.75754870119E-006 -9.24028245208E-006 +5.88397346437E-002 +6.95172026753E-002 
+7.01000000000E+009 -2.57319480181E-001 -5.84792435169E-001 +3.20393010043E-003 +3.07133570313E-002 +7.03045316186E-006 -1.15304837891E-005 +6.89518004656E-002 +6.31387829781E-002 
+7.21000000000E+009 -2.72879064083E-001 -5.84029018879E-001 +3.08920368552E-002 +8.29160679132E-003 +2.53910857282E-005 -9.33883984544E-006 +7.80189409852E-002 +5.45027107000E-002 
+7.41000000000E+009 -2.87650972605E-001 -5.83368241787E-001 +1.73747166991E-002 -2.70158685744E-002 -6.94480604579E-006 -2.26700353778E-006 +8.70267450809E-002 +4.43692207336E-002 
+7.61000000000E+009 -3.01724553108E-001 -5.81994295120E-001 -1.88177954406E-002 -2.56703719497E-002 +1.47056316564E-005 +2.08855381061E-005 +9.36550274491E-002 +3.22937369347E-002 
+7.81000000000E+009 -3.16091388464E-001 -5.79920172691E-001 -3.16237211227E-002 +9.35496855527E-003 -5.14416740316E-007 +1.94749845832E-005 +9.88881960511E-002 +1.98077466339E-002 
+8.01000000000E+009 -3.29397499561E-001 -5.77693879604E-001 -4.64018463390E-004 +3.24436016381E-002 -1.98670181817E-006 -2.49610857281E-005 +1.02523930371E-001 +6.13548513502E-003 
+8.21000000000E+009 -3.42369079590E-001 -5.75111448765E-001 +2.99843810499E-002 +1.17333028466E-002 +1.38526129376E-005 -5.65741129321E-006 +1.04752577841E-001 -7.97568261623E-003 
+8.41000000000E+009 -3.54900628328E-001 -5.72167634964E-001 +2.12301295251E-002 -2.60504335165E-002 -1.50010209836E-005 +1.73597600224E-005 +1.04327268898E-001 -2.32260562479E-002 
+8.61000000000E+009 -3.67227524519E-001 -5.69512546062E-001 -1.76138672978E-002 -2.56313681602E-002 +8.26400082587E-006 -6.42736677037E-006 +1.00974231958E-001 -3.88600938022E-002 
+8.81000000000E+009 -3.78946572542E-001 -5.66582620144E-001 -2.95948740095E-002 +6.97691505775E-003 -2.92832032756E-006 +6.74340435580E-006 +9.56048145890E-002 -5.43791726232E-002 
+9.01000000000E+009 -3.90333920717E-001 -5.63324272633E-001 -2.45910650119E-003 +3.00509724766E-002 +7.52625055611E-007 +3.68050200450E-006 +8.88851359487E-002 -6.84483796358E-002 
+9.21000000000E+009 -4.01395708323E-001 -5.60162544250E-001 +2.57348176092E-002 +1.17893284187E-002 -1.55203633767E-005 -2.29527358897E-007 +7.88763985038E-002 -8.33282470703E-002 
+9.41000000000E+009 -4.11664992571E-001 -5.57027995586E-001 +2.03449912369E-002 -1.98114868253E-002 +3.30649044145E-007 -2.23407168960E-005 +6.62229359150E-002 -9.70007032156E-002 
+9.61000000000E+009 -4.21932131052E-001 -5.53395509720E-001 -1.35660180822E-002 -2.48543266207E-002 -1.23520130728E-005 -1.19996575449E-005 +5.09113259614E-002 -1.09057754278E-001 
+9.81000000000E+009 -4.31313633919E-001 -5.50267755985E-001 -2.55919303745E-002 +3.95757239312E-003 -1.12687248475E-005 +1.34396123030E-005 +3.56880836189E-002 -1.18459194899E-001 
+1.00100000000E+010 -4.40818309784E-001 -5.46669900417E-001 -4.92170359939E-003 +2.50906143337E-002 -2.26376005230E-006 -1.27653981963E-006 +1.88274513930E-002 -1.26382455230E-001 
+1.02100000000E+010 -4.49566245079E-001 -5.42846083641E-001 +2.10984684527E-002 +1.10381189734E-002 -4.37911949120E-005 +2.00751183002E-005 +6.06094428804E-004 -1.33503809571E-001 
+1.04100000000E+010 -4.58525031805E-001 -5.39423704147E-001 +1.69460736215E-002 -1.40511645004E-002 -8.77329330251E-006 +1.84789751074E-005 -2.00994089246E-002 -1.38923227787E-001 
+1.06100000000E+010 -4.67064201832E-001 -5.35622894764E-001 -7.36289191991E-003 -2.06375773996E-002 -1.53768196469E-005 -4.39336290583E-005 -4.19567674398E-002 -1.41463443637E-001 
+1.08100000000E+010 -4.74518150091E-001 -5.32667279243E-001 -2.03620474786E-002 +7.97681743279E-004 -3.90485838579E-005 -1.13647429316E-005 -6.37149140239E-002 -1.41044825315E-001 
+1.10100000000E+010 -4.82404768467E-001 -5.28940379620E-001 -6.60797115415E-003 +1.80574003607E-002 -3.83698934456E-005 +1.79132093763E-005 -8.59461054206E-002 -1.37367621064E-001 
+1.12100000000E+010 -4.89732116461E-001 -5.25965034962E-001 +1.46600184962E-002 +1.17123378441E-002 +7.26468078938E-006 +1.75122604560E-005 -1.09799034894E-001 -1.30823299289E-001 
+1.14100000000E+010 -4.96997743845E-001 -5.22105515003E-001 +1.40171889216E-002 -9.19775385410E-003 +6.89043918101E-006 +1.57917183969E-005 -1.32812976837E-001 -1.20478488505E-001 
+1.16100000000E+010 -5.02985656261E-001 -5.18842756748E-001 -2.65070935711E-003 -1.53346611187E-002 -1.46292143199E-006 -2.20001629714E-006 -1.54617086053E-001 -1.07107527554E-001 
+1.18100000000E+010 -5.09609460831E-001 -5.15497624874E-001 -1.47247891873E-002 -2.75391526520E-003 +2.49444947258E-005 +1.49240004248E-005 -1.74388557673E-001 -9.02971029282E-002 
+1.20100000000E+010 -5.16366899014E-001 -5.11598646641E-001 -7.01751234010E-003 +1.16238445044E-002 -2.61762920672E-006 -1.42727412822E-005 -1.91720470786E-001 -7.08782225847E-002 
+1.22100000000E+010 -5.23075461388E-001 -5.07360398769E-001 +7.49875511974E-003 +1.06347249821E-002 -2.88254832412E-005 -4.46451031166E-006 -2.09149315953E-001 -4.87367026508E-002 
+1.24100000000E+010 -5.29116272926E-001 -5.03649890423E-001 +1.21146934107E-002 -3.38912499137E-003 +2.35067927861E-005 -2.26128195209E-005 -2.23862215877E-001 -2.31837611645E-002 
+1.26100000000E+010 -5.35055160522E-001 -4.99757736921E-001 +1.12363963854E-003 -1.12675325945E-002 +2.15183990804E-006 -2.10449752558E-006 -2.33901813626E-001 +4.54220781103E-003 
+1.28100000000E+010 -5.40591478348E-001 -4.95799750090E-001 -9.52956173569E-003 -5.31765539199E-003 -2.37960357481E-005 +1.87441219168E-005 -2.40338340402E-001 +3.37419323623E-002 
+1.30100000000E+010 -5.46021997929E-001 -4.91452217102E-001 -7.88502767682E-003 +6.88481517136E-003 +1.38495097417E-005 -2.01746115636E-005 -2.43876010180E-001 +6.36219009757E-002 
+1.32100000000E+010 -5.50908923149E-001 -4.87588077784E-001 +2.99256760627E-003 +8.96857306361E-003 -5.99661643719E-006 -1.08171516331E-005 -2.44175061584E-001 +9.53169018030E-002 
+1.34100000000E+010 -5.55963337421E-001 -4.83031779528E-001 +9.17815323919E-003 +7.92054459453E-004 +9.13737403607E-006 +8.20224704512E-006 -2.40693837404E-001 +1.27030998468E-001 
+1.36100000000E+010 -5.59106588364E-001 -4.79082554579E-001 +3.67787294090E-003 -7.94362090528E-003 +5.02483068487E-008 +2.12099766941E-005 -2.32875660062E-001 +1.59987837076E-001 
+1.38100000000E+010 -5.64098000526E-001 -4.75555568933E-001 -5.32728200778E-003 -5.92546770349E-003 +2.09515583265E-005 +4.37651760876E-005 -2.19925060868E-001 +1.92281633615E-001 
+1.40100000000E+010 -5.68695247173E-001 -4.71880465746E-001 -7.38356215879E-003 +2.54513882101E-003 -2.54702922575E-006 -1.69507472947E-006 -2.03091621399E-001 +2.23621279001E-001 
+1.42100000000E+010 -5.72936654091E-001 -4.68450844288E-001 -1.25036385725E-004 +7.38637614995E-003 -1.29998743432E-005 +1.62065725817E-006 -1.82396978140E-001 +2.54980802536E-001 
+1.44100000000E+010 -5.77281773090E-001 -4.64350551367E-001 +6.17005862296E-003 +2.84088868648E-003 -1.16623978101E-005 +1.80793795153E-005 -1.56547173858E-001 +2.83701866865E-001 
+1.46100000000E+010 -5.80765902996E-001 -4.60935890675E-001 +4.92544053122E-003 -4.47019049898E-003 -1.06334045995E-005 -4.74019270769E-006 -1.25770300627E-001 +3.09261560440E-001 
+1.48100000000E+010 -5.84020674229E-001 -4.55118626356E-001 -2.38827196881E-003 -5.78160258010E-003 +2.03256095119E-005 +1.09880268440E-007 -9.27659720182E-002 +3.31167221069E-001 
+1.50100000000E+010 -5.85525512695E-001 -4.53920185566E-001 -5.73530001566E-003 -2.15774125536E-004 +9.50986213866E-006 -1.73923027091E-007 -5.72136193514E-002 +3.50416690111E-001 
+1.52100000000E+010 -5.88104367256E-001 -4.52759116888E-001 -2.37415428273E-003 +5.10057527572E-003 +9.90015905700E-006 -2.54726073763E-005 -1.83053407818E-002 +3.65815401077E-001 
+1.54100000000E+010 -5.91318547726E-001 -4.50244754553E-001 +3.70546500199E-003 +3.78524465486E-003 -1.26625982375E-005 +1.22296542031E-005 +2.42188926786E-002 +3.75895261765E-001 
+1.56100000000E+010 -5.94513237476E-001 -4.46546554565E-001 +4.60670376197E-003 -1.64914096240E-003 -1.34197753141E-005 -6.79492541167E-006 +6.84464424849E-002 +3.80061179399E-001 
+1.58100000000E+010 -5.95359921455E-001 -4.45858091116E-001 +2.69084906904E-004 -4.83604194596E-003 -3.30161929014E-005 -1.09574364160E-006 +1.12599901855E-001 +3.80386382341E-001 
+1.60100000000E+010 -5.97506463528E-001 -4.44669634104E-001 -4.11128764972E-003 -1.83813099284E-003 -1.59271912707E-005 +1.12134184747E-005 +1.58087596297E-001 +3.75352323055E-001 
+1.62100000000E+010 -5.99556088448E-001 -4.43087697029E-001 -3.20909987204E-003 +2.79643945396E-003 +3.46453380189E-005 -1.22634619402E-005 +2.05614522099E-001 +3.64910006523E-001 
+1.64100000000E+010 -6.01599395275E-001 -4.41765964031E-001 +1.30135752261E-003 +3.97269753739E-003 +1.26756131067E-005 -2.50381413025E-006 +2.52705335617E-001 +3.48559081554E-001 
+1.66100000000E+010 -6.05065345764E-001 -4.40010339022E-001 +3.88529361226E-003 +1.74530912773E-004 +5.20560679433E-005 +4.62998923467E-006 +2.96660929918E-001 +3.24909090996E-001 
+1.68100000000E+010 -6.08158707619E-001 -4.37455385923E-001 +1.75451149698E-003 -3.21867107414E-003 -4.19122034145E-006 -1.32155646497E-005 +3.40039134026E-001 +2.97726422548E-001 
+1.70100000000E+010 -6.09647512436E-001 -4.35377627611E-001 -2.33668531291E-003 -2.83503602259E-003 -3.30843067786E-005 -1.24219686768E-005 +3.80534261465E-001 +2.66269743443E-001 
+1.72100000000E+010 -6.11770391464E-001 -4.33718800545E-001 -3.23192123324E-003 +1.05260976125E-003 +3.73156362912E-005 +7.60734428695E-006 +4.18338745832E-001 +2.27695554495E-001 
+1.74100000000E+010 -6.15160107613E-001 -4.32047635317E-001 -4.13133966504E-004 +3.21933533996E-003 -1.68495917023E-005 -4.17437513534E-006 +4.51839536428E-001 +1.84348329902E-001 
+1.76100000000E+010 -6.18341922760E-001 -4.29958283901E-001 +2.75740656070E-003 +1.57123233657E-003 +3.72177491954E-005 +4.16599796154E-005 +4.79538142681E-001 +1.38176888227E-001 
+1.78100000000E+010 -6.21622025967E-001 -4.27780181170E-001 +2.30023683980E-003 -1.85614300426E-003 -2.02375358640E-005 -1.73369553522E-005 +5.03105580807E-001 +8.94498527050E-002 
+1.80100000000E+010 -6.24285221100E-001 -4.25401479006E-001 -6.67316315230E-004 -2.77011794969E-003 +1.70499515662E-005 +3.37256169587E-005 +5.22225439548E-001 +3.80210615695E-002 
+1.82100000000E+010 -6.27476871014E-001 -4.23361420631E-001 -2.74513545446E-003 -4.49052284239E-004 -1.01017603811E-005 +1.81400137080E-005 +5.34716606140E-001 -1.67635846883E-002 
+1.84100000000E+010 -6.30620837212E-001 -4.21454429626E-001 -1.44317501690E-003 +2.24180170335E-003 -4.25988437200E-005 +2.53189664363E-005 +5.40953993797E-001 -7.41868764162E-002 
+1.86100000000E+010 -6.33582949638E-001 -4.19126302004E-001 +1.43912550993E-003 +2.11509363726E-003 +5.83018518228E-005 -3.04707064060E-005 +5.41078805923E-001 -1.30996242166E-001 
+1.88100000000E+010 -6.36308133602E-001 -4.16792899370E-001 +2.48580542393E-003 -4.94292238727E-004 +9.69186021393E-006 -7.68420977693E-006 +5.35462200642E-001 -1.87963232398E-001 
+1.90100000000E+010 -6.38607561588E-001 -4.15024518967E-001 +4.22230456024E-004 -2.29403073899E-003 +1.32264349304E-005 +3.34508263222E-006 +5.23987233639E-001 -2.44714006782E-001 
+1.92100000000E+010 -6.41944646835E-001 -4.13423895836E-001 -1.81677914225E-003 -1.28114467952E-003 -7.78946559876E-006 -1.54983263201E-006 +5.05289435387E-001 -3.02637428045E-001 
+1.94100000000E+010 -6.45107686520E-001 -4.10341888666E-001 -1.84255256318E-003 +1.11920875497E-003 -2.61325712927E-005 -1.18919497254E-005 +4.79796111584E-001 -3.57692450285E-001 
+1.96100000000E+010 -6.45971000195E-001 -4.07743930817E-001 +2.88412848022E-004 +1.99452950619E-003 -4.67433274309E-008 +8.13896986074E-006 +4.48887348175E-001 -4.09743309021E-001 
+1.98100000000E+010 -6.45597100258E-001 -4.04803127050E-001 +1.91441294737E-003 +6.47269363981E-004 -2.67707873718E-005 +6.03630223850E-006 +4.14679944515E-001 -4.57092225552E-001 
+2.00100000000E+010 -6.45664691925E-001 -4.03585642576E-001 +1.51524005923E-003 -1.55891210306E-003 -4.59409102405E-006 +1.58810762514E-005 +3.72487157583E-001 -5.04081726074E-001 
