!;Filter: kein Filter
!auto
!3/21/2019 9:27:54 AM
!3/21/2019 9:28:10 AM
!SP-Measurements Prober G4
!SP-Measurements Prober G4
!
!134
!233
!12
!20
!-20
!0.00599970
!2.02
!0.74959551
!0.74959551
# Hz S  RI   R 50
+1.00000000000E+007 +2.51562207937E-001 +5.97641430795E-003 +3.07183191180E-002 -1.16835199296E-002 -9.15222568437E-004 -9.62915728451E-005 +5.87885035202E-003 +6.77330885082E-004 
+2.10000000000E+008 +2.66106456518E-001 -2.37028282136E-002 -1.12587271724E-003 -3.20050902665E-002 +2.57758074440E-005 -3.83789956686E-005 +9.06482245773E-003 -4.41910699010E-003 
+4.10000000000E+008 +2.68744617701E-001 -5.50351627171E-002 -3.03545594215E-002 -1.00622773170E-002 +6.54320774629E-006 -1.74188426172E-005 +1.00705344230E-002 -7.28474278003E-003 
+6.10000000000E+008 +2.68077075481E-001 -8.73151868582E-002 -1.92708019167E-002 +2.47058514506E-002 -2.80401327473E-005 -5.70484780837E-006 +9.32664982975E-003 -1.14689068869E-002 
+8.10000000000E+008 +2.63704866171E-001 -1.20043814182E-001 +1.60734653473E-002 +2.64458283782E-002 +1.06596280602E-005 +7.17396505934E-006 +6.81331148371E-003 -1.52894696221E-002 
+1.01000000000E+009 +2.56634712219E-001 -1.51862815022E-001 +3.00794597715E-002 -5.71327563375E-003 +2.26742977247E-005 +1.32103787109E-006 +2.88930884562E-003 -1.88930220902E-002 
+1.21000000000E+009 +2.47330769897E-001 -1.82185173035E-001 +5.21819200367E-003 -2.96208374202E-002 +8.19653268991E-006 +1.65911205841E-005 -1.83000427205E-003 -2.11139097810E-002 
+1.41000000000E+009 +2.36074775457E-001 -2.12124764919E-001 -2.55979765207E-002 -1.53365787119E-002 +9.48490924202E-006 +4.57779242424E-006 -7.78829446062E-003 -2.41979807615E-002 
+1.61000000000E+009 +2.23424702883E-001 -2.40724787116E-001 -2.30256095529E-002 +1.82843506336E-002 +5.66590779272E-006 +7.94558036432E-006 -1.37420101091E-002 -2.68307421356E-002 
+1.81000000000E+009 +2.09090977907E-001 -2.67480343580E-001 +8.59162397683E-003 +2.75336224586E-002 -2.10597909245E-006 -2.95504651149E-005 -1.78902484477E-002 -2.78288982809E-002 
+2.01000000000E+009 +1.94307968020E-001 -2.93329149485E-001 +2.86335088313E-002 +1.90156733152E-003 +2.23433526116E-005 -2.97792357742E-005 -2.30781361461E-002 -2.67727151513E-002 
+2.21000000000E+009 +1.77729204297E-001 -3.17891955376E-001 +1.17225069553E-002 -2.57089175284E-002 -1.69211671164E-005 -5.02369084643E-006 -2.89719291031E-002 -2.46688220650E-002 
+2.41000000000E+009 +1.60292401910E-001 -3.40667486191E-001 -1.93500984460E-002 -2.00369395316E-002 +3.76754019271E-006 -9.32468356041E-006 -3.56607623398E-002 -2.23037824035E-002 
+2.61000000000E+009 +1.42341077328E-001 -3.62031161785E-001 -2.55592726171E-002 +1.08235906810E-002 -2.10864618566E-006 -2.88207284029E-005 -4.07480634749E-002 -1.92832946777E-002 
+2.81000000000E+009 +1.23603381217E-001 -3.81853491068E-001 +1.04104739148E-003 +2.72540878505E-002 -3.34969740834E-006 +3.05650269183E-006 -4.46795448661E-002 -1.43926264718E-002 
+3.01000000000E+009 +1.04246564209E-001 -4.00259792805E-001 +2.53629349172E-002 +8.97685158998E-003 +1.60453928402E-005 +1.47649025166E-005 -4.85173128545E-002 -8.63974262029E-003 
+3.21000000000E+009 +8.44800397754E-002 -4.17343020439E-001 +1.74265280366E-002 -2.04265024513E-002 -1.28951342049E-005 +8.21851699584E-006 -5.26018999517E-002 -2.24255677313E-003 
+3.41000000000E+009 +6.48911893368E-002 -4.32906895876E-001 -1.26675441861E-002 -2.31507867575E-002 +1.91648887267E-005 -1.39559369927E-005 -5.55533915758E-002 +4.97796945274E-003 
+3.61000000000E+009 +4.51262034476E-002 -4.47430074215E-001 -2.58650146425E-002 +3.14484746195E-003 +1.16780793178E-005 -1.76678840944E-005 -5.72576709092E-002 +1.19041912258E-002 
+3.81000000000E+009 +2.48517487198E-002 -4.60466474295E-001 -6.30033481866E-003 +2.52788327634E-002 +7.51810557631E-006 -1.91613653442E-005 -5.71857281029E-002 +1.93871092051E-002 
+4.01000000000E+009 +5.16195409000E-003 -4.72413241863E-001 +2.08870228380E-002 +1.46723259240E-002 +4.99077941640E-006 +1.64457887877E-005 -5.61952181160E-002 +2.73705460131E-002 
+4.21000000000E+009 -1.47353867069E-002 -4.83157008886E-001 +2.11587958038E-002 -1.38945970684E-002 -2.93585108011E-005 +1.09415113911E-005 -5.42390160263E-002 +3.59951779246E-002 
+4.41000000000E+009 -3.43914628029E-002 -4.92783784866E-001 -5.35173434764E-003 -2.46371831745E-002 -1.34607989821E-005 +1.55630277732E-005 -5.10958842933E-002 +4.43605408072E-002 
+4.61000000000E+009 -5.37560358644E-002 -5.01503109932E-001 -2.44400575757E-002 -3.79891903140E-003 -7.46063642509E-006 +2.43941776716E-005 -4.67790290713E-002 +5.16303926706E-002 
+4.81000000000E+009 -7.32943043113E-002 -5.09241163731E-001 -1.24933114275E-002 +2.11941581219E-002 -6.66383266434E-006 +2.39919936575E-005 -4.03178185225E-002 +5.88833577931E-002 
+5.01000000000E+009 -9.22217592597E-002 -5.16364574432E-001 +1.52819892392E-002 +1.91300641745E-002 +5.27676911588E-006 +6.34541402178E-006 -3.37491445243E-002 +6.55482858419E-002 
+5.21000000000E+009 -1.10587060452E-001 -5.22877097130E-001 +2.29358579963E-002 -7.18452921137E-003 -2.59340922639E-005 +5.76541242481E-006 -2.61825714260E-002 +7.16191008687E-002 
+5.41000000000E+009 -1.28801539540E-001 -5.28283476830E-001 +1.78143114317E-003 -2.38617956638E-002 -2.20154333874E-006 -9.24594132812E-007 -1.72736700624E-002 +7.66358301044E-002 
+5.61000000000E+009 -1.47123366594E-001 -5.33262193203E-001 -2.15363483876E-002 -9.98879875988E-003 +2.24540781346E-005 -1.37627850449E-007 -7.48770171776E-003 +7.98681452870E-002 
+5.81000000000E+009 -1.64485588670E-001 -5.37202537060E-001 -1.68108977377E-002 +1.60836130381E-002 +1.76551147888E-005 +7.21639071344E-006 +3.05433175527E-003 +8.08773785830E-002 
+6.01000000000E+009 -1.81358620524E-001 -5.40370643139E-001 +8.72403010726E-003 +2.14622076601E-002 -1.48162953337E-005 +1.93696378119E-005 +1.42884086818E-002 +8.25917422771E-002 
+6.21000000000E+009 -1.98214054108E-001 -5.43084383011E-001 +2.29272693396E-002 -5.27109950781E-004 -1.07246034986E-006 -2.05684364118E-006 +2.51939818263E-002 +8.20465087891E-002 
+6.41000000000E+009 -2.14290305972E-001 -5.45104503632E-001 +7.82276969403E-003 -2.11064536124E-002 -9.18453963550E-007 -2.44696784648E-005 +3.66359055042E-002 +8.01103860140E-002 
+6.61000000000E+009 -2.30360075831E-001 -5.46608686447E-001 -1.67194828391E-002 -1.50228440762E-002 -1.12509724204E-006 -9.36384640227E-006 +4.77592237294E-002 +7.52278491855E-002 
+6.81000000000E+009 -2.45799094439E-001 -5.47680914402E-001 -1.97913497686E-002 +1.01197827607E-002 -2.21191567107E-005 -1.27882140077E-006 +5.88338561356E-002 +6.94638639688E-002 
+7.01000000000E+009 -2.60664522648E-001 -5.48451542854E-001 +1.99437863193E-003 +2.17850953341E-002 -1.18495918286E-005 -2.02703904506E-006 +6.89616128802E-002 +6.31211996078E-002 
+7.21000000000E+009 -2.75306969881E-001 -5.48552393913E-001 +2.11037229747E-002 +6.27102283761E-003 +3.36368884746E-006 +7.48871343603E-006 +7.80085921288E-002 +5.44565133750E-002 
+7.41000000000E+009 -2.89299368858E-001 -5.48686385155E-001 +1.32589181885E-002 -1.74111146480E-002 -1.09073807835E-005 -1.61456114256E-006 +8.69923532009E-002 +4.43403869867E-002 
+7.61000000000E+009 -3.02539229393E-001 -5.48161923885E-001 -1.10732102767E-002 -1.87002476305E-002 -9.15377313504E-006 -2.06479653571E-005 +9.36284735799E-002 +3.22658233345E-002 
+7.81000000000E+009 -3.16208779812E-001 -5.46991169453E-001 -2.17939969152E-002 +3.59993660823E-003 +1.21751618281E-005 +2.13689031625E-006 +9.88593474030E-002 +1.97761636227E-002 
+8.01000000000E+009 -3.28809559345E-001 -5.45625805855E-001 -4.11732774228E-003 +2.16465815902E-002 +1.13060123113E-005 -6.94622758601E-006 +1.02457948029E-001 +6.12900871783E-003 
+8.21000000000E+009 -3.41202199459E-001 -5.43825149536E-001 +1.86006445438E-002 +1.17108821869E-002 -1.99255373445E-005 -3.57137068931E-005 +1.04663081467E-001 -7.93555937707E-003 
+8.41000000000E+009 -3.53108763695E-001 -5.41720628738E-001 +1.76931507885E-002 -1.36459181085E-002 +4.70381337436E-006 -1.54663575813E-005 +1.04272834957E-001 -2.32332609594E-002 
+8.61000000000E+009 -3.64923357964E-001 -5.39937555790E-001 -6.79332111031E-003 -2.09855865687E-002 -6.61554486214E-006 +1.24380185298E-005 +1.00931033492E-001 -3.88594418764E-002 
+8.81000000000E+009 -3.76207590103E-001 -5.37815868855E-001 -2.19325758517E-002 -1.16362050176E-003 -1.06559109554E-005 +1.23895415527E-005 +9.55780446529E-002 -5.44047653675E-002 
+9.01000000000E+009 -3.87084484100E-001 -5.35329282284E-001 -8.43019783497E-003 +2.04568970948E-002 -1.25693259179E-005 -3.99411919716E-006 +8.88014733791E-002 -6.84468820691E-002 
+9.21000000000E+009 -3.97666782141E-001 -5.32897591591E-001 +1.59450825304E-002 +1.44132012501E-002 +8.25171537144E-006 +5.97818052483E-006 +7.88199305534E-002 -8.32944512367E-002 
+9.41000000000E+009 -4.07591909170E-001 -5.30534625053E-001 +1.90545544028E-002 -9.73170623183E-003 +1.25667702378E-005 +9.80008323381E-008 +6.61764368415E-002 -9.69815477729E-002 
+9.61000000000E+009 -4.17533516884E-001 -5.27669489384E-001 -3.10188042931E-003 -2.10725739598E-002 +1.05037088360E-005 -4.09042622778E-005 +5.08113130927E-002 -1.09032906592E-001 
+9.81000000000E+009 -4.26605105400E-001 -5.25285303593E-001 -2.00216472149E-002 -4.14524786174E-003 -3.09058668790E-006 +1.49100778799E-005 +3.56291308999E-002 -1.18396155536E-001 
+1.00100000000E+010 -4.35808748007E-001 -5.22364556789E-001 -1.08293164521E-002 +1.71409603208E-002 +6.89579565005E-006 +4.67939171358E-005 +1.87848377973E-002 -1.26310482621E-001 
+1.02100000000E+010 -4.44359302521E-001 -5.19221723080E-001 +1.25712575391E-002 +1.54490200803E-002 +1.96908367798E-005 -1.19905253086E-005 +5.78530249186E-004 -1.33426219225E-001 
+1.04100000000E+010 -4.53074336052E-001 -5.16541659832E-001 +1.79773252457E-002 -6.13076286390E-003 -1.73829921550E-005 +4.25906500823E-006 -2.00796741992E-002 -1.38880833983E-001 
+1.06100000000E+010 -4.61501091719E-001 -5.13425171375E-001 +4.57448622910E-004 -1.86958089471E-002 +1.91949329746E-005 +2.35910101765E-005 -4.19752560556E-002 -1.41383558512E-001 
+1.08100000000E+010 -4.68728601933E-001 -5.11041820049E-001 -1.68599523604E-002 -6.17348402739E-003 +2.33984465012E-005 -1.02085759863E-005 -6.37463107705E-002 -1.40933722258E-001 
+1.10100000000E+010 -4.76486176252E-001 -5.07909655571E-001 -1.12106604502E-002 +1.28719694912E-002 -2.88851078949E-005 -1.05182380139E-005 -8.59249234200E-002 -1.37291148305E-001 
+1.12100000000E+010 -4.83713209629E-001 -5.05518674850E-001 +8.03616363555E-003 +1.46110644564E-002 +1.13857613542E-005 -1.05264152808E-005 -1.09756961465E-001 -1.30792170763E-001 
+1.14100000000E+010 -4.90861207247E-001 -5.02271652222E-001 +1.55229270458E-002 -2.61786417104E-003 +1.69687300513E-005 +2.10939205658E-007 -1.32773399353E-001 -1.20368093252E-001 
+1.16100000000E+010 -4.96800422668E-001 -4.99542921782E-001 +3.13845695928E-003 -1.46665768698E-002 +1.13978767331E-005 +1.44492732943E-005 -1.54590144753E-001 -1.07078306377E-001 
+1.18100000000E+010 -5.03360748291E-001 -4.96681481600E-001 -1.23341325670E-002 -7.83016532660E-003 +3.13162745442E-005 +4.27039594797E-005 -1.74319550395E-001 -9.02851670980E-002 
+1.20100000000E+010 -5.10026097298E-001 -4.93279844522E-001 -1.08427572995E-002 +8.43602325767E-003 -1.29420527628E-006 +6.00912972004E-006 -1.91643700004E-001 -7.08197057247E-002 
+1.22100000000E+010 -5.16683340073E-001 -4.89510625601E-001 +3.55692673475E-003 +1.25936735421E-002 -9.23583684198E-006 -1.11318267955E-005 -2.09100231528E-001 -4.87192533910E-002 
+1.24100000000E+010 -5.22704243660E-001 -4.86311018467E-001 +1.26789947972E-002 +9.81209683232E-004 +2.57421675087E-006 -8.18447642814E-006 -2.23780557513E-001 -2.31634322554E-002 
+1.26100000000E+010 -5.28527319431E-001 -4.82835054398E-001 +4.97908843681E-003 -1.07172606513E-002 +9.42273982218E-006 -9.03285399545E-006 -2.33776792884E-001 +4.54513169825E-003 
+1.28100000000E+010 -5.34079253674E-001 -4.79360133410E-001 -7.72045599297E-003 -8.26743524522E-003 +3.76521143153E-006 +1.20800214063E-005 -2.40265041590E-001 +3.37236188352E-002 
+1.30100000000E+010 -5.39449572563E-001 -4.75364059210E-001 -1.00262518972E-002 +4.18873829767E-003 +8.86719226401E-006 -8.77961520018E-006 -2.43796214461E-001 +6.36444613338E-002 
+1.32100000000E+010 -5.44358491898E-001 -4.72038835287E-001 +2.37911488512E-004 +1.01222563535E-002 +1.81211344170E-005 +1.91569670278E-005 -2.44117692113E-001 +9.52789038420E-002 
+1.34100000000E+010 -5.49416720867E-001 -4.67860490084E-001 +9.04107000679E-003 +3.46104218625E-003 +7.54687789595E-006 -2.64764094027E-006 -2.40636676550E-001 +1.26985713840E-001 
+1.36100000000E+010 -5.52564859390E-001 -4.64236348867E-001 +6.16396218538E-003 -6.92988559604E-003 +1.39484491228E-005 -5.99825762038E-006 -2.32800990343E-001 +1.59946486354E-001 
+1.38100000000E+010 -5.57580053806E-001 -4.61115419865E-001 -3.85725544766E-003 -7.79545679688E-003 -9.37936238188E-006 -5.21100460560E-008 -2.19814002514E-001 +1.92230969667E-001 
+1.40100000000E+010 -5.62231063843E-001 -4.57789242268E-001 -8.31665750593E-003 +5.96624566242E-004 +1.55191028171E-005 +4.04591219194E-006 -2.03050851822E-001 +2.23538517952E-001 
+1.42100000000E+010 -5.66513597965E-001 -4.54793363810E-001 -2.29127425700E-003 +7.66117451712E-003 +6.19663069301E-006 +1.10201453936E-005 -1.82371854782E-001 +2.54917949438E-001 
+1.44100000000E+010 -5.70811927319E-001 -4.51034486294E-001 +5.84701122716E-003 +4.67166258022E-003 +1.73088774318E-005 +5.20299454365E-006 -1.56512990594E-001 +2.83628165722E-001 
+1.46100000000E+010 -5.74331879616E-001 -4.47984546423E-001 +6.29707053304E-003 -3.46947996877E-003 -6.63503624310E-006 -6.16663191977E-006 -1.25705182552E-001 +3.09133946896E-001 
+1.48100000000E+010 -5.77687323093E-001 -4.42539811134E-001 -9.34702053200E-004 -6.76676305011E-003 +1.25882806969E-005 -1.88740468730E-005 -9.27793607116E-002 +3.31130802631E-001 
+1.50100000000E+010 -5.79197704792E-001 -4.41610068083E-001 -6.14045141265E-003 -1.59774906933E-003 -1.16949941003E-005 +2.30683381233E-005 -5.72551935911E-002 +3.50342273712E-001 
+1.52100000000E+010 -5.81925094128E-001 -4.40735042095E-001 -3.68394586258E-003 +4.86482726410E-003 -1.39995063364E-005 -7.96386848378E-006 -1.83299556375E-002 +3.65736871958E-001 
+1.54100000000E+010 -5.85090816021E-001 -4.38386589289E-001 +2.99825728871E-003 +4.90480288863E-003 +1.10244081952E-005 +2.80498206848E-005 +2.42175552994E-002 +3.75785201788E-001 
+1.56100000000E+010 -5.88325083256E-001 -4.35092747211E-001 +5.37283392623E-003 -7.44407123420E-004 +1.98737343453E-005 +1.81363120646E-005 +6.84301331639E-002 +3.79994601011E-001 
+1.58100000000E+010 -5.89348614216E-001 -4.34661000967E-001 +1.32102333009E-003 -5.04088122398E-003 +1.03655911516E-005 -2.15095242311E-005 +1.12579762936E-001 +3.80279242992E-001 
+1.60100000000E+010 -5.91492831707E-001 -4.33645695448E-001 -3.98093787953E-003 -2.92018009350E-003 +2.18334425881E-005 +1.79681846930E-005 +1.58018454909E-001 +3.75269770622E-001 
+1.62100000000E+010 -5.93586325645E-001 -4.32368278503E-001 -4.03727218509E-003 +2.32820492238E-003 +4.06434446631E-005 -1.43592149016E-006 +2.05603435636E-001 +3.64857345819E-001 
+1.64100000000E+010 -5.95661938190E-001 -4.31249558926E-001 +5.75564801693E-004 +4.44186665118E-003 +6.36204686089E-006 +2.10014350159E-005 +2.52591341734E-001 +3.48555862904E-001 
+1.66100000000E+010 -5.99155306816E-001 -4.29658830166E-001 +4.14880039170E-003 +1.07386638410E-003 -4.57282294519E-006 +9.11475763132E-006 +2.96544283628E-001 +3.24915051460E-001 
+1.68100000000E+010 -6.02344870567E-001 -4.27339553833E-001 +2.51945387572E-003 -3.17997368984E-003 -2.10942125705E-005 +3.91187722926E-006 +3.39914172888E-001 +2.97673493624E-001 
+1.70100000000E+010 -6.03858470917E-001 -4.25516486168E-001 -1.86524540186E-003 -3.47819109447E-003 -1.23424533740E-005 +2.15335217035E-006 +3.80374580622E-001 +2.66275137663E-001 
+1.72100000000E+010 -6.06073558331E-001 -4.24103915691E-001 -3.72150959447E-003 +4.10148495575E-004 +1.79539783858E-005 -4.22900338890E-005 +4.18262898922E-001 +2.27726086974E-001 
+1.74100000000E+010 -6.09523534775E-001 -4.22554373741E-001 -1.07106438372E-003 +3.40164150111E-003 -3.32092895405E-005 -6.84716769683E-006 +4.51719313860E-001 +1.84416070580E-001 
+1.76100000000E+010 -6.12714767456E-001 -4.20713424683E-001 +2.59461859241E-003 +2.23361537792E-003 +3.58534271072E-005 +1.19066762636E-005 +4.79425877333E-001 +1.38246491551E-001 
+1.78100000000E+010 -6.16093575954E-001 -4.18724328279E-001 +2.88860476576E-003 -1.49296328891E-003 +2.44985785685E-005 +2.49364366027E-005 +5.02973318100E-001 +8.95413830876E-002 
+1.80100000000E+010 -6.18743538857E-001 -4.16553646326E-001 -1.93227489945E-004 -3.13210580498E-003 -9.57986230787E-006 +1.35772024805E-005 +5.22068858147E-001 +3.81135009229E-002 
+1.82100000000E+010 -6.22071206570E-001 -4.14713174105E-001 -2.87135434337E-003 -1.02723250166E-003 -1.78885748028E-005 +7.44924409446E-006 +5.34616470337E-001 -1.66906882077E-002 
+1.84100000000E+010 -6.25190734863E-001 -4.12936210632E-001 -1.96124310605E-003 +2.12550442666E-003 +2.15718719119E-005 +2.56344665104E-005 +5.40938258171E-001 -7.40299075842E-002 
+1.86100000000E+010 -6.28261148930E-001 -4.10767883062E-001 +1.09465280548E-003 +2.54564173520E-003 +7.34598461349E-006 -1.58590883075E-005 +5.41071832180E-001 -1.30859330297E-001 
+1.88100000000E+010 -6.30897462368E-001 -4.08681720495E-001 +2.72446055897E-003 -3.01452855638E-005 +5.55653059564E-006 -1.30569678731E-005 +5.35471200943E-001 -1.87843278050E-001 
+1.90100000000E+010 -6.33353352547E-001 -4.07058745623E-001 +9.97700495645E-004 -2.41692061536E-003 -2.04606749321E-005 -1.32308759930E-005 +5.24056553841E-001 -2.44619086385E-001 
+1.92100000000E+010 -6.36761307716E-001 -4.05560195446E-001 -1.74487498589E-003 -1.79870962165E-003 +2.15522286453E-005 +2.38552729570E-006 +5.05310893059E-001 -3.02526324987E-001 
+1.94100000000E+010 -6.39921367168E-001 -4.02667433023E-001 -2.21345666796E-003 +8.75757890753E-004 -5.01900067320E-005 -1.93596824829E-005 +4.79805827141E-001 -3.57578724623E-001 
+1.96100000000E+010 -6.40855431557E-001 -4.00245875120E-001 -6.31149378023E-005 +2.32270127162E-003 +5.01414615428E-005 +2.78975875290E-007 +4.48868185282E-001 -4.09589648247E-001 
+1.98100000000E+010 -6.40561044216E-001 -3.97441148758E-001 +2.03972682357E-003 +9.08991554752E-004 -1.12169454951E-005 -6.57410146232E-006 +4.14801120758E-001 -4.56973999739E-001 
+2.00100000000E+010 -6.40660285950E-001 -3.96349996328E-001 +1.57375831623E-003 -1.48331106175E-003 -1.80319857463E-005 -2.58128948190E-005 +3.72533679008E-001 -5.03989577293E-001 
