!;Filter: kein Filter
!auto
!3/21/2019 9:25:24 AM
!3/21/2019 9:25:40 AM
!SP-Measurements Prober G4
!SP-Measurements Prober G4
!
!134
!237
!12
!20
!-20
!0.00399976
!1.88
!0.54220246
!0.54220246
# Hz S  RI   R 50
+1.00000000000E+007 +2.34185531735E-001 +1.85300447047E-002 +5.65737634897E-002 -2.37353276461E-002 +1.26406943309E-004 -3.29867849359E-004 +5.21489977837E-003 +1.10023759771E-003 
+2.10000000000E+008 +2.56016463041E-001 -2.85378750414E-002 -1.95353850722E-003 -5.86311630905E-002 +3.29806352966E-005 -2.88826286123E-005 +9.02851670980E-003 -4.43992204964E-003 
+4.10000000000E+008 +2.54577457905E-001 -6.35457336903E-002 -5.52072338760E-002 -1.88892148435E-002 +9.49835703068E-006 -8.13100123196E-005 +1.00016826764E-002 -7.33374245465E-003 
+6.10000000000E+008 +2.50204682350E-001 -9.68053713441E-002 -3.67418080568E-002 +4.51711528003E-002 -5.12140977662E-005 +6.88492809786E-006 +9.37180873007E-003 -1.15132154897E-002 
+8.10000000000E+008 +2.42730766535E-001 -1.29413142800E-001 +2.91066616774E-002 +4.92244921625E-002 -3.16270734402E-006 -3.45620924236E-006 +6.83123944327E-003 -1.52478674427E-002 
+1.01000000000E+009 +2.33330518007E-001 -1.60255968571E-001 +5.63408210874E-002 -9.58310160786E-003 -1.48155722854E-005 +3.06232614093E-005 +2.90819164366E-003 -1.88363157213E-002 
+1.21000000000E+009 +2.22371935844E-001 -1.89935237169E-001 +1.06110526249E-002 -5.50107285380E-002 -9.71448662312E-006 +3.03856177197E-006 -1.79932452738E-003 -2.10966896266E-002 
+1.41000000000E+009 +2.09396898746E-001 -2.18760147691E-001 -4.70157824457E-002 -2.98306364566E-002 -5.14915791427E-006 -1.07784499050E-005 -7.71095277742E-003 -2.42365133017E-002 
+1.61000000000E+009 +1.95909202099E-001 -2.46031925082E-001 -4.43367920816E-002 +3.36731113493E-002 -5.72419867240E-006 +2.46672425419E-006 -1.37201845646E-002 -2.68418006599E-002 
+1.81000000000E+009 +1.80528789759E-001 -2.71807909012E-001 +1.50838019326E-002 +5.24369366467E-002 +6.33323338661E-007 +6.68424581818E-006 -1.78240388632E-002 -2.78555229306E-002 
+2.01000000000E+009 +1.64920017123E-001 -2.96304136515E-001 +5.42924888432E-002 +5.31209539622E-003 +1.10220917122E-005 -8.95464290807E-006 -2.30352692306E-002 -2.67619602382E-002 
+2.21000000000E+009 +1.47884324193E-001 -3.19813072681E-001 +2.41643991321E-002 -4.87224794924E-002 -1.98515008378E-005 -1.28981582748E-006 -2.89427489042E-002 -2.46924348176E-002 
+2.41000000000E+009 +1.29871308804E-001 -3.41181218624E-001 -3.61768901348E-002 -4.00166213512E-002 +1.34496785904E-005 +7.48119919081E-006 -3.56155112386E-002 -2.23347265273E-002 
+2.61000000000E+009 +1.11715406179E-001 -3.61247092485E-001 -5.08603267372E-002 +1.91163942218E-002 -5.08519462983E-007 -6.10134429735E-006 -4.07010428607E-002 -1.92877873778E-002 
+2.81000000000E+009 +9.29087325931E-002 -3.79931181669E-001 -1.32122280775E-004 +5.43400943279E-002 +2.21634763875E-005 -1.23125510072E-005 -4.46557290852E-002 -1.44237624481E-002 
+3.01000000000E+009 +7.35479220748E-002 -3.97058159113E-001 +5.01976571977E-002 +2.00734119862E-002 +2.03905419767E-005 -1.91348917724E-005 -4.84717264771E-002 -8.72955936939E-003 
+3.21000000000E+009 +5.40479309857E-002 -4.12987858057E-001 +3.77104617655E-002 -3.99147123098E-002 -1.79457106242E-006 +9.15809778235E-006 -5.25415949523E-002 -2.34233890660E-003 
+3.41000000000E+009 +3.46824228764E-002 -4.27566677332E-001 -2.42678634822E-002 -4.97463084757E-002 +2.71255212283E-005 +2.53485814028E-005 -5.55560365319E-002 +4.90338169038E-003 
+3.61000000000E+009 +1.52945769951E-002 -4.40990835428E-001 -5.55369667709E-002 +4.50205104426E-003 +1.46169059008E-005 -3.45158150594E-006 -5.72388023138E-002 +1.18387248367E-002 
+3.81000000000E+009 -4.42890776321E-003 -4.53088074923E-001 -1.58064849675E-002 +5.46424277127E-002 +1.87539899343E-005 +2.56560488197E-005 -5.72284907103E-002 +1.92857217044E-002 
+4.01000000000E+009 -2.37268228084E-002 -4.64283436537E-001 +4.57651279867E-002 +3.38685363531E-002 +3.21971347148E-005 -8.15180192149E-006 -5.61990700662E-002 +2.73069422692E-002 
+4.21000000000E+009 -4.30580787361E-002 -4.74255532026E-001 +4.86501492560E-002 -3.04270815104E-002 -2.45272658503E-005 +1.07178066173E-005 -5.42480088770E-002 +3.59819382429E-002 
+4.41000000000E+009 -6.21643550694E-002 -4.83325779438E-001 -1.16717368364E-002 -5.73893003166E-002 +1.86519082490E-005 +1.88894898656E-006 -5.10607883334E-002 +4.42983098328E-002 
+4.61000000000E+009 -8.09089317918E-002 -4.91212338209E-001 -5.82645460963E-002 -9.40358545631E-003 +9.47086118686E-006 +4.58234126199E-006 -4.68148998916E-002 +5.15904389322E-002 
+4.81000000000E+009 -9.97392833233E-002 -4.98404860497E-001 -3.04217617959E-002 +5.18853999674E-002 -4.14766873291E-006 -1.42942644743E-006 -4.03368510306E-002 +5.88270239532E-002 
+5.01000000000E+009 -1.17998220026E-001 -5.05150139332E-001 +3.94910126925E-002 +4.82452288270E-002 -1.36393691719E-005 -1.43522283906E-005 -3.38216833770E-002 +6.55361413956E-002 
+5.21000000000E+009 -1.35818690062E-001 -5.11247575283E-001 +5.98858520389E-002 -2.12353356183E-002 +4.51682899438E-006 +2.74374224318E-006 -2.62128226459E-002 +7.15667083859E-002 
+5.41000000000E+009 -1.53374001384E-001 -5.16313612461E-001 +8.17977357656E-004 -6.54081329703E-002 +1.66835598066E-005 +1.39663816299E-005 -1.73565223813E-002 +7.66422823071E-002 
+5.61000000000E+009 -1.71199157834E-001 -5.21035909653E-001 -6.39761537313E-002 -2.27811131626E-002 -6.16644683760E-006 +1.38899085869E-005 -7.57008790970E-003 +7.98466056585E-002 
+5.81000000000E+009 -1.88043773174E-001 -5.24724066257E-001 -4.31539528072E-002 +5.37445060909E-002 -2.79302935269E-006 -3.85492830901E-006 +3.02075454965E-003 +8.08377563953E-002 
+6.01000000000E+009 -2.04316288233E-001 -5.27755022049E-001 +3.79131026566E-002 +6.07364922762E-002 -1.31444039653E-005 -1.84725940926E-005 +1.42230633646E-002 +8.25566500425E-002 
+6.21000000000E+009 -2.20819696784E-001 -5.30324339867E-001 +7.18295425177E-002 -1.91061403602E-002 +4.05585524277E-005 -1.24861153381E-005 +2.51088216901E-002 +8.20408165455E-002 
+6.41000000000E+009 -2.36429214478E-001 -5.32147228718E-001 +3.63452848978E-003 -7.52231031656E-002 -2.27286227528E-006 -2.46779454756E-005 +3.65266874433E-002 +8.01529139280E-002 
+6.61000000000E+009 -2.52162158489E-001 -5.33399879932E-001 -7.31635764241E-002 -2.59695276618E-002 +1.10005667011E-005 +2.55323975580E-005 +4.76488955319E-002 +7.52546861768E-002 
+6.81000000000E+009 -2.67259240150E-001 -5.34193873405E-001 -4.36227209866E-002 +6.33471608162E-002 -1.00014531199E-005 +2.90247271550E-006 +5.87643235922E-002 +6.95072934031E-002 
+7.01000000000E+009 -2.81699657440E-001 -5.34627974033E-001 +4.67123761773E-002 +5.90523853898E-002 +4.50192464996E-006 +6.58708677292E-006 +6.88414871693E-002 +6.31726682186E-002 
+7.21000000000E+009 -2.95986771584E-001 -5.34456193447E-001 +6.89838379622E-002 -2.84713618457E-002 +2.54532551480E-006 +3.92412039218E-006 +7.79212564230E-002 +5.45148290694E-002 
+7.41000000000E+009 -3.09505522251E-001 -5.34304797649E-001 -8.38683452457E-003 -7.04660117626E-002 -4.97803921462E-006 -1.12319467007E-005 +8.69892090559E-002 +4.43399101496E-002 
+7.61000000000E+009 -3.22193026543E-001 -5.33438742161E-001 -6.72069266438E-002 -1.23340869322E-002 +7.13536428520E-006 -2.12225822906E-005 +9.35609787703E-002 +3.23168598115E-002 
+7.81000000000E+009 -3.35281342268E-001 -5.31857132912E-001 -2.77387425303E-002 +5.84531202912E-002 -1.94108224605E-006 +8.28273550724E-006 +9.87860560417E-002 +1.98564380407E-002 
+8.01000000000E+009 -3.47241669893E-001 -5.30280947685E-001 +4.35465499759E-002 +3.99488657713E-002 -2.14786159631E-005 +1.42745966514E-006 +1.02421157062E-001 +6.22887816280E-003 
+8.21000000000E+009 -3.58920007944E-001 -5.28385579586E-001 +4.84200716019E-002 -2.71804966033E-002 +7.76233173383E-006 +3.42460930369E-006 +1.04672290385E-001 -7.86770600826E-003 
+8.41000000000E+009 -3.70284557343E-001 -5.26186823845E-001 -1.62094850093E-002 -5.22432513535E-002 +1.37476226882E-005 -6.70689269100E-006 +1.04242108762E-001 -2.31496002525E-002 
+8.61000000000E+009 -3.81233960390E-001 -5.24387121201E-001 -4.24034669995E-002 -4.37609246001E-003 +6.56100382912E-006 +2.22922426474E-005 +1.00908063352E-001 -3.87980118394E-002 
+8.81000000000E+009 -3.91865372658E-001 -5.22338926792E-001 -1.83047540486E-002 +3.60367260873E-002 +1.21763196148E-005 -9.58155669650E-006 +9.55488905311E-002 -5.42796924710E-002 
+9.01000000000E+009 -4.02150481939E-001 -5.19786298275E-001 +2.58053280413E-002 +2.65484582633E-002 -2.01744333026E-005 -1.15192078738E-005 +8.88072624803E-002 -6.83123096824E-002 
+9.21000000000E+009 -4.12090629339E-001 -5.17490625381E-001 +3.11199948192E-002 -1.31639093161E-002 +2.95264067063E-006 +6.10122970102E-006 +7.88765549660E-002 -8.31864923239E-002 
+9.41000000000E+009 -4.21440631151E-001 -5.15309214592E-001 -1.48223177530E-003 -3.13977226615E-002 -4.38843898110E-007 -2.39860037254E-005 +6.62016347051E-002 -9.68602299690E-002 
+9.61000000000E+009 -4.30812388659E-001 -5.12570321560E-001 -2.69937682897E-002 -8.62736906856E-003 -1.71246665559E-005 +2.87571822355E-007 +5.08951954544E-002 -1.08951203525E-001 
+9.81000000000E+009 -4.39348727465E-001 -5.10539293289E-001 -1.68431308120E-002 +1.99361387640E-002 -2.79040687019E-005 -6.65685865897E-006 +3.57034392655E-002 -1.18290200830E-001 
+1.00100000000E+010 -4.47937875986E-001 -5.07746636868E-001 +1.17278965190E-002 +2.15118043125E-002 -1.78204136319E-005 +2.52317022387E-005 +1.89232137054E-002 -1.26196324825E-001 
+1.02100000000E+010 -4.56170290709E-001 -5.05023181438E-001 +2.21127085388E-002 -2.82828905620E-003 +1.19769019875E-005 +4.26452697866E-006 +7.29709514417E-004 -1.33376181126E-001 
+1.04100000000E+010 -4.64616388083E-001 -5.02627551556E-001 +5.58044342324E-003 -2.01873090118E-002 -2.78705501842E-005 +8.63977948029E-006 -1.99583303183E-002 -1.38827160001E-001 
+1.06100000000E+010 -4.72647875547E-001 -4.99661654234E-001 -1.57524235547E-002 -1.16431554779E-002 -2.32688307733E-006 -2.07504199352E-005 -4.18309606612E-002 -1.41355022788E-001 
+1.08100000000E+010 -4.79581654072E-001 -4.97519761324E-001 -1.53433317319E-002 +9.47019550949E-003 +1.47325727085E-006 +2.49754812103E-005 -6.35835155845E-002 -1.40914365649E-001 
+1.10100000000E+010 -4.86965566874E-001 -4.94595974684E-001 +2.42610159330E-003 +1.67950130999E-002 +2.20503789023E-005 -8.81975211087E-006 -8.57717692852E-002 -1.37265086174E-001 
+1.12100000000E+010 -4.93851482868E-001 -4.92439121008E-001 +1.57329849899E-002 +3.61232925206E-003 -2.25805906666E-005 -1.62536562129E-005 -1.09651200473E-001 -1.30778625607E-001 
+1.14100000000E+010 -5.00679790974E-001 -4.89492058754E-001 +8.63318797201E-003 -1.21087767184E-002 -1.33004341478E-005 +3.26089389091E-006 -1.32640302181E-001 -1.20380528271E-001 
+1.16100000000E+010 -5.06399393082E-001 -4.87116008997E-001 -7.44385132566E-003 -1.20702125132E-002 +3.45764328813E-006 -1.40069323606E-005 -1.54418647289E-001 -1.07078909874E-001 
+1.18100000000E+010 -5.12713491917E-001 -4.84446972609E-001 -1.32648609579E-002 +2.39750556648E-003 -1.77918591362E-005 -8.84973087523E-006 -1.74147844315E-001 -9.03853774071E-002 
+1.20100000000E+010 -5.19185841084E-001 -4.81169223785E-001 -2.56301928312E-003 +1.21933845803E-002 +1.45504909597E-005 -2.02927731152E-005 -1.91523045301E-001 -7.09523260593E-002 
+1.22100000000E+010 -5.25519192219E-001 -4.77767884731E-001 +9.70373302698E-003 +6.77832355723E-003 -3.36866214639E-005 -1.04077389551E-005 -2.09021478891E-001 -4.88435439765E-002 
+1.24100000000E+010 -5.31286418438E-001 -4.74812388420E-001 +9.35137644410E-003 -6.19627302513E-003 -2.10870202864E-005 +6.82879544911E-006 -2.23681360483E-001 -2.32411976904E-002 
+1.26100000000E+010 -5.37025690079E-001 -4.71604853868E-001 -1.94241746794E-003 -1.01735163480E-002 -8.62004583269E-007 -1.49418056026E-005 -2.33678385615E-001 +4.43165469915E-003 
+1.28100000000E+010 -5.42402744293E-001 -4.68309581280E-001 -9.75127611309E-003 -2.15119170025E-003 -5.26255007571E-006 -3.56732016371E-005 -2.40098908544E-001 +3.35640385747E-002 
+1.30100000000E+010 -5.47619819641E-001 -4.64655607939E-001 -5.29603054747E-003 +7.78464972973E-003 -1.03924803625E-005 -1.47071086758E-005 -2.43703305721E-001 +6.34294077754E-002 
+1.32100000000E+010 -5.52515864372E-001 -4.61458235979E-001 +4.71151294187E-003 +7.42784794420E-003 -9.57773499977E-006 +2.94079163723E-005 -2.44056835771E-001 +9.51063334942E-002 
+1.34100000000E+010 -5.57488560677E-001 -4.57508891821E-001 +8.39223526418E-003 -1.39977340586E-003 -1.49447523654E-005 +2.77178442047E-005 -2.40584120154E-001 +1.26808822155E-001 
+1.36100000000E+010 -5.60633718967E-001 -4.54204022884E-001 +1.67181505822E-003 -7.81520735472E-003 -1.79879389179E-005 -2.03284143936E-005 -2.32850447297E-001 +1.59724891186E-001 
+1.38100000000E+010 -5.65459430218E-001 -4.51015561819E-001 -6.09835237265E-003 -4.34374623001E-003 +4.16811053583E-006 +4.04850516134E-006 -2.19859406352E-001 +1.92037910223E-001 
+1.40100000000E+010 -5.69971740246E-001 -4.47964549065E-001 -6.15139259025E-003 +3.75282601453E-003 -4.48431528639E-005 +4.68295775136E-006 -2.03079342842E-001 +2.23368093371E-001 
+1.42100000000E+010 -5.74223756790E-001 -4.45142328739E-001 +1.11891864799E-003 +6.71772565693E-003 -9.53667586145E-006 -7.26890857550E-006 -1.82391658425E-001 +2.54709154367E-001 
+1.44100000000E+010 -5.78418076038E-001 -4.41508233547E-001 +6.20747590438E-003 +1.63001392502E-003 -1.51533258759E-005 -1.68338431195E-006 -1.56573683023E-001 +2.83423244953E-001 
+1.46100000000E+010 -5.81806540489E-001 -4.38695728779E-001 +3.76606336795E-003 -4.96523315087E-003 -4.16096872868E-006 +4.49811841463E-006 -1.25820383430E-001 +3.08963477612E-001 
+1.48100000000E+010 -5.85297107697E-001 -4.33711767197E-001 -2.99764773808E-003 -5.02314604819E-003 -7.40616633266E-006 -2.18660852624E-006 -9.28388163447E-002 +3.30873817205E-001 
+1.50100000000E+010 -5.86773991585E-001 -4.32443916798E-001 -5.52766537294E-003 +6.11661351286E-004 +2.16695207200E-005 -2.16229109355E-005 -5.73445223272E-002 +3.50140869617E-001 
+1.52100000000E+010 -5.89443504810E-001 -4.31698620319E-001 -1.49376108311E-003 +5.14504872262E-003 -1.29801765070E-005 +1.70605399035E-005 -1.85088533908E-002 +3.65565031767E-001 
+1.54100000000E+010 -5.92535078526E-001 -4.29395318031E-001 +3.92336118966E-003 +3.13106947578E-003 -1.74745091499E-005 +3.04235436488E-006 +2.40191165358E-002 +3.75669211149E-001 
+1.56100000000E+010 -5.95675468445E-001 -4.26148235798E-001 +4.25672298297E-003 -2.18512769789E-003 +1.77792098839E-005 -1.90721893887E-005 +6.82260468602E-002 +3.79925459623E-001 
+1.58100000000E+010 -5.96701741219E-001 -4.25799578428E-001 -3.61868005712E-004 -4.62416419759E-003 +1.11242543426E-005 +1.52540924319E-005 +1.12381115556E-001 +3.80258321762E-001 
+1.60100000000E+010 -5.98573744297E-001 -4.24669593573E-001 -4.14820108563E-003 -1.36522087269E-003 +6.39443751425E-005 +1.14474105430E-005 +1.57822594047E-001 +3.75215739012E-001 
+1.62100000000E+010 -6.00579798222E-001 -4.23589706421E-001 -2.83933151513E-003 +3.10119404458E-003 -3.42892030858E-006 +2.41919460677E-005 +2.05388039351E-001 +3.64848583937E-001 
+1.64100000000E+010 -6.02640628815E-001 -4.22584980726E-001 +1.68011640199E-003 +3.65066924132E-003 +1.25746109916E-005 -1.11785548143E-005 +2.52352058887E-001 +3.48522037268E-001 
+1.66100000000E+010 -6.05660974979E-001 -4.20654952526E-001 +3.81063180976E-003 -2.06070093554E-004 +3.27451816702E-005 +2.63793244812E-005 +2.96297699213E-001 +3.24897021055E-001 
+1.68100000000E+010 -6.08537316322E-001 -4.18472081423E-001 +1.35780649725E-003 -3.38726234622E-003 -1.31908955154E-005 +4.19691150455E-006 +3.39668840170E-001 +2.97750413418E-001 
+1.70100000000E+010 -6.09884202480E-001 -4.16885972023E-001 -2.52692424692E-003 -2.47518322431E-003 +1.76793073479E-005 -1.17064155347E-005 +3.80138665438E-001 +2.66380459070E-001 
+1.72100000000E+010 -6.11920595169E-001 -4.15526777506E-001 -3.13498615287E-003 +1.27065624110E-003 +6.51541813568E-006 +2.09215468203E-005 +4.18031126261E-001 +2.27850362659E-001 
+1.74100000000E+010 -6.15255355835E-001 -4.14069324732E-001 -1.40941003338E-004 +3.19031253457E-003 +9.29459201870E-006 +7.77191689849E-006 +4.51540052891E-001 +1.84452995658E-001 
+1.76100000000E+010 -6.18264794350E-001 -4.12286072969E-001 +2.82019330189E-003 +1.29823794123E-003 +2.17830887550E-007 -8.70846452017E-006 +4.79215592146E-001 +1.38271898031E-001 
+1.78100000000E+010 -6.21342778206E-001 -4.10312563181E-001 +2.17929179780E-003 -1.95305619854E-003 +4.17608316639E-005 -3.01646941807E-005 +5.02806842327E-001 +8.96467790008E-002 
+1.80100000000E+010 -6.23871684074E-001 -4.08384889364E-001 -8.58444138430E-004 -2.72329314612E-003 +2.56889798038E-005 -8.09207540442E-006 +5.21924078465E-001 +3.82496640086E-002 
+1.82100000000E+010 -6.26854002476E-001 -4.06601071358E-001 -2.73417937569E-003 -2.50823330134E-004 -1.83781830856E-005 -8.37470724946E-006 +5.34485518932E-001 -1.65610387921E-002 
+1.84100000000E+010 -6.29800617695E-001 -4.05082583427E-001 -1.29207654390E-003 +2.24689650349E-003 -1.47527844092E-005 -2.61031182163E-005 +5.40779173374E-001 -7.39008262753E-002 
+1.86100000000E+010 -6.32693350315E-001 -4.03132051229E-001 +1.55890197493E-003 +2.02876166441E-003 +2.04797142942E-005 +2.66989281954E-005 +5.40932595730E-001 -1.30668267608E-001 
+1.88100000000E+010 -6.35179877281E-001 -4.01297092438E-001 +2.34432588331E-003 -5.16065105330E-004 -6.97537188898E-006 -1.03481970655E-005 +5.35396337509E-001 -1.87614291906E-001 
+1.90100000000E+010 -6.37466132641E-001 -3.99824768305E-001 +5.44621667359E-004 -2.26678419858E-003 +2.36455935010E-006 +3.94246217184E-006 +5.24030268192E-001 -2.44354709983E-001 
+1.92100000000E+010 -6.40701234341E-001 -3.98572564125E-001 -2.24463269114E-003 -1.62737478968E-003 -1.55456673383E-005 -1.61377943186E-006 +5.05324900150E-001 -3.02288681269E-001 
+1.94100000000E+010 -6.43739461899E-001 -3.95660012960E-001 -1.93781312555E-003 +1.35091133416E-003 +3.00507945212E-005 +6.81233814248E-006 +4.79749381542E-001 -3.57362419367E-001 
+1.96100000000E+010 -6.44358992577E-001 -3.93246799707E-001 +5.37851359695E-004 +2.22807517275E-003 -3.20091894537E-005 +2.60917295236E-005 +4.48834955692E-001 -4.09333050251E-001 
+1.98100000000E+010 -6.43772363663E-001 -3.90627920628E-001 +2.04345653765E-003 +4.44513920229E-004 +2.79213945760E-005 -4.40099865955E-005 +4.14714068174E-001 -4.56730693579E-001 
+2.00100000000E+010 -6.43091142178E-001 -3.90365034342E-001 +1.18182157166E-003 -1.65989540983E-003 +1.98299062504E-006 +1.17861791296E-005 +3.72559547424E-001 -5.03726065159E-001 
