!;Filter: kein Filter
!auto
!3/21/2019 9:27:39 AM
!3/21/2019 9:27:53 AM
!SP-Measurements Prober G4
!SP-Measurements Prober G4
!
!134
!237
!12
!20
!-20
!0.00499992
!1.96
!0.64375220
!0.64375220
# Hz S  RI   R 50
+1.00000000000E+007 +1.88218981028E-001 +1.74249764532E-002 +5.29531426728E-002 -2.19207201153E-002 +2.31598081882E-004 -4.22608689405E-004 +4.55145956948E-003 +6.85701903421E-004 
+2.10000000000E+008 +2.11527094245E-001 -2.64809299260E-002 +1.15317052405E-004 -5.53538687527E-002 -6.11509312876E-005 -3.64512161468E-005 +8.94060172141E-003 -4.48351353407E-003 
+4.10000000000E+008 +2.10337415338E-001 -5.90977519751E-002 -5.25350049138E-002 -2.23401989788E-002 -3.64257066394E-005 +3.42041093973E-005 +1.00427791476E-002 -7.28160236031E-003 
+6.10000000000E+008 +2.06586539745E-001 -8.97861868143E-002 -3.90293784440E-002 +4.20255511999E-002 +8.78216906131E-006 +2.48105425271E-006 +9.37891099602E-003 -1.14839468151E-002 
+8.10000000000E+008 +2.00186908245E-001 -1.20044626296E-001 +2.63983532786E-002 +5.13532496989E-002 +4.10851498600E-006 -2.97117421724E-005 +6.84600183740E-003 -1.52847962454E-002 
+1.01000000000E+009 +1.92021906376E-001 -1.48978680372E-001 +5.89567646384E-002 -7.09110125899E-003 -4.18996169174E-005 +8.23572281661E-006 +2.93133384548E-003 -1.88306327909E-002 
+1.21000000000E+009 +1.82380050421E-001 -1.77200064063E-001 +1.35303866118E-002 -5.57735897601E-002 -1.65872588695E-005 +8.72232521942E-006 -1.79821299389E-003 -2.10885964334E-002 
+1.41000000000E+009 +1.70697867870E-001 -2.04603806138E-001 -4.69369776547E-002 -3.27929481864E-002 +1.52671091200E-005 -8.86835368874E-006 -7.71662639454E-003 -2.41948962212E-002 
+1.61000000000E+009 +1.58526152372E-001 -2.30559676886E-001 -4.73964661360E-002 +3.30650210381E-002 +3.58250531463E-006 +1.46631991811E-005 -1.37138320133E-002 -2.68066134304E-002 
+1.81000000000E+009 +1.44469678402E-001 -2.55210042000E-001 +1.33884735405E-002 +5.44829554856E-002 +5.93786580794E-006 -1.36072415557E-007 -1.78343039006E-002 -2.78229434043E-002 
+2.01000000000E+009 +1.30143329501E-001 -2.78558135033E-001 +5.56400530040E-002 +7.85682257265E-003 -8.16994997876E-007 +2.38777465711E-006 -2.30062846094E-002 -2.67607904971E-002 
+2.21000000000E+009 +1.14596821368E-001 -3.01004856825E-001 +2.68247034401E-002 -4.98756617308E-002 +1.15840120998E-005 -2.60862452706E-005 -2.89244223386E-002 -2.47147604823E-002 
+2.41000000000E+009 +9.78972017765E-002 -3.21560323238E-001 -3.58638688922E-002 -4.22102883458E-002 +3.73297516489E-005 -5.61899071272E-007 -3.55844013393E-002 -2.23156008869E-002 
+2.61000000000E+009 +8.12665820122E-002 -3.40811192989E-001 -5.30703850091E-002 +1.77559852600E-002 +2.84648231172E-005 -2.12587165151E-005 -4.06855046749E-002 -1.92477405071E-002 
+2.81000000000E+009 +6.39646947384E-002 -3.58875185251E-001 -1.61405059043E-003 +5.58837652206E-002 -1.56302012329E-005 -7.46750492908E-006 -4.46272976696E-002 -1.43847297877E-002 
+3.01000000000E+009 +4.60834279656E-002 -3.75434607267E-001 +5.05293123424E-002 +2.18959953636E-002 -3.53016207555E-006 +1.00836441561E-005 -4.84339632094E-002 -8.70539061725E-003 
+3.21000000000E+009 +2.80716866255E-002 -3.90838503838E-001 +3.96869778633E-002 -3.94775196910E-002 +2.83823901555E-005 -7.94996776676E-006 -5.25253564119E-002 -2.31535313651E-003 
+3.41000000000E+009 +1.01877311245E-002 -4.05147969723E-001 -2.32299435884E-002 -5.08846901357E-002 +1.08554959297E-005 -1.25128326545E-005 -5.55201061070E-002 +4.91164438426E-003 
+3.61000000000E+009 -7.76994973421E-003 -4.18329715729E-001 -5.55606409907E-002 +2.72769923322E-003 +2.77576455119E-005 -1.09730544864E-005 -5.72078116238E-002 +1.18567673489E-002 
+3.81000000000E+009 -2.60294023901E-002 -4.30291861296E-001 -1.78647320718E-002 +5.38276992738E-002 +2.02512983378E-005 +6.97879977452E-006 -5.72040528059E-002 +1.92613285035E-002 
+4.01000000000E+009 -4.38494086266E-002 -4.41448539495E-001 +4.40332852304E-002 +3.53967733681E-002 +4.97853125125E-006 -5.62291006645E-006 -5.61772845685E-002 +2.72733513266E-002 
+4.21000000000E+009 -6.17093555629E-002 -4.51399832964E-001 +4.91940379143E-002 -2.77785770595E-002 -3.52418010152E-006 +4.10351185565E-006 -5.42378500104E-002 +3.59233431518E-002 
+4.41000000000E+009 -7.93741345406E-002 -4.60549443960E-001 -8.47983080894E-003 -5.68569600582E-002 -1.31525357574E-005 -2.78370862361E-005 -5.10535538197E-002 +4.42717745900E-002 
+4.61000000000E+009 -9.69464629889E-002 -4.68882352114E-001 -5.61826564372E-002 -1.22941518202E-002 -1.86124088941E-005 +1.64375360328E-005 -4.68016080558E-002 +5.15450276434E-002 
+4.81000000000E+009 -1.14494420588E-001 -4.76230055094E-001 -3.24847437441E-002 +4.83073815703E-002 +1.00760380519E-005 -3.25718174281E-005 -4.03253547847E-002 +5.87907023728E-002 
+5.01000000000E+009 -1.31593152881E-001 -4.83386337757E-001 +3.44323553145E-002 +4.85577583313E-002 -5.79147808821E-006 +2.36664272961E-005 -3.37903499603E-002 +6.55065551400E-002 
+5.21000000000E+009 -1.48179218173E-001 -4.89809155464E-001 +5.83046637475E-002 -1.53826959431E-002 -2.60361848632E-005 +9.46924228629E-006 -2.62141898274E-002 +7.15362057090E-002 
+5.41000000000E+009 -1.64653211832E-001 -4.95356857777E-001 +6.46822573617E-003 -6.10095672309E-002 -1.96050932573E-005 +7.94154584582E-006 -1.73397939652E-002 +7.65906646848E-002 
+5.61000000000E+009 -1.81402727962E-001 -5.00607609749E-001 -5.64284026623E-002 -2.77957655489E-002 +1.43942315844E-006 -9.64448008745E-006 -7.56235653535E-003 +7.97952935100E-002 
+5.81000000000E+009 -1.97237387300E-001 -5.04903137684E-001 -4.63076941669E-002 +4.41816411912E-002 -1.22599976748E-005 +7.96618314780E-006 +2.99252592959E-003 +8.08006525040E-002 
+6.01000000000E+009 -2.12553903461E-001 -5.08401870728E-001 +2.61372961104E-002 +6.00958652794E-002 +1.21499106172E-005 -3.19656028296E-005 +1.42378667369E-002 +8.25016200542E-002 
+6.21000000000E+009 -2.28041246533E-001 -5.11605799198E-001 +6.75034001470E-002 -4.90230415016E-003 -2.08103156183E-005 -1.73026310222E-005 +2.50874124467E-002 +8.19925963879E-002 
+6.41000000000E+009 -2.42769956589E-001 -5.14121353626E-001 +1.77647210658E-002 -6.68199881911E-002 -4.71791918244E-006 +1.54196986841E-005 +3.64898182452E-002 +8.00668001175E-002 
+6.61000000000E+009 -2.57581621408E-001 -5.16123890877E-001 -5.89455515146E-002 -3.91740687191E-002 -2.76502250927E-005 -4.44352190243E-006 +4.76220995188E-002 +7.52016082406E-002 
+6.81000000000E+009 -2.71772444248E-001 -5.17804563046E-001 -5.63037917018E-002 +4.49062809348E-002 +1.22452447613E-005 +5.74143632548E-006 +5.86824640632E-002 +6.94393515587E-002 
+7.01000000000E+009 -2.85559356213E-001 -5.19233644009E-001 +2.53352448344E-002 +6.81443735957E-002 +5.76711454414E-006 +1.48166782310E-005 +6.88107386231E-002 +6.31272494793E-002 
+7.21000000000E+009 -2.99233108759E-001 -5.20093500614E-001 +7.33279064298E-002 -3.49669926800E-003 +8.17914587969E-006 -4.20613878305E-006 +7.79064074159E-002 +5.44747635722E-002 
+7.41000000000E+009 -3.12254220247E-001 -5.20864367485E-001 +1.80117245764E-002 -7.09633678198E-002 -1.73386908386E-007 +9.26632878873E-007 +8.69018584490E-002 +4.43784259260E-002 
+7.61000000000E+009 -3.24550628662E-001 -5.20952463150E-001 -6.21654354036E-002 -3.81396599114E-002 -1.11448553071E-005 -1.78218724614E-005 +9.34636369348E-002 +3.23264785111E-002 
+7.81000000000E+009 -3.37295413017E-001 -5.20443320274E-001 -5.29343597591E-002 +4.81877438724E-002 -3.01021373161E-006 +7.08962443241E-006 +9.87142398953E-002 +1.98366399854E-002 
+8.01000000000E+009 -3.49102139473E-001 -5.19741117954E-001 +2.96283271164E-002 +6.19343854487E-002 +1.49761690409E-005 -7.10404663096E-007 +1.02380707860E-001 +6.22056843713E-003 
+8.21000000000E+009 -3.60683560371E-001 -5.18703281879E-001 +6.59202486277E-002 -9.70620010048E-003 -9.70490327745E-006 +1.18250170544E-006 +1.04602143168E-001 -7.84484297037E-003 
+8.41000000000E+009 -3.71860414743E-001 -5.17374753952E-001 +8.60734749585E-003 -6.42407983541E-002 +1.64493067132E-005 -2.43697595579E-005 +1.04198269546E-001 -2.31107436121E-002 
+8.61000000000E+009 -3.82940918207E-001 -5.16239464283E-001 -5.12100495398E-002 -2.22793594003E-002 -9.70117616816E-006 +9.60007400863E-006 +1.00887134671E-001 -3.87368835509E-002 
+8.81000000000E+009 -3.93319845200E-001 -5.14648914337E-001 -3.63846085966E-002 +3.85314486921E-002 +6.98313499470E-007 +1.73670050572E-005 +9.55099090934E-002 -5.42285628617E-002 
+9.01000000000E+009 -4.03674691916E-001 -5.13096034527E-001 +2.31336522847E-002 +4.31289672852E-002 -4.78624406242E-006 +6.34361242646E-007 +8.87774378061E-002 -6.82639479637E-002 
+9.21000000000E+009 -4.13738846779E-001 -5.11512219906E-001 +4.48281504214E-002 -6.49098819122E-003 -7.55046812628E-007 -2.08881692743E-006 +7.88205862045E-002 -8.31598043442E-002 
+9.41000000000E+009 -4.23184037209E-001 -5.09928882122E-001 +7.90183804929E-003 -4.15510386229E-002 -4.83722760691E-006 -2.59250055024E-006 +6.62086978555E-002 -9.68021228909E-002 
+9.61000000000E+009 -4.32741552591E-001 -5.07980108261E-001 -3.30239050090E-002 -1.94701980799E-002 +2.06712211366E-005 -6.30019394521E-006 +5.08466847241E-002 -1.08872190118E-001 
+9.81000000000E+009 -4.41345810890E-001 -5.06357848644E-001 -2.81501524150E-002 +2.19059400260E-002 +8.57575923874E-006 +1.88096987586E-006 +3.56904678047E-002 -1.18128485978E-001 
+1.00100000000E+010 -4.50203925371E-001 -5.04288911819E-001 +1.02732945234E-002 +3.17705273628E-002 -7.02156785337E-006 -1.59749924933E-005 +1.89286433160E-002 -1.26141861081E-001 
+1.02100000000E+010 -4.58502352238E-001 -5.01971840858E-001 +3.04797887802E-002 +1.42861308996E-003 +3.01542058878E-005 -2.56352686847E-005 +7.21055606846E-004 -1.33250713348E-001 
+1.04100000000E+010 -4.66913402081E-001 -4.99894678593E-001 +1.19922589511E-002 -2.60906796902E-002 +8.43907855597E-006 -7.66117955209E-006 -1.99424698949E-002 -1.38705313206E-001 
+1.06100000000E+010 -4.75179016590E-001 -4.97525006533E-001 -1.89636759460E-002 -1.88651625067E-002 +6.24762378720E-006 +3.62902915185E-006 -4.17883209884E-002 -1.41232624650E-001 
+1.08100000000E+010 -4.82255607843E-001 -4.95914012194E-001 -2.25184112787E-002 +9.68412961811E-003 -4.08878531744E-006 +5.04984973304E-006 -6.35444074869E-002 -1.40814661980E-001 
+1.10100000000E+010 -4.89729195833E-001 -4.93451029062E-001 +4.44801291451E-004 +2.31808461249E-002 -1.49815605255E-005 -8.02267550171E-006 -8.57168510556E-002 -1.37221857905E-001 
+1.12100000000E+010 -4.96728092432E-001 -4.91823881865E-001 +2.04393230379E-002 +7.31208128855E-003 +6.86228941049E-006 +1.90317496163E-005 -1.09541013837E-001 -1.30672782660E-001 
+1.14100000000E+010 -5.03648102283E-001 -4.89273935556E-001 +1.34121561423E-002 -1.47958388552E-002 -9.37024469749E-006 +2.10648213397E-005 -1.32539063692E-001 -1.20349936187E-001 
+1.16100000000E+010 -5.09400069714E-001 -4.87224847078E-001 -8.12471657991E-003 -1.72921251506E-002 -6.45442423775E-006 -1.91421531781E-005 -1.54339343309E-001 -1.07047289610E-001 
+1.18100000000E+010 -5.15928685665E-001 -4.85145330429E-001 -1.79705265909E-002 +1.31811806932E-003 +1.99328078452E-005 -3.96936229663E-007 -1.74055024981E-001 -9.03667360544E-002 
+1.20100000000E+010 -5.22517383099E-001 -4.82341498137E-001 -5.19325863570E-003 +1.58401839435E-002 -2.43664617301E-005 -5.59245700060E-006 -1.91426753998E-001 -7.09465816617E-002 
+1.22100000000E+010 -5.29155969620E-001 -4.79426622391E-001 +1.21416952461E-002 +1.04122115299E-002 +1.53859982674E-005 +9.53646008384E-007 -2.08857968450E-001 -4.88180927932E-002 
+1.24100000000E+010 -5.35122752190E-001 -4.76984351873E-001 +1.31909521297E-002 -7.12546892464E-003 -1.17148128993E-005 +1.64973262144E-005 -2.23564267159E-001 -2.32904143631E-002 
+1.26100000000E+010 -5.40962636471E-001 -4.74270015955E-001 -1.29386119079E-003 -1.38442330062E-002 -2.52483296208E-005 -5.15015699420E-006 -2.33593717217E-001 +4.37950436026E-003 
+1.28100000000E+010 -5.46522676945E-001 -4.71495419741E-001 -1.28002027050E-002 -4.00184420869E-003 -3.07497430185E-005 +1.14007243610E-005 -2.40053340793E-001 +3.35111692548E-002 
+1.30100000000E+010 -5.52187025547E-001 -4.68372076750E-001 -7.84574449062E-003 +9.84303001314E-003 +3.08569833578E-005 -2.38143384195E-005 -2.43645101786E-001 +6.34030327201E-002 
+1.32100000000E+010 -5.57392537594E-001 -4.65688288212E-001 +5.51532814279E-003 +1.03851817548E-002 -3.44401064467E-006 +2.07138509722E-005 -2.43921995163E-001 +9.49936881661E-002 
+1.34100000000E+010 -5.62898993492E-001 -4.62239354849E-001 +1.13008487970E-002 -1.08513003215E-003 -1.14481622404E-006 -3.02494140669E-006 -2.40499183536E-001 +1.26681894064E-001 
+1.36100000000E+010 -5.66334664822E-001 -4.59095835686E-001 +2.92107486166E-003 -1.02034723386E-002 -1.38231498568E-005 +2.80601343547E-005 -2.32762217522E-001 +1.59576728940E-001 
+1.38100000000E+010 -5.71556568146E-001 -4.56544846296E-001 -7.62210087851E-003 -6.34747324511E-003 -2.24622017413E-005 +2.65892558673E-005 -2.19784170389E-001 +1.91915377975E-001 
+1.40100000000E+010 -5.76399445534E-001 -4.53747957945E-001 -8.52186884731E-003 +4.47268271819E-003 -1.47805922097E-005 +6.69093333272E-006 -2.02992796898E-001 +2.23246917129E-001 
+1.42100000000E+010 -5.81245481968E-001 -4.51287448406E-001 +9.62560647167E-004 +8.98645818233E-003 -3.76579578187E-006 -1.27718049043E-005 -1.82347938418E-001 +2.54569828510E-001 
+1.44100000000E+010 -5.85910975933E-001 -4.48030501604E-001 +8.08246713132E-003 +2.64409952797E-003 +8.27298336503E-008 +1.03388420030E-005 -1.56529575586E-001 +2.83303707838E-001 
+1.46100000000E+010 -5.89852869511E-001 -4.45432603359E-001 +5.35144703463E-003 -6.25564390793E-003 -2.97482874885E-005 -1.87321052181E-006 -1.25781342387E-001 +3.08811277151E-001 
+1.48100000000E+010 -5.94176113605E-001 -4.40571129322E-001 -3.60602792352E-003 -6.80970167741E-003 +5.40189660114E-007 +6.82113159201E-006 -9.28599908948E-002 +3.30737352371E-001 
+1.50100000000E+010 -5.96352696419E-001 -4.39632594585E-001 -7.27034034207E-003 +4.40908537712E-004 +1.30157686726E-005 -1.40600577652E-005 -5.74009269476E-002 +3.50021004677E-001 
+1.52100000000E+010 -5.99457442760E-001 -4.38829302788E-001 -2.26883450523E-003 +6.70412974432E-003 +4.60395949631E-006 +9.87172643363E-006 -1.86347346753E-002 +3.65466952324E-001 
+1.54100000000E+010 -6.03479862213E-001 -4.36730414629E-001 +4.97497012839E-003 +4.35044756159E-003 -9.46542058955E-006 -1.24149328258E-005 +2.39310115576E-002 +3.75585168600E-001 
+1.56100000000E+010 -6.07543587685E-001 -4.33514952660E-001 +5.77239552513E-003 -2.59162462316E-003 -1.11085737444E-005 +1.33233561428E-005 +6.81504309177E-002 +3.79823714495E-001 
+1.58100000000E+010 -6.09019100666E-001 -4.32704895735E-001 -2.21478374442E-004 -6.09784619883E-003 -3.29804170178E-005 -7.15809301255E-006 +1.12273350358E-001 +3.80136698484E-001 
+1.60100000000E+010 -6.11626863480E-001 -4.31550860405E-001 -5.37706445903E-003 -2.04404396936E-003 +3.24180982716E-005 +4.51122941740E-005 +1.57736867666E-001 +3.75137090683E-001 
+1.62100000000E+010 -6.14284455776E-001 -4.30094063282E-001 -3.90818621963E-003 +3.93236428499E-003 +1.60953350132E-005 -1.45716774114E-006 +2.05211505294E-001 +3.64757150412E-001 
+1.64100000000E+010 -6.16738319397E-001 -4.28537487984E-001 +2.09299987182E-003 +4.94764978066E-003 -2.78976312984E-006 -4.11930122937E-005 +2.52210646868E-001 +3.48462253809E-001 
+1.66100000000E+010 -6.20381414890E-001 -4.26410526037E-001 +5.05507364869E-003 -3.90995301132E-005 +1.08931753857E-005 -2.79548585240E-005 +2.96158671379E-001 +3.24850231409E-001 
+1.68100000000E+010 -6.23881876469E-001 -4.23817336559E-001 +1.96252716705E-003 -4.41034790128E-003 -1.73401367647E-005 +9.98956875264E-006 +3.39507430792E-001 +2.97719001770E-001 
+1.70100000000E+010 -6.25559329987E-001 -4.21692967415E-001 -3.20420111530E-003 -3.41697921976E-003 +2.82251985482E-005 -3.26826238961E-006 +3.80001068115E-001 +2.66387939453E-001 
+1.72100000000E+010 -6.27912104130E-001 -4.19808179140E-001 -4.09276410937E-003 +1.55424047261E-003 -1.76308676600E-005 -3.66773406313E-006 +4.17880564928E-001 +2.27824628353E-001 
+1.74100000000E+010 -6.31218612194E-001 -4.17923480272E-001 -2.53715494182E-004 +4.25335019827E-003 -1.92578118003E-005 +1.96528435481E-005 +4.51465427876E-001 +1.84505224228E-001 
+1.76100000000E+010 -6.34310245514E-001 -4.15548592806E-001 +3.70752392337E-003 +1.81795284152E-003 +1.49197085193E-005 -3.23245194522E-006 +4.79148536921E-001 +1.38382151723E-001 
+1.78100000000E+010 -6.37326717377E-001 -4.13132876158E-001 +2.92581343092E-003 -2.51478492282E-003 -3.47734130628E-005 +2.71780281764E-005 +5.02715945244E-001 +8.97277146578E-002 
+1.80100000000E+010 -6.40149593353E-001 -4.10699218512E-001 -1.09671126120E-003 -3.63215059042E-003 -2.09239115065E-005 +4.26251499448E-005 +5.21852731705E-001 +3.83925773203E-002 
+1.82100000000E+010 -6.42754673958E-001 -4.08528178930E-001 -3.62236681394E-003 -3.86594241718E-004 +1.65434130395E-006 -1.26139475469E-005 +5.34445762634E-001 -1.64056923240E-002 
+1.84100000000E+010 -6.45750880241E-001 -4.06693845987E-001 -1.71459000558E-003 +3.00796190277E-003 -2.86055292236E-005 +3.73601869796E-005 +5.40779709816E-001 -7.37767592072E-002 
+1.86100000000E+010 -6.48649334908E-001 -4.04528141022E-001 +1.97917222977E-003 +2.73252371699E-003 +7.04408785168E-006 +8.85286135599E-006 +5.40972054005E-001 -1.30496367812E-001 
+1.88100000000E+010 -6.50880873203E-001 -4.02317404747E-001 +3.15127265640E-003 -8.04121315014E-004 -1.81224859261E-005 -3.30954717356E-005 +5.35449266434E-001 -1.87503904104E-001 
+1.90100000000E+010 -6.53170645237E-001 -4.00619149208E-001 +5.31152472831E-004 -3.00819170661E-003 -1.69998329511E-005 -1.22652045320E-005 +5.24083018303E-001 -2.44273930788E-001 
+1.92100000000E+010 -6.56218767166E-001 -3.99153709412E-001 -2.35046073794E-003 -1.70773814898E-003 -1.83565371117E-005 -3.89868509956E-005 +5.05399823189E-001 -3.02213102579E-001 
+1.94100000000E+010 -6.59210145473E-001 -3.96178454161E-001 -2.56291008554E-003 +1.51954486500E-003 +1.51893772227E-007 -1.10692280941E-005 +4.79874283075E-001 -3.57284039259E-001 
+1.96100000000E+010 -6.60015285015E-001 -3.93433719873E-001 +4.03904588893E-004 +2.95776291750E-003 +3.84416525776E-005 -2.12164304685E-005 +4.48954671621E-001 -4.09235388041E-001 
+1.98100000000E+010 -6.59293472767E-001 -3.90347510576E-001 +2.78931343928E-003 +4.63822245365E-004 -1.91776980500E-005 +1.63140839504E-006 +4.14878278971E-001 -4.56667184830E-001 
+2.00100000000E+010 -6.58159315586E-001 -3.90049785376E-001 +1.53503147885E-003 -2.15157587081E-003 -2.07997090911E-005 -2.12907871173E-005 +3.72748225927E-001 -5.03671109676E-001 
