!;Filter: kein Filter
!auto
!3/21/2019 9:26:39 AM
!3/21/2019 9:26:51 AM
!SP-Measurements Prober G4
!SP-Measurements Prober G4
!
!134
!233
!12
!20
!-20
!0.00099996
!1.65
!0.05816927
!0.05816927
# Hz S  RI   R 50
+1.00000000000E+007 +5.64030766487E-001 +4.84074279666E-003 +2.94491052628E-002 -1.19104757905E-002 +7.33417808078E-004 +3.76994634280E-004 +5.65866660327E-003 +1.38765946031E-003 
+2.10000000000E+008 +5.71994543076E-001 -5.41439205408E-002 -2.23962846212E-003 -2.93829943985E-002 +1.01577628811E-004 +4.30201835115E-005 +9.07258968800E-003 -4.40575601533E-003 
+4.10000000000E+008 +5.65246462822E-001 -1.07970617712E-001 -2.76915263385E-002 -7.66390701756E-003 +9.72474481387E-006 +3.20626131725E-005 +1.01531986147E-002 -7.33279902488E-003 
+6.10000000000E+008 +5.54043054581E-001 -1.60017549992E-001 -1.63001585752E-002 +2.27058771998E-002 +2.68106905423E-005 +1.34027759486E-005 +9.42952744663E-003 -1.14645296708E-002 
+8.10000000000E+008 +5.37065565586E-001 -2.09533095360E-001 +1.49132618681E-002 +2.31290254742E-002 -3.85937637475E-005 +1.98673606064E-005 +6.87775108963E-003 -1.52912028134E-002 
+1.01000000000E+009 +5.18972873688E-001 -2.55138576031E-001 +2.73901037872E-002 -6.84589147568E-003 -3.37970159308E-005 +1.92003299162E-005 +2.95659247786E-003 -1.88872218132E-002 
+1.21000000000E+009 +4.96343761683E-001 -2.99687445164E-001 +3.61194415018E-003 -2.67894435674E-002 -8.72441523825E-006 -1.22633828141E-005 -1.74253876321E-003 -2.11425833404E-002 
+1.41000000000E+009 +4.71224695444E-001 -3.39930355549E-001 -2.39035002887E-002 -1.39145636931E-002 -2.29157249123E-005 +8.14636223367E-006 -7.67841655761E-003 -2.42397636175E-002 
+1.61000000000E+009 +4.47466284037E-001 -3.78223478794E-001 -2.08994150162E-002 +1.99185200036E-002 +5.05580146637E-007 +3.26805434270E-006 -1.37103693560E-002 -2.69188564271E-002 
+1.81000000000E+009 +4.18155312538E-001 -4.13214892149E-001 +9.25666559488E-003 +2.59124655277E-002 -1.90080991160E-005 +1.12023453767E-005 -1.78676228970E-002 -2.79311649501E-002 
+2.01000000000E+009 +3.91016572714E-001 -4.45019751787E-001 +2.95301452279E-002 +2.14789179154E-004 -1.62217002071E-005 +2.98140457744E-006 -2.30535510927E-002 -2.68919467926E-002 
+2.21000000000E+009 +3.62433612347E-001 -4.76138561964E-001 +8.39854311198E-003 -2.90268752724E-002 -9.78463503998E-006 -1.23544041344E-005 -2.89643742144E-002 -2.48242262751E-002 
+2.41000000000E+009 +3.30966979265E-001 -5.02415955067E-001 -2.18285247684E-002 -1.88801679760E-002 +1.36318330988E-005 +1.56520763994E-005 -3.56268957257E-002 -2.24144551903E-002 
+2.61000000000E+009 +3.02324980497E-001 -5.26703476906E-001 -2.82113309950E-002 +1.64295844734E-002 +3.05945093260E-007 -1.82980784302E-005 -4.07550409436E-002 -1.93709246814E-002 
+2.81000000000E+009 +2.72217035294E-001 -5.49829304218E-001 +8.00546351820E-003 +3.21262553334E-002 +5.62579725738E-006 -3.00589581457E-005 -4.47086207569E-002 -1.44755309448E-002 
+3.01000000000E+009 +2.40844443440E-001 -5.68244040012E-001 +3.14387045801E-002 +7.93036073446E-003 +1.32242194013E-005 -4.70389859402E-005 -4.85520511866E-002 -8.79128929228E-003 
+3.21000000000E+009 +2.11882263422E-001 -5.88030815125E-001 +1.59328784794E-002 -3.40658575296E-002 -2.96547532344E-005 -8.13433473468E-007 -5.26505745947E-002 -2.32238974422E-003 
+3.41000000000E+009 +1.81992337108E-001 -6.05132818222E-001 -2.96173673123E-002 -2.55327615887E-002 -2.91900742013E-005 +3.22076957673E-005 -5.56354485452E-002 +4.85183671117E-003 
+3.61000000000E+009 +1.53254032135E-001 -6.18011295795E-001 -3.96749526262E-002 +1.52580095455E-002 +4.47812017228E-005 +4.43204844487E-005 -5.73934577405E-002 +1.18377609178E-002 
+3.81000000000E+009 +1.21713101864E-001 -6.33810579777E-001 +1.46591598168E-002 +4.08914424479E-002 +1.69883151102E-006 +3.00700630760E-005 -5.73429316282E-002 +1.93262528628E-002 
+4.01000000000E+009 +9.18946415186E-002 -6.46165788174E-001 +4.64124083519E-002 -6.61532767117E-003 -3.73324874090E-005 -1.35195923576E-005 -5.63726387918E-002 +2.73954123259E-002 
+4.21000000000E+009 +6.20564520359E-002 -6.56865835190E-001 +3.72698786668E-003 -5.28572313488E-002 -4.70185477752E-006 -2.10535945371E-005 -5.43089583516E-002 +3.60113121569E-002 
+4.41000000000E+009 +3.11583951116E-002 -6.63141012192E-001 -4.50821630657E-002 -9.43352282047E-003 -1.97330246010E-005 +3.03665528918E-005 -5.12384735048E-002 +4.44026105106E-002 
+4.61000000000E+009 +2.54627782851E-003 -6.68441355228E-001 -1.87701098621E-002 +4.02885377407E-002 +7.95311370894E-006 -8.69111227075E-006 -4.68968972564E-002 +5.16986735165E-002 
+4.81000000000E+009 -2.65418216586E-002 -6.72322034836E-001 +3.95776890218E-002 +2.38284524530E-002 -2.34611561609E-005 -6.48655742452E-008 -4.04228158295E-002 +5.89471943676E-002 
+5.01000000000E+009 -5.22404983640E-002 -6.73077166080E-001 +2.12411396205E-002 -2.78599075973E-002 +2.42331552727E-005 +4.47566480943E-006 -3.38611751795E-002 +6.56491965055E-002 
+5.21000000000E+009 -7.55452513695E-002 -6.76041305065E-001 -1.32704386488E-002 -2.84890569746E-002 -6.07600941294E-006 -2.75448783214E-005 -2.62821558863E-002 +7.17077627778E-002 
+5.41000000000E+009 -1.00215919316E-001 -6.76762700081E-001 -3.06567680091E-002 +1.11194243655E-002 -1.18602192742E-005 -1.75975255843E-005 -1.74159705639E-002 +7.67598003149E-002 
+5.61000000000E+009 -1.22121207416E-001 -6.77013576031E-001 +2.63941334561E-003 +2.06670798361E-002 -5.69235708099E-005 +2.25931289606E-005 -7.54797179252E-003 +7.99905136228E-002 
+5.81000000000E+009 -1.44030541182E-001 -6.78258359432E-001 +1.84155236930E-002 +9.95223037899E-003 -1.27228850033E-005 -4.58184422314E-006 +3.04106622934E-003 +8.10187309980E-002 
+6.01000000000E+009 -1.65336087346E-001 -6.76911532879E-001 +1.14240273833E-002 -1.74480490386E-002 -2.16388548324E-006 +3.18332749885E-005 +1.42319947481E-002 +8.27415138483E-002 
+6.21000000000E+009 -1.85268253088E-001 -6.76069140434E-001 -7.85836763680E-003 -1.10683012754E-002 +8.96823803487E-006 +3.45059597748E-005 +2.52155717462E-002 +8.22252333164E-002 
+6.41000000000E+009 -2.05176979303E-001 -6.74852430820E-001 -1.42696797848E-002 +7.63286254369E-004 -6.92379717293E-006 -3.76407879230E-005 +3.66369523108E-002 +8.03172588348E-002 
+6.61000000000E+009 -2.24643424153E-001 -6.72584295273E-001 -1.01718737278E-003 +1.32735203952E-002 +1.84744221770E-005 +2.60333763435E-005 +4.77633215487E-002 +7.54277855158E-002 
+6.81000000000E+009 -2.42854297161E-001 -6.70440137386E-001 +7.95245170593E-003 +4.87528368831E-003 +2.28533644986E-005 -2.32563547797E-006 +5.88636435568E-002 +6.96336627007E-002 
+7.01000000000E+009 -2.60856270790E-001 -6.67867481709E-001 +8.78041516989E-003 -4.92357835174E-003 +5.00712076246E-006 -2.06981803785E-005 +6.90078660846E-002 +6.32503405213E-002 
+7.21000000000E+009 -2.78179794550E-001 -6.64527952671E-001 -3.05146700703E-003 -8.57717823237E-003 +3.97632829845E-005 +1.63773693203E-005 +7.81441703439E-002 +5.46111054718E-002 
+7.41000000000E+009 -2.94526308775E-001 -6.61617577076E-001 -6.81599089876E-003 -1.22809689492E-003 +4.12723875343E-006 -2.40188983298E-005 +8.71302336454E-002 +4.44119758904E-002 
+7.61000000000E+009 -3.10280352831E-001 -6.57828688622E-001 -4.36869170517E-003 +6.16384437308E-003 +1.31633378260E-005 +5.01548456668E-005 +9.37855169177E-002 +3.23303155601E-002 
+7.81000000000E+009 -3.26037287712E-001 -6.53323173523E-001 +4.45057125762E-003 +4.89408243448E-003 -2.42222085944E-005 +7.72176190367E-006 +9.89983901381E-002 +1.98354087770E-002 
+8.01000000000E+009 -3.40563595295E-001 -6.48780941963E-001 +5.22725144401E-003 -1.13743939437E-003 -1.91205390365E-006 +1.41386672112E-005 +1.02659791708E-001 +6.17818161845E-003 
+8.21000000000E+009 -3.54850262403E-001 -6.44015550613E-001 +1.20463909116E-003 -5.62121393159E-003 +1.53125733959E-006 -3.60990748050E-006 +1.04864738882E-001 -7.93210789561E-003 
+8.41000000000E+009 -3.68338227272E-001 -6.38877570629E-001 -4.45509795099E-003 -2.23130011000E-003 -3.06829824694E-005 +1.28313949972E-005 +1.04427121580E-001 -2.32508461922E-002 
+8.61000000000E+009 -3.81693392992E-001 -6.34159326553E-001 -3.57237458229E-003 +2.26598442532E-003 +1.73550652107E-005 +5.26670010004E-006 +1.01100623608E-001 -3.88920269907E-002 
+8.81000000000E+009 -3.94254177809E-001 -6.29129767418E-001 +7.40082527045E-004 +4.44300752133E-003 +1.41080709000E-005 +1.74759970832E-005 +9.57388728857E-002 -5.44857941568E-002 
+9.01000000000E+009 -4.06421899796E-001 -6.23775899410E-001 +3.89440357685E-003 +4.14039561292E-004 -1.90462578757E-005 -6.39483141640E-006 +8.90239700675E-002 -6.85534030199E-002 
+9.21000000000E+009 -4.18171316385E-001 -6.18637740612E-001 +2.04279227182E-003 -2.77853733860E-003 -1.10784039862E-005 +2.08963137993E-005 +7.89884030819E-002 -8.34064111114E-002 
+9.41000000000E+009 -4.29069995880E-001 -6.13540828228E-001 -1.93801231217E-003 -3.07148485444E-003 -3.45428961737E-005 +1.88253161468E-005 +6.63549154997E-002 -9.71129387617E-002 
+9.61000000000E+009 -4.39852774143E-001 -6.07947289944E-001 -2.98114027828E-003 +7.95741972979E-004 -8.53279198054E-006 -3.30600632878E-005 +5.09419851005E-002 -1.09220534563E-001 
+9.81000000000E+009 -4.49628561735E-001 -6.03016972542E-001 -7.31640204322E-004 +2.72496440448E-003 -6.29677306279E-005 +5.62506029382E-005 +3.57114598155E-002 -1.18596397340E-001 
+1.00100000000E+010 -4.59476947784E-001 -5.97721874714E-001 +2.37195077352E-003 +1.77288230043E-003 -2.49101576628E-005 -1.13521518870E-005 +1.89192406833E-002 -1.26520752907E-001 
+1.02100000000E+010 -4.68545556068E-001 -5.92190086842E-001 +2.07846914418E-003 -1.45081046503E-003 +3.29330105160E-005 -5.51643279323E-006 +6.13895594142E-004 -1.33681520820E-001 
+1.04100000000E+010 -4.77780610323E-001 -5.87035536766E-001 -2.56788916886E-004 -2.41267913952E-003 +1.90020982700E-005 -9.47874286794E-006 -2.01399531215E-002 -1.39150395989E-001 
+1.06100000000E+010 -4.86596971750E-001 -5.81723809242E-001 -2.37981788814E-003 -5.95419842284E-004 -1.01538371382E-005 -1.52327183969E-005 -4.20063771307E-002 -1.41657933593E-001 
+1.08100000000E+010 -4.94149208069E-001 -5.77231943607E-001 -1.19517347775E-003 +1.73791265115E-003 +4.86123781229E-006 -4.76882814837E-005 -6.37979283929E-002 -1.41196534038E-001 
+1.10100000000E+010 -5.02128064632E-001 -5.72044849396E-001 +8.75541241840E-004 +1.80061464198E-003 -1.12850621008E-005 -1.12777036065E-006 -8.60498100519E-002 -1.37521371245E-001 
+1.12100000000E+010 -5.09561538696E-001 -5.67690908909E-001 +2.01756809838E-003 -3.14237695420E-004 -2.35597599385E-005 +1.03893216874E-006 -1.09922423959E-001 -1.30998477340E-001 
+1.14100000000E+010 -5.16868412495E-001 -5.62387764454E-001 +4.24437312176E-004 -1.74937443808E-003 +4.92953859066E-007 -5.48229536435E-006 -1.32993578911E-001 -1.20580337942E-001 
+1.16100000000E+010 -5.22898674011E-001 -5.57870447636E-001 -1.24635861721E-003 -1.20260776021E-003 +2.70951877610E-005 -2.98303984891E-005 -1.54793500900E-001 -1.07206873596E-001 
+1.18100000000E+010 -5.29514193535E-001 -5.53281426430E-001 -1.49918592069E-003 +8.37627972942E-004 +5.72433009438E-006 -2.60838442045E-005 -1.74625203013E-001 -9.04075577855E-002 
+1.20100000000E+010 -5.36299705505E-001 -5.48163771629E-001 +1.72778338310E-004 +1.45701970905E-003 +2.80226668110E-005 -1.15725715659E-005 -1.91930457950E-001 -7.09539502859E-002 
+1.22100000000E+010 -5.42953729630E-001 -5.42811512947E-001 +1.33897014894E-003 +5.38008578587E-004 -3.52212236976E-006 +1.45977819557E-005 -2.09360897541E-001 -4.88148257136E-002 
+1.24100000000E+010 -5.48948884010E-001 -5.37889838219E-001 +9.76641080342E-004 -1.10170443077E-003 +2.22055291488E-006 +4.96372422276E-007 -2.24097728729E-001 -2.31163147837E-002 
+1.26100000000E+010 -5.54818391800E-001 -5.32873868942E-001 -5.24521165062E-004 -1.12840021029E-003 -8.76834474184E-006 -1.48485378304E-006 -2.34132528305E-001 +4.63354634121E-003 
+1.28100000000E+010 -5.60213267803E-001 -5.27866005898E-001 -1.27735175192E-003 -4.10460852436E-005 -4.29948449892E-005 +1.16887295007E-005 -2.40544945002E-001 +3.37996445596E-002 
+1.30100000000E+010 -5.65501272678E-001 -5.22473216057E-001 -4.06366336392E-004 +1.20281288400E-003 -4.00789940613E-005 -3.58816078005E-006 -2.44098767638E-001 +6.37189298868E-002 
+1.32100000000E+010 -5.70258319378E-001 -5.17645537853E-001 +7.97917600721E-004 +7.98515160568E-004 -4.10409156757E-005 +7.97868506197E-006 -2.44407773018E-001 +9.54306945205E-002 
+1.34100000000E+010 -5.75272381306E-001 -5.12060582638E-001 +1.03945052251E-003 -3.69958550436E-004 +4.00068620365E-006 -2.08220881177E-005 -2.40905538201E-001 +1.27239897847E-001 
+1.36100000000E+010 -5.78208446503E-001 -5.07155478001E-001 +9.56120311457E-006 -9.95895476080E-004 +1.19352343972E-005 -4.87511388201E-005 -2.33020082116E-001 +1.60166814923E-001 
+1.38100000000E+010 -5.83065986633E-001 -5.02845525742E-001 -8.33056576084E-004 -4.57159971120E-004 +2.16155949602E-005 +4.86656426801E-006 -2.20007881522E-001 +1.92556351423E-001 
+1.40100000000E+010 -5.87394535542E-001 -4.98255282640E-001 -7.87722819950E-004 +5.93700096942E-004 -1.23463732962E-005 +1.66914887814E-005 -2.03120484948E-001 +2.23843380809E-001 
+1.42100000000E+010 -5.91470837593E-001 -4.94058609009E-001 +3.16072546411E-004 +8.65983951371E-004 +2.95790814562E-005 +2.28907247219E-005 -1.82434856892E-001 +2.55245089531E-001 
+1.44100000000E+010 -5.95698177814E-001 -4.89032596350E-001 +8.25137365609E-004 +9.21149403439E-005 +3.95407141696E-006 -8.09347602626E-006 -1.56495988369E-001 +2.83962070942E-001 
+1.46100000000E+010 -5.98941326141E-001 -4.84974950552E-001 +4.72501240438E-004 -7.45016499422E-004 -4.57857822767E-006 +4.03803824156E-005 -1.25713571906E-001 +3.09447973967E-001 
+1.48100000000E+010 -6.01984858513E-001 -4.78322654963E-001 -5.21924579516E-004 -5.72390446905E-004 -3.63939070667E-005 -1.42915359902E-005 -9.26915258169E-002 +3.31400781870E-001 
+1.50100000000E+010 -6.03132784367E-001 -4.76432263851E-001 -6.67825574055E-004 +1.26679864479E-004 -2.17071519728E-005 -4.80312264699E-005 -5.71033246815E-002 +3.50707799196E-001 
+1.52100000000E+010 -6.05473339558E-001 -4.74606722593E-001 -1.28200757899E-004 +7.03092664480E-004 +1.50599207700E-005 +1.06850320662E-005 -1.81878693402E-002 +3.66068750620E-001 
+1.54100000000E+010 -6.08395397663E-001 -4.71419095993E-001 +5.95661520492E-004 +3.31839983119E-004 -5.20516114193E-005 -1.22585424833E-005 +2.44067069143E-002 +3.76064360142E-001 
+1.56100000000E+010 -6.11400842667E-001 -4.67090010643E-001 +4.84089192469E-004 -2.99848557916E-004 -1.87539935723E-005 +3.67229381482E-006 +6.87031894922E-002 +3.80203664303E-001 
+1.58100000000E+010 -6.11955165863E-001 -4.65796500444E-001 -8.78432256286E-005 -6.04249769822E-004 +9.14673000807E-006 +2.04357420444E-005 +1.12890638411E-001 +3.80540013313E-001 
+1.60100000000E+010 -6.13886594772E-001 -4.64054197073E-001 -5.89291972574E-004 -1.31610810058E-004 -8.41156634124E-006 -2.00570611923E-005 +1.58375963569E-001 +3.75394344330E-001 
+1.62100000000E+010 -6.15636885166E-001 -4.62107688189E-001 -3.51488066372E-004 +4.43581608124E-004 +7.92287846707E-006 -3.25913060806E-005 +2.05931052566E-001 +3.64908605814E-001 
+1.64100000000E+010 -6.17460846901E-001 -4.60313975811E-001 +2.65804876108E-004 +5.30507415533E-004 +8.82773201738E-006 +6.18161575403E-005 +2.53012239933E-001 +3.48514616489E-001 
+1.66100000000E+010 -6.20660305023E-001 -4.58032488823E-001 +5.18969260156E-004 -7.36594301998E-005 -2.71460557997E-005 -3.39739090123E-005 +2.96946793795E-001 +3.24823558331E-001 
+1.68100000000E+010 -6.23704910278E-001 -4.55004334450E-001 +1.58613474923E-004 -4.52879350632E-004 +5.55594051548E-005 -6.84102415107E-005 +3.40362519026E-001 +2.97588855028E-001 
+1.70100000000E+010 -6.24853134155E-001 -4.52422797680E-001 -3.98241187213E-004 -3.12394317007E-004 -2.72834472526E-006 +1.77869460458E-005 +3.80795657635E-001 +2.66094386578E-001 
+1.72100000000E+010 -6.26795411110E-001 -4.50380593538E-001 -3.93947237171E-004 +2.47559073614E-004 -1.99629412236E-005 +6.06675239396E-005 +4.18592542410E-001 +2.27472066879E-001 
+1.74100000000E+010 -6.30006194115E-001 -4.48218405247E-001 +3.59624864359E-005 +3.96399933379E-004 -1.34803594847E-005 -6.93429028615E-005 +4.52078014612E-001 +1.84012621641E-001 
+1.76100000000E+010 -6.32942736149E-001 -4.45699900389E-001 +4.06781502534E-004 +2.06590062589E-004 +2.92139975500E-005 +5.18731649208E-005 +4.79765653610E-001 +1.37836262584E-001 
+1.78100000000E+010 -6.36029005051E-001 -4.43117499352E-001 +2.67023395281E-004 -2.88100447506E-004 -1.13410205813E-004 +2.99736893794E-005 +5.03249406815E-001 +8.91438722610E-002 
+1.80100000000E+010 -6.38587772846E-001 -4.40401643515E-001 -1.45980055095E-004 -3.60734149581E-004 +4.89457715958E-006 +1.93631149159E-005 +5.22291123867E-001 +3.75714451075E-002 
+1.82100000000E+010 -6.41605794430E-001 -4.38003540039E-001 -3.56066564564E-004 -2.21530826821E-005 +4.08718824474E-006 +4.19518146373E-005 +5.34727454185E-001 -1.72716509551E-002 
+1.84100000000E+010 -6.44529938698E-001 -4.35794442892E-001 -1.70822793734E-004 +3.12946620397E-004 +1.68645510712E-005 +2.00021622732E-005 +5.40948092937E-001 -7.45483264327E-002 
+1.86100000000E+010 -6.47349059582E-001 -4.33092474937E-001 +2.06329757930E-004 +2.90489202598E-004 -1.42792930546E-006 +6.09625130892E-005 +5.41057527065E-001 -1.31454870105E-001 
+1.88100000000E+010 -6.49741232395E-001 -4.30333852768E-001 +3.12903255690E-004 -9.35032367124E-005 -1.65230248967E-005 +1.33075027406E-005 +5.35367608070E-001 -1.88336640596E-001 
+1.90100000000E+010 -6.51950299740E-001 -4.28245186806E-001 +2.60294636973E-005 -3.84850252885E-004 +3.08835515170E-005 -3.42229759553E-005 +5.23810744286E-001 -2.45174139738E-001 
+1.92100000000E+010 -6.55101954937E-001 -4.26277965307E-001 -2.81770131551E-004 -2.17213368160E-004 -1.14878621389E-005 +8.45531940286E-006 +5.05003571510E-001 -3.03059101105E-001 
+1.94100000000E+010 -6.58075213432E-001 -4.22905236483E-001 -2.92898184853E-004 +2.31837388128E-004 +4.43867211288E-005 -9.14806878427E-005 +4.79441583157E-001 -3.58067363501E-001 
+1.96100000000E+010 -6.58685684204E-001 -4.19975489378E-001 +1.53893506649E-005 +2.30014207773E-004 -2.24225805141E-005 +4.56493471575E-005 +4.48459684849E-001 -4.10023987293E-001 
+1.98100000000E+010 -6.58267199993E-001 -4.16727662086E-001 +2.59583350271E-004 +2.11100596061E-005 +2.79537089227E-005 -1.39336416396E-005 +4.14230018854E-001 -4.57423150539E-001 
+2.00100000000E+010 -6.58067524433E-001 -4.15135622025E-001 +1.58749069669E-004 -2.34115592320E-004 +1.83087522601E-005 -4.55614872408E-006 +3.71998965740E-001 -5.04352211952E-001 
