!;Filter: kein Filter
!auto
!3/21/2019 9:25:24 AM
!3/21/2019 9:25:40 AM
!SP-Measurements Prober G4
!SP-Measurements Prober G4
!
!134
!235
!12
!20
!-20
!0.00399976
!1.88
!0.54220246
!0.54220246
# Hz S  RI   R 50
+1.00000000000E+007 +2.82297581434E-001 +1.57221909612E-002 +4.54646460712E-002 -1.90821848810E-002 +1.60010982654E-004 +6.92383211572E-004 +5.55827375501E-003 +8.85956978891E-004 
+2.10000000000E+008 +3.11667680740E-001 -2.82803960145E-002 -2.14647222310E-003 -4.62054722011E-002 +5.23783410245E-006 -3.51332928403E-005 +9.03860013932E-003 -4.42874152213E-003 
+4.10000000000E+008 +3.11484426260E-001 -6.70561119914E-002 -4.34265844524E-002 -1.45647963509E-002 -5.01488320879E-005 +1.96085748030E-005 +1.00297909230E-002 -7.25530227646E-003 
+6.10000000000E+008 +3.07087630033E-001 -1.03804782033E-001 -2.83099580556E-002 +3.54407578707E-002 -5.72439716962E-007 -8.89962939254E-006 +9.39344987273E-003 -1.14992773160E-002 
+8.10000000000E+008 +2.98719257116E-001 -1.39356404543E-001 +2.24137119949E-002 +3.84985283017E-002 -3.99844702770E-006 -2.10744701690E-006 +6.83678407222E-003 -1.52665581554E-002 
+1.01000000000E+009 +2.88344204426E-001 -1.73088356853E-001 +4.42247577012E-002 -7.68435653299E-003 +2.74117269328E-006 +4.47684351457E-006 +2.93174828403E-003 -1.88467260450E-002 
+1.21000000000E+009 +2.76226788759E-001 -2.05334424973E-001 +8.24622530490E-003 -4.28390465677E-002 +1.11176213977E-005 -1.06262552890E-006 -1.79771392141E-003 -2.11192872375E-002 
+1.41000000000E+009 +2.61718392372E-001 -2.36461982131E-001 -3.65813821554E-002 -2.32007950544E-002 -5.54774203465E-007 +1.30563230414E-005 -7.74908112362E-003 -2.41843685508E-002 
+1.61000000000E+009 +2.46516510844E-001 -2.65775978565E-001 -3.49053181708E-002 +2.61024106294E-002 -8.93511878530E-006 +1.60074796440E-005 -1.37183750048E-002 -2.68578920513E-002 
+1.81000000000E+009 +2.29470744729E-001 -2.93353140354E-001 +1.16979433224E-002 +4.10968065262E-002 +1.95442444237E-005 -9.49099467107E-006 -1.78620945662E-002 -2.78182495385E-002 
+2.01000000000E+009 +2.12062373757E-001 -3.19461107254E-001 +4.24719378352E-002 +4.12362068892E-003 -5.71625059820E-006 -2.56018593063E-005 -2.30418592691E-002 -2.68008038402E-002 
+2.21000000000E+009 +1.93313434720E-001 -3.44230651855E-001 +1.86855588108E-002 -3.83082479239E-002 +4.93853622174E-005 -2.51834876508E-007 -2.89584193379E-002 -2.47323662043E-002 
+2.41000000000E+009 +1.73517063260E-001 -3.67003709078E-001 -2.84721795470E-002 -3.08025944978E-002 -1.24820344354E-005 +1.71587362274E-005 -3.55880446732E-002 -2.23357956856E-002 
+2.61000000000E+009 +1.53526157141E-001 -3.88100892305E-001 -3.89826260507E-002 +1.52773223817E-002 +1.42428189065E-005 -2.54608107753E-006 -4.07238490880E-002 -1.92718151957E-002 
+2.81000000000E+009 +1.32949069142E-001 -4.07851725817E-001 +5.12708968017E-004 +4.16244678199E-002 +2.42231908487E-005 +7.80251411925E-006 -4.46461997926E-002 -1.44084636122E-002 
+3.01000000000E+009 +1.11762396991E-001 -4.25773471594E-001 +3.84058095515E-002 +1.46806593984E-002 -1.38068826345E-005 +1.08469266706E-005 -4.84847836196E-002 -8.72312486172E-003 
+3.21000000000E+009 +9.04335156083E-002 -4.42354857922E-001 +2.77905631810E-002 -3.05072180927E-002 +5.06886772200E-006 +1.83027314051E-005 -5.25755733252E-002 -2.28262902237E-003 
+3.41000000000E+009 +6.92943260074E-002 -4.57449615002E-001 -1.85529068112E-002 -3.66986505687E-002 -4.52259564554E-006 +2.79783726000E-005 -5.55550865829E-002 +4.91278199479E-003 
+3.61000000000E+009 +4.82084527612E-002 -4.71254736185E-001 -4.08231280744E-002 +3.61036881804E-003 -5.71510270220E-007 -3.59904288416E-006 -5.73009699583E-002 +1.18539342657E-002 
+3.81000000000E+009 +2.67663169652E-002 -4.83641773462E-001 -1.13730495796E-002 +3.97432558239E-002 +1.36687258419E-005 +1.29551863211E-005 -5.72235360742E-002 +1.93235147744E-002 
+4.01000000000E+009 +5.87952183560E-003 -4.94980901480E-001 +3.30593250692E-002 +2.45976578444E-002 +3.48111984749E-006 -1.73460393853E-005 -5.62650859356E-002 +2.73652933538E-002 
+4.21000000000E+009 -1.49507438764E-002 -5.04999697208E-001 +3.49932014942E-002 -2.17706989497E-002 -1.11010331239E-005 +5.54228154215E-006 -5.42271956801E-002 +3.59957106411E-002 
+4.41000000000E+009 -3.54910157621E-002 -5.14020919800E-001 -8.04771389812E-003 -4.06259819865E-002 +2.21478131834E-007 -1.79458693310E-005 -5.11316135526E-002 +4.43148910999E-002 
+4.61000000000E+009 -5.57804964483E-002 -5.22038578987E-001 -4.04867678881E-002 -6.79989019409E-003 -1.75592758751E-005 -3.48322537320E-005 -4.68105114996E-002 +5.16376346350E-002 
+4.81000000000E+009 -7.59924426675E-002 -5.29038965702E-001 -2.13247127831E-002 +3.49763557315E-002 -2.01029506570E-005 -1.27925750348E-005 -4.03549745679E-002 +5.88319674134E-002 
+5.01000000000E+009 -9.55470874906E-002 -5.35601496696E-001 +2.50846873969E-002 +3.28902266920E-002 -1.52399898070E-005 -1.53561941261E-005 -3.37857492268E-002 +6.55458420515E-002 
+5.21000000000E+009 -1.14549733698E-001 -5.41404962540E-001 +3.96387241781E-002 -1.16341756657E-002 -1.91109120351E-006 +7.49507262299E-006 -2.62367743999E-002 +7.15889483690E-002 
+5.41000000000E+009 -1.33276119828E-001 -5.46218752861E-001 +4.20284736902E-003 -4.18316237628E-002 -4.75213755635E-006 +4.99441557622E-006 -1.73396728933E-002 +7.66870155931E-002 
+5.61000000000E+009 -1.52171373367E-001 -5.50637722015E-001 -3.88579107821E-002 -1.89627874643E-002 -2.86603826680E-005 -8.34522325022E-006 -7.52780120820E-003 +7.98884555697E-002 
+5.81000000000E+009 -1.69981405139E-001 -5.54016649723E-001 -3.14648151398E-002 +2.96767000109E-002 +5.44347449249E-006 -3.95480719817E-006 +3.01385577768E-003 +8.08779895306E-002 
+6.01000000000E+009 -1.87187924981E-001 -5.56590199471E-001 +1.68701354414E-002 +4.14503887296E-002 -9.47830903897E-006 -1.93740761461E-005 +1.42840333283E-002 +8.26042518020E-002 
+6.21000000000E+009 -2.04452052712E-001 -5.58730840683E-001 +4.58942689002E-002 -2.54710484296E-003 -2.79063419839E-006 +1.39339172165E-005 +2.51320302486E-002 +8.20758044720E-002 
+6.41000000000E+009 -2.20850452781E-001 -5.60097813606E-001 +1.34186381474E-002 -4.39171306789E-002 -1.07653941086E-005 +3.24013763020E-006 +3.65708358586E-002 +8.01426619291E-002 
+6.61000000000E+009 -2.37218007445E-001 -5.61154365540E-001 -3.80753837526E-002 -2.88225486875E-002 -1.53290984599E-005 -5.52251594854E-006 +4.77172210813E-002 +7.52846002579E-002 
+6.81000000000E+009 -2.52921372652E-001 -5.61671733856E-001 -3.95562313497E-002 +2.80024670064E-002 +1.48172994159E-005 +2.19710709644E-005 +5.87792992592E-002 +6.95250183344E-002 
+7.01000000000E+009 -2.68003106117E-001 -5.61845302582E-001 +1.27746276557E-002 +4.64471839368E-002 +4.32331989941E-006 +2.24682617045E-006 +6.89199119806E-002 +6.31451308727E-002 
+7.21000000000E+009 -2.82887220383E-001 -5.61539471149E-001 +4.99114915729E-002 +2.94999266043E-003 +9.53054313868E-006 +1.14225413199E-005 +7.79936760664E-002 +5.45063465834E-002 
+7.41000000000E+009 -2.97128438950E-001 -5.61171114445E-001 +1.71154029667E-002 -4.65218462050E-002 +2.91982487397E-005 -8.24995822768E-006 +8.70206430554E-002 +4.43989001215E-002 
+7.61000000000E+009 -3.10526400805E-001 -5.60218572617E-001 -3.76426950097E-002 -3.15994285047E-002 +3.80713413506E-006 +3.46214728779E-005 +9.36233922839E-002 +3.23195904493E-002 
+7.81000000000E+009 -3.24293494225E-001 -5.58455526829E-001 -4.28116768599E-002 +2.77753882110E-002 -1.72050185938E-005 +3.19859682349E-005 +9.88567471504E-002 +1.98340956122E-002 
+8.01000000000E+009 -3.37066411972E-001 -5.56550562382E-001 +1.48228872567E-002 +4.66284044087E-002 +3.69051826965E-006 -5.06750302520E-006 +1.02458558977E-001 +6.18064217269E-003 
+8.21000000000E+009 -3.49472403526E-001 -5.54327964783E-001 +4.76579405367E-002 +1.09343440272E-003 -2.12420090975E-005 +8.06278330856E-006 +1.04704029858E-001 -7.92367383838E-003 
+8.41000000000E+009 -3.61434072256E-001 -5.51763892174E-001 +1.37808332220E-002 -4.46970351040E-002 -2.98760423902E-005 +1.03541751741E-005 +1.04307316244E-001 -2.31759976596E-002 
+8.61000000000E+009 -3.73239606619E-001 -5.49485504627E-001 -3.52528244257E-002 -2.44528390467E-002 -3.07021582557E-005 -3.50168875229E-006 +1.00949026644E-001 -3.88475283980E-002 
+8.81000000000E+009 -3.84465783834E-001 -5.46974420547E-001 -3.38773466647E-002 +2.41380501539E-002 -1.01997075035E-005 -1.95780148715E-006 +9.55857634544E-002 -5.43283298612E-002 
+9.01000000000E+009 -3.95332127810E-001 -5.44144153595E-001 +1.36112682521E-002 +3.77144850791E-002 -9.90335865936E-006 +3.72159138351E-006 +8.88652577996E-002 -6.83735981584E-002 
+9.21000000000E+009 -4.05890792608E-001 -5.41359961033E-001 +3.60403731465E-002 -9.17324563488E-004 -1.25082569866E-005 -4.57818941868E-006 +7.88686349988E-002 -8.32909867167E-002 
+9.41000000000E+009 -4.15708810091E-001 -5.38696527481E-001 +1.06962677091E-002 -3.22997309268E-002 -1.60176914505E-005 -6.93109132044E-006 +6.62436634302E-002 -9.69287455082E-002 
+9.61000000000E+009 -4.25580680370E-001 -5.35498499870E-001 -2.52008438110E-002 -1.87527649105E-002 -2.54576225416E-005 +5.53004883841E-006 +5.08885793388E-002 -1.08996555209E-001 
+9.81000000000E+009 -4.34498399496E-001 -5.32790064812E-001 -2.39655561745E-002 +1.51910083368E-002 -6.83011694491E-006 -2.66184797511E-005 +3.56890112162E-002 -1.18358969688E-001 
+1.00100000000E+010 -4.43496227264E-001 -5.29691636562E-001 +5.57648716494E-003 +2.65231858939E-002 -2.84657085103E-006 -1.95459797396E-005 +1.89256872982E-002 -1.26333951950E-001 
+1.02100000000E+010 -4.51962858438E-001 -5.26431202888E-001 +2.44070403278E-002 +3.26130981557E-003 -6.20395621809E-006 +2.67564446403E-005 +6.70619716402E-004 -1.33447498083E-001 
+1.04100000000E+010 -4.60676938295E-001 -5.23478090763E-001 +1.12901842222E-002 -1.96439512074E-002 +1.13507885544E-005 -5.50876575289E-006 -2.00245045125E-002 -1.38863608241E-001 
+1.06100000000E+010 -4.69004571438E-001 -5.20181357861E-001 -1.36466268450E-002 -1.68045107275E-002 +2.00568338187E-005 +8.64488720254E-006 -4.19100187719E-002 -1.41420602798E-001 
+1.08100000000E+010 -4.76152837276E-001 -5.17623901367E-001 -1.89124904573E-002 +6.39149779454E-003 -3.54662188329E-005 -2.12473078136E-005 -6.36532381177E-002 -1.40975847840E-001 
+1.10100000000E+010 -4.83827203512E-001 -5.14331042767E-001 -1.30335602444E-003 +1.85919497162E-002 +8.08716595202E-006 +1.55888174049E-005 -8.58363136649E-002 -1.37319505215E-001 
+1.12100000000E+010 -4.90884661674E-001 -5.11752665043E-001 +1.61696951836E-002 +7.55764730275E-003 -3.75329818780E-007 -1.37737815749E-005 -1.09736055136E-001 -1.30795210600E-001 
+1.14100000000E+010 -4.97940301895E-001 -5.08350551128E-001 +1.18157230318E-002 -1.15582151338E-002 +1.13901551231E-005 +1.81610575964E-005 -1.32703348994E-001 -1.20447598398E-001 
+1.16100000000E+010 -5.03805220127E-001 -5.05586147308E-001 -5.73899829760E-003 -1.44787384197E-002 -6.40603229840E-006 +2.76480132015E-005 -1.54523581266E-001 -1.07087820768E-001 
+1.18100000000E+010 -5.10298013687E-001 -5.02628028393E-001 -1.48815866560E-002 +2.34751511016E-004 +8.05094350653E-006 -2.98667509924E-005 -1.74286410213E-001 -9.03500840068E-002 
+1.20100000000E+010 -5.16882240772E-001 -4.99043375254E-001 -4.73960349336E-003 +1.28494566306E-002 +9.21204627957E-006 +5.01088106830E-006 -1.91629171371E-001 -7.09012225270E-002 
+1.22100000000E+010 -5.23453831673E-001 -4.95294839144E-001 +9.40499175340E-003 +8.81965830922E-003 +2.11023198062E-005 +2.82440782939E-006 -2.09114432335E-001 -4.88351285458E-002 
+1.24100000000E+010 -5.29353976250E-001 -4.92010414600E-001 +1.10487937927E-002 -5.31023833901E-003 +4.60255614598E-006 +2.95286390610E-005 -2.23777338862E-001 -2.32336800545E-002 
+1.26100000000E+010 -5.35157620907E-001 -4.88536268473E-001 -7.12669570930E-004 -1.12661663443E-002 +1.42721519296E-005 -3.34298856615E-005 -2.33783602715E-001 +4.50882688165E-003 
+1.28100000000E+010 -5.40663540363E-001 -4.84991371632E-001 -1.01335765794E-002 -3.57432593592E-003 +1.31055048769E-005 +1.62271971931E-005 -2.40237057209E-001 +3.36572118104E-002 
+1.30100000000E+010 -5.46068251133E-001 -4.81180429459E-001 -6.62308605388E-003 +7.69606186077E-003 -1.99980422622E-005 +1.81765135494E-005 -2.43808671832E-001 +6.35735243559E-002 
+1.32100000000E+010 -5.50805985928E-001 -4.77461397648E-001 +4.25443612039E-003 +8.44260677695E-003 +8.20527111500E-006 +1.41348227771E-005 -2.44143813848E-001 +9.51842144132E-002 
+1.34100000000E+010 -5.55938541889E-001 -4.73321348429E-001 +9.02913045138E-003 -5.70049858652E-004 +7.86033797340E-006 -7.18121418686E-006 -2.40699306130E-001 +1.26908287406E-001 
+1.36100000000E+010 -5.59147298336E-001 -4.69742625952E-001 +2.65943747945E-003 -8.12370330095E-003 +4.94552296004E-006 -3.01839281747E-006 -2.32872560620E-001 +1.59844845533E-001 
+1.38100000000E+010 -5.64049899578E-001 -4.66366231441E-001 -6.03854283690E-003 -5.21771935746E-003 -3.18051434078E-006 +1.38882587635E-005 -2.19908654690E-001 +1.92114681005E-001 
+1.40100000000E+010 -5.68598210812E-001 -4.62989121675E-001 -6.84488052502E-003 +3.36066470481E-003 +3.93947666453E-005 -2.24141672334E-006 -2.03096926212E-001 +2.23499074578E-001 
+1.42100000000E+010 -5.72873115540E-001 -4.59964990616E-001 +5.28036965989E-004 +7.16034648940E-003 -5.75645742629E-007 -5.76669833663E-007 -1.82454973459E-001 +2.54853069782E-001 
+1.44100000000E+010 -5.77094316483E-001 -4.56084817648E-001 +6.39414507896E-003 +2.20639375038E-003 +2.32743786910E-005 +2.48362775892E-005 -1.56541496515E-001 +2.83610492945E-001 
+1.46100000000E+010 -5.80596923828E-001 -4.53041672707E-001 +4.33688145131E-003 -4.82352776453E-003 -5.77318860451E-006 -8.63907303028E-007 -1.25781983137E-001 +3.09104084969E-001 
+1.48100000000E+010 -5.84095954895E-001 -4.47747886181E-001 -2.66610807739E-003 -5.53856603801E-003 +2.52969366556E-005 +1.90594910237E-005 -9.28466767073E-002 +3.31046372652E-001 
+1.50100000000E+010 -5.85642278194E-001 -4.46521282196E-001 -5.78847248107E-003 +2.32202903135E-004 +5.32968670086E-006 +9.37917718602E-007 -5.73065504432E-002 +3.50299894810E-001 
+1.52100000000E+010 -5.88223040104E-001 -4.45464402437E-001 -1.97702134028E-003 +5.20085124299E-003 +4.47048341812E-006 +4.20231526732E-006 -1.84605438262E-002 +3.65724205971E-001 
+1.54100000000E+010 -5.91294288635E-001 -4.43121701479E-001 +3.86485131457E-003 +3.61091457307E-003 +7.80244499765E-006 -2.79343803413E-005 +2.40784101188E-002 +3.75788509846E-001 
+1.56100000000E+010 -5.94630181789E-001 -4.39816743135E-001 +4.62036021054E-003 -1.95124594029E-003 -2.38533466472E-005 -2.05465639738E-005 +6.83268159628E-002 +3.80008399487E-001 
+1.58100000000E+010 -5.95559954643E-001 -4.39190596342E-001 -5.84394229008E-006 -4.86493855715E-003 +1.20161603263E-005 +3.19045102515E-005 +1.12466417253E-001 +3.80345642567E-001 
+1.60100000000E+010 -5.97614347935E-001 -4.38046276569E-001 -4.27687168121E-003 -1.78542023059E-003 -1.16967730719E-005 +4.90301245009E-005 +1.57952696085E-001 +3.75271528959E-001 
+1.62100000000E+010 -5.99729835987E-001 -4.36814427376E-001 -3.21032805368E-003 +3.05968709290E-003 -3.57029625775E-006 +4.53253369415E-006 +2.05514237285E-001 +3.64895939827E-001 
+1.64100000000E+010 -6.01785540581E-001 -4.35657352209E-001 +1.52921641711E-003 +3.96580714732E-003 +1.25774374737E-006 -2.27492419071E-005 +2.52553015947E-001 +3.48528206348E-001 
+1.66100000000E+010 -6.04923725128E-001 -4.33782100677E-001 +4.02512867004E-003 +1.08290936623E-004 -3.10180585075E-005 +3.28939927385E-006 +2.96500623226E-001 +3.24917197227E-001 
+1.68100000000E+010 -6.08225643635E-001 -4.31585192680E-001 +1.65940122679E-003 -3.51743912324E-003 +1.51432504936E-005 +1.44666482811E-005 +3.39818239212E-001 +2.97761648893E-001 
+1.70100000000E+010 -6.09749972820E-001 -4.29782122374E-001 -2.57926154882E-003 -2.79719079845E-003 +1.69052345882E-005 +3.58635293196E-006 +3.80353689194E-001 +2.66356706619E-001 
+1.72100000000E+010 -6.11826419830E-001 -4.28331732750E-001 -3.33886896260E-003 +1.16053549573E-003 -1.55982343131E-005 +2.71944572887E-005 +4.18229609728E-001 +2.27766901255E-001 
+1.74100000000E+010 -6.15240514278E-001 -4.26761716604E-001 -2.49117700150E-004 +3.41737386771E-003 -1.34834754135E-005 +1.48549361256E-005 +4.51710015535E-001 +1.84442639351E-001 
+1.76100000000E+010 -6.18242859840E-001 -4.24826115370E-001 +2.95929750428E-003 +1.46813329775E-003 +1.52112704654E-006 +2.73647287941E-006 +4.79403257370E-001 +1.38202056289E-001 
+1.78100000000E+010 -6.21310651302E-001 -4.22685593367E-001 +2.37901578657E-003 -2.03566555865E-003 +6.97059931554E-006 -2.77228100458E-005 +5.02943873405E-001 +8.95592570305E-002 
+1.80100000000E+010 -6.24130308628E-001 -4.20580834150E-001 -8.97197925951E-004 -2.93189100921E-003 +1.46162101373E-005 +1.33177709358E-005 +5.22124886513E-001 +3.81077639759E-002 
+1.82100000000E+010 -6.27280056477E-001 -4.18672621250E-001 -2.84928362817E-003 -2.77159735560E-004 +1.83996780834E-005 +3.17822850775E-005 +5.34609913826E-001 -1.66731048375E-002 
+1.84100000000E+010 -6.30164802074E-001 -4.16861921549E-001 -1.34656729642E-003 +2.40313587710E-003 +6.86846260578E-006 +1.03762040453E-005 +5.40908038616E-001 -7.40267038345E-002 
+1.86100000000E+010 -6.33062005043E-001 -4.14801865816E-001 +1.56887143385E-003 +2.12335470133E-003 +8.94974618859E-006 -2.14190131373E-005 +5.41036367416E-001 -1.30798965693E-001 
+1.88100000000E+010 -6.35489821434E-001 -4.12775218487E-001 +2.48524802737E-003 -5.62979956158E-004 +1.28691835926E-005 -1.50769892571E-005 +5.35479307175E-001 -1.87786668539E-001 
+1.90100000000E+010 -6.37873351574E-001 -4.11237806082E-001 +4.63167758426E-004 -2.37863883376E-003 -9.90148146229E-006 +5.21264064446E-006 +5.24055957794E-001 -2.44582444429E-001 
+1.92100000000E+010 -6.41252100468E-001 -4.09745931625E-001 -2.00900551863E-003 -1.44270947203E-003 -2.93809116556E-005 -3.50008667738E-005 +5.05340158939E-001 -3.02460998297E-001 
+1.94100000000E+010 -6.44282579422E-001 -4.06780481339E-001 -1.90531671979E-003 +1.24836107716E-003 -1.49332690853E-005 +2.03781892196E-005 +4.79817479849E-001 -3.57555180788E-001 
+1.96100000000E+010 -6.44933998585E-001 -4.04304355383E-001 +3.90652974602E-004 +2.18547577970E-003 +2.96393882309E-005 -5.14826460858E-005 +4.48943972588E-001 -4.09602522850E-001 
+1.98100000000E+010 -6.44492506981E-001 -4.01694029570E-001 +2.09654448554E-003 +4.65029530460E-004 +7.61655464885E-005 -1.54371446115E-005 +4.14815455675E-001 -4.56924825907E-001 
+2.00100000000E+010 -6.44289433956E-001 -4.01089549065E-001 +1.20528263506E-003 -1.63446122315E-003 +1.46434904309E-005 -4.20158539782E-005 +3.72607976198E-001 -5.03904700279E-001 
