!;Filter: kein Filter
!auto
!3/21/2019 9:27:39 AM
!3/21/2019 9:27:53 AM
!SP-Measurements Prober G4
!SP-Measurements Prober G4
!
!134
!235
!12
!20
!-20
!0.00499992
!1.96
!0.64375220
!0.64375220
# Hz S  RI   R 50
+1.00000000000E+007 +2.38433733582E-001 +1.15669425577E-002 +4.34554666281E-002 -1.68907530606E-002 +2.01877133804E-004 -8.57421313412E-004 +5.05743362010E-003 +6.52549439110E-004 
+2.10000000000E+008 +2.64581799507E-001 -2.43299286813E-002 -1.65082234889E-003 -4.47097942233E-002 +2.36799078266E-005 +1.83297597687E-005 +9.01794061065E-003 -4.40945615992E-003 
+4.10000000000E+008 +2.65709668398E-001 -5.95202147961E-002 -4.18956950307E-002 -1.49271674454E-002 -5.46174924239E-005 +1.25434034999E-005 +1.00307818502E-002 -7.29631073773E-003 
+6.10000000000E+008 +2.62772262096E-001 -9.29469242692E-002 -2.83355657011E-002 +3.40792164207E-002 -1.05354274638E-006 +2.53654670814E-005 +9.33267269284E-003 -1.14730019122E-002 
+8.10000000000E+008 +2.56364762783E-001 -1.26336172223E-001 +2.14597694576E-002 +3.83788011968E-002 -2.09153836295E-006 -5.20102821611E-006 +6.83412794024E-003 -1.52712929994E-002 
+1.01000000000E+009 +2.47667938471E-001 -1.58018097281E-001 +4.37857024372E-002 -6.80621946231E-003 +2.58525924437E-005 +1.95245884242E-005 +2.92967213318E-003 -1.88177451491E-002 
+1.21000000000E+009 +2.37137600780E-001 -1.88324123621E-001 +8.77218041569E-003 -4.24648858607E-002 +4.94617142976E-006 +8.56926999404E-006 -1.79873651359E-003 -2.10911408067E-002 
+1.41000000000E+009 +2.24509477615E-001 -2.17896401882E-001 -3.61195728183E-002 -2.32818275690E-002 -2.03344029615E-006 -1.35925820359E-005 -7.74483010173E-003 -2.42001246661E-002 
+1.61000000000E+009 +2.11010172963E-001 -2.45801478624E-001 -3.44952605665E-002 +2.54678390920E-002 -1.66028439708E-005 +6.55682924844E-006 -1.37361176312E-002 -2.68535465002E-002 
+1.81000000000E+009 +1.95855557919E-001 -2.72042006254E-001 +1.14883976057E-002 +4.04350310564E-002 +1.91974086192E-005 -1.48616591105E-005 -1.78688429296E-002 -2.78524048626E-002 
+2.01000000000E+009 +1.80196389556E-001 -2.97193586826E-001 +4.13714684546E-002 +4.41024778411E-003 -1.30082185024E-006 -2.74359535979E-006 -2.30288244784E-002 -2.67590917647E-002 
+2.21000000000E+009 +1.63186579943E-001 -3.21042358875E-001 +1.87774524093E-002 -3.73974367976E-002 -1.50117175508E-005 -1.70716293724E-006 -2.89449319243E-002 -2.46927849948E-002 
+2.41000000000E+009 +1.45218491554E-001 -3.43038141727E-001 -2.75037456304E-002 -3.02932895720E-002 -6.36056211079E-006 -9.24028336158E-006 -3.55933047831E-002 -2.23048888147E-002 
+2.61000000000E+009 +1.26942709088E-001 -3.63620758057E-001 -3.83008196950E-002 +1.43695008010E-002 +2.30467830988E-005 +3.76799289370E-005 -4.07259874046E-002 -1.92830562592E-002 
+2.81000000000E+009 +1.08048893511E-001 -3.82725715637E-001 +2.23042206926E-005 +4.08229194582E-002 -1.18418784041E-005 -1.41802627240E-006 -4.46169301867E-002 -1.44197437912E-002 
+3.01000000000E+009 +8.85159149766E-002 -4.00357961655E-001 +3.72935384512E-002 +1.46042378619E-002 -2.46973468165E-005 +4.51792857348E-006 -4.84623536468E-002 -8.69727786630E-003 
+3.21000000000E+009 +6.87750950456E-002 -4.16695356369E-001 +2.73607578129E-002 -2.92705073953E-002 +7.94614777533E-007 -1.11972476589E-005 -5.25454282761E-002 -2.26161675528E-003 
+3.41000000000E+009 +4.91934791207E-002 -4.31600719690E-001 -1.77966877818E-002 -3.58213000000E-002 -8.11126756162E-006 +1.15664870464E-005 -5.55303692818E-002 +4.93004545569E-003 
+3.61000000000E+009 +2.94786989689E-002 -4.45401579142E-001 -3.92447598279E-002 +3.17148538306E-003 -1.08838557935E-005 +2.16547141463E-005 -5.72695471346E-002 +1.18672307581E-002 
+3.81000000000E+009 +9.40430257469E-003 -4.57729578018E-001 -1.16102509201E-002 +3.79916690290E-002 +1.69580434886E-005 -1.06057932499E-005 -5.71600459516E-002 +1.93200409412E-002 
+4.01000000000E+009 -1.00660668686E-002 -4.69128549099E-001 +3.12967412174E-002 +2.40380000323E-002 +3.76459320250E-006 -1.33264268243E-006 -5.61958178878E-002 +2.73603294045E-002 
+4.21000000000E+009 -2.96377502382E-002 -4.79275882244E-001 +3.38134169579E-002 -1.99348162860E-002 -4.24131394539E-006 -1.98343459488E-005 -5.42485378683E-002 +3.59453819692E-002 
+4.41000000000E+009 -4.89227436483E-002 -4.88435238600E-001 -6.51575159281E-003 -3.91925200820E-002 +1.51474341692E-006 -2.41694669967E-005 -5.10725304484E-002 +4.43246774375E-002 
+4.61000000000E+009 -6.80138319731E-002 -4.96641516685E-001 -3.87497469783E-002 -7.54195638001E-003 +7.14642828825E-006 +8.36989102027E-007 -4.68009114265E-002 +5.15933372080E-002 
+4.81000000000E+009 -8.71681272984E-002 -5.03988325596E-001 -2.12165527046E-002 +3.33569496870E-002 +2.09903246287E-005 +9.26289885683E-006 -4.03183959424E-002 +5.88233433664E-002 
+5.01000000000E+009 -1.05630032718E-001 -5.10732054710E-001 +2.40182392299E-002 +3.16136665642E-002 +7.78539833846E-006 -1.63066142704E-005 -3.37788127363E-002 +6.55132532120E-002 
+5.21000000000E+009 -1.23618170619E-001 -5.16897022724E-001 +3.74385714531E-002 -1.11866239458E-002 -3.97376970795E-006 -1.80597680810E-006 -2.62110885233E-002 +7.15662166476E-002 
+5.41000000000E+009 -1.41435652971E-001 -5.22059440613E-001 +3.18489968777E-003 -3.85649427772E-002 +2.73747286883E-006 +1.49678335220E-005 -1.73544250429E-002 +7.66400247812E-002 
+5.61000000000E+009 -1.59353882074E-001 -5.26806354523E-001 -3.43260467052E-002 -1.68274994940E-002 +3.54547992174E-005 -8.61028365762E-006 -7.51106534153E-003 +7.98464417458E-002 
+5.81000000000E+009 -1.76338866353E-001 -5.30558228493E-001 -2.82200053334E-002 +2.54770107567E-002 +9.36104970606E-006 -3.48568391928E-006 +3.04628931917E-003 +8.08591693640E-002 
+6.01000000000E+009 -1.92756190896E-001 -5.33505916595E-001 +1.29739185795E-002 +3.59698310494E-002 +2.78599527519E-005 -1.65907949849E-005 +1.42716849223E-002 +8.25641527772E-002 
+6.21000000000E+009 -2.09188371897E-001 -5.36087930202E-001 +3.92525866628E-002 +1.07676943298E-003 -3.01931822833E-006 +1.56636633619E-005 +2.51294486225E-002 +8.20289254189E-002 
+6.41000000000E+009 -2.24865570664E-001 -5.37987291813E-001 +1.51205295697E-002 -3.66659983993E-002 -1.38552941280E-005 +9.38126231631E-006 +3.65567095578E-002 +8.01083818078E-002 
+6.61000000000E+009 -2.40566298366E-001 -5.39369463921E-001 -2.94883884490E-002 -2.81321033835E-002 -2.64878440248E-006 -2.27191753766E-006 +4.76773902774E-002 +7.52242580056E-002 
+6.81000000000E+009 -2.55556821823E-001 -5.40372669697E-001 -3.73380109668E-002 +1.89490988851E-002 -1.15878938232E-005 +9.08746096684E-006 +5.87616227567E-002 +6.94759339094E-002 
+7.01000000000E+009 -2.70029574633E-001 -5.41047513485E-001 +4.95837582275E-003 +4.17915210128E-002 -1.94576587091E-005 +1.41808523040E-005 +6.88512921333E-002 +6.31089732051E-002 
+7.21000000000E+009 -2.84312218428E-001 -5.41218280792E-001 +4.20460700989E-002 +9.75195225328E-003 -9.84663620329E-006 -2.00314116228E-005 +7.79241248965E-002 +5.44781275094E-002 
+7.41000000000E+009 -2.97910332680E-001 -5.41354417801E-001 +2.28281840682E-002 -3.70053090155E-002 -5.74572050027E-006 +1.21668119846E-006 +8.69416818023E-002 +4.43578884006E-002 
+7.61000000000E+009 -3.10799270868E-001 -5.40786504745E-001 -2.71723736078E-002 -3.40243540704E-002 -1.30249436552E-005 -2.08992096304E-005 +9.35904756188E-002 +3.23169939220E-002 
+7.81000000000E+009 -3.24064105749E-001 -5.39631605148E-001 -4.18307594955E-002 +1.53178405017E-002 -6.07495258009E-006 +3.95655079046E-005 +9.87983793020E-002 +1.98078565300E-002 
+8.01000000000E+009 -3.36395412683E-001 -5.38271188736E-001 +1.88978761435E-003 +4.35708165169E-002 +3.16679215757E-005 +3.12907977786E-005 +1.02444946766E-001 +6.18909159675E-003 
+8.21000000000E+009 -3.48411560059E-001 -5.36612272263E-001 +4.10517901182E-002 +1.22033674270E-002 +3.36567863997E-005 +8.75203477335E-006 +1.04640863836E-001 -7.93089065701E-003 
+8.41000000000E+009 -3.59975576401E-001 -5.34603893757E-001 +2.42643635720E-002 -3.44301275909E-002 +1.25590941025E-005 -8.63667992235E-006 +1.04230597615E-001 -2.31739580631E-002 
+8.61000000000E+009 -3.71499717236E-001 -5.32851397991E-001 -2.38064285368E-002 -3.30124162138E-002 +1.23119252748E-005 -9.17705801839E-006 +1.00914560258E-001 -3.87826263905E-002 
+8.81000000000E+009 -3.82448375225E-001 -5.30854105949E-001 -3.85723039508E-002 +1.10239852220E-002 -5.88955060721E-007 +1.20806880659E-005 +9.55206528306E-002 -5.43058812618E-002 
+9.01000000000E+009 -3.93025606871E-001 -5.28490304947E-001 -1.22311350424E-003 +3.99440936744E-002 +2.75580276821E-007 +2.90598063657E-006 +8.88370499015E-002 -6.83304145932E-002 
+9.21000000000E+009 -4.03348058462E-001 -5.26217401028E-001 +3.56000214815E-002 +1.31511623040E-002 +1.16534283734E-005 +3.67086940969E-005 +7.88326710463E-002 -8.32091495395E-002 
+9.41000000000E+009 -4.13023620844E-001 -5.23941278458E-001 +2.33321934938E-002 -2.88168191910E-002 +1.73365715455E-005 +2.05207306863E-005 +6.62116631866E-002 -9.68603119254E-002 
+9.61000000000E+009 -4.22688275576E-001 -5.21186709404E-001 -1.93937737495E-002 -2.92358044535E-002 -2.40601002588E-005 +6.34800608168E-006 +5.08686043322E-002 -1.08929820359E-001 
+9.81000000000E+009 -4.31526511908E-001 -5.18992543221E-001 -3.19022387266E-002 +7.51115707681E-003 -2.04249754461E-005 +6.88095269652E-006 +3.57065834105E-002 -1.18283435702E-001 
+1.00100000000E+010 -4.40411984921E-001 -5.16266763210E-001 -3.42153338715E-003 +3.15919257700E-002 +3.63228400602E-006 -1.60854197020E-005 +1.89029891044E-002 -1.26229912043E-001 
+1.02100000000E+010 -4.48760807514E-001 -5.13388156891E-001 +2.72103734314E-002 +1.24729955569E-002 -3.88378830394E-005 -2.49853519563E-006 +6.99517317116E-004 -1.33386135101E-001 
+1.04100000000E+010 -4.57326233387E-001 -5.10812819004E-001 +1.99546627700E-002 -1.99753250927E-002 -2.05712494790E-005 -2.52896279562E-005 -2.00097560883E-002 -1.38818636537E-001 
+1.06100000000E+010 -4.65573221445E-001 -5.07844090462E-001 -1.21911745518E-002 -2.43237055838E-002 +9.04819444258E-006 -3.05560788547E-005 -4.18425463140E-002 -1.41302719712E-001 
+1.08100000000E+010 -4.72669929266E-001 -5.05619823933E-001 -2.37310789526E-002 +3.75808845274E-003 +1.63710374181E-005 -9.96226299321E-006 -6.36143162847E-002 -1.40879571438E-001 
+1.10100000000E+010 -4.80169922113E-001 -5.02667307854E-001 -5.40284300223E-003 +2.13284101337E-002 -1.31200986289E-005 -2.84386678686E-005 -8.57865139842E-002 -1.37299180031E-001 
+1.12100000000E+010 -4.87199962139E-001 -5.00424921513E-001 +1.66723188013E-002 +1.19754886255E-002 +2.21711798076E-005 +1.79249327630E-005 -1.09670735896E-001 -1.30763500929E-001 
+1.14100000000E+010 -4.94245558977E-001 -4.97419387102E-001 +1.63032226264E-002 -1.00725172088E-002 +1.29457894218E-005 -3.04328204948E-005 -1.32665008307E-001 -1.20430782437E-001 
+1.16100000000E+010 -5.00028729439E-001 -4.94855880737E-001 -2.86974175833E-003 -1.82430185378E-002 -3.07272807731E-006 +2.55820323218E-005 -1.54457002878E-001 -1.07058607042E-001 
+1.18100000000E+010 -5.06486117840E-001 -4.92228031158E-001 -1.75847783685E-002 -3.56050371192E-003 -2.42424880526E-006 +1.72104118974E-005 -1.74191802740E-001 -9.03270170093E-002 
+1.20100000000E+010 -5.13005375862E-001 -4.88930135965E-001 -8.82641412318E-003 +1.40913473442E-002 -1.89529646377E-006 +3.71556120626E-006 -1.91540583968E-001 -7.08820819855E-002 
+1.22100000000E+010 -5.19499659538E-001 -4.85476791859E-001 +9.24003031105E-003 +1.28321712837E-002 -2.18500863411E-005 -4.61041636299E-005 -2.09032282233E-001 -4.87990453839E-002 
+1.24100000000E+010 -5.25392711163E-001 -4.82452124357E-001 +1.45090306178E-002 -4.04269481078E-003 +1.28216033772E-005 +3.81973995900E-006 -2.23696842790E-001 -2.32254769653E-002 
+1.26100000000E+010 -5.31225025654E-001 -4.79216933250E-001 +1.61143299192E-003 -1.36969536543E-002 +1.25631299852E-006 -5.31388468517E-006 -2.33726024628E-001 +4.46461420506E-003 
+1.28100000000E+010 -5.36613523960E-001 -4.75882649422E-001 -1.15926070139E-002 -6.55866460875E-003 +1.17793051686E-005 -5.55759788767E-006 -2.40133881569E-001 +3.36125902832E-002 
+1.30100000000E+010 -5.41928350925E-001 -4.72126364708E-001 -9.70293954015E-003 +8.15253891051E-003 +1.77437050297E-005 -2.73355199170E-005 -2.43752762675E-001 +6.34549334645E-002 
+1.32100000000E+010 -5.46883821487E-001 -4.68943655491E-001 +3.51967802271E-003 +1.11796120182E-002 -1.58308430400E-005 -1.31084307213E-005 -2.44063079357E-001 +9.51271355152E-002 
+1.34100000000E+010 -5.51948964596E-001 -4.64940011501E-001 +1.12707912922E-002 +9.41290694755E-004 -1.38466029966E-005 -2.74936314781E-006 -2.40607857704E-001 +1.26823797822E-001 
+1.36100000000E+010 -5.55095076561E-001 -4.61503863335E-001 +4.58768103272E-003 -9.59486141801E-003 +2.31268240896E-005 -3.72707177121E-006 -2.32784137130E-001 +1.59756720066E-001 
+1.38100000000E+010 -5.60040414333E-001 -4.58464592695E-001 -6.50544557720E-003 -7.43325613439E-003 +2.01539551199E-005 -2.87040093099E-005 -2.19866439700E-001 +1.92016318440E-001 
+1.40100000000E+010 -5.64659476280E-001 -4.55303639174E-001 -9.06526762992E-003 +3.02338739857E-003 +3.68752512259E-006 +7.00877171766E-006 -2.03102543950E-001 +2.23392277956E-001 
+1.42100000000E+010 -5.68874239922E-001 -4.52352732420E-001 -3.81717924029E-004 +8.97916126996E-003 -2.31723479374E-005 -1.90464052139E-005 -1.82383835316E-001 +2.54766076803E-001 
+1.44100000000E+010 -5.73160290718E-001 -4.48861062527E-001 +7.53127597272E-003 +3.68276890367E-003 -1.40555321195E-005 +1.33396524689E-005 -1.56577885151E-001 +2.83446103334E-001 
+1.46100000000E+010 -5.76653242111E-001 -4.46002155542E-001 +6.08280953020E-003 -5.36670722067E-003 -1.30252665258E-005 -2.10705493373E-005 -1.25817954540E-001 +3.09003263712E-001 
+1.48100000000E+010 -5.80144822598E-001 -4.40863519907E-001 -2.63757212088E-003 -7.20911286771E-003 +2.50926877925E-005 +3.53873041981E-009 -9.28649380803E-002 +3.30925434828E-001 
+1.50100000000E+010 -5.81769049168E-001 -4.39873427153E-001 -7.14964326471E-003 -4.76416200399E-004 +1.46165202750E-005 +3.29520771629E-005 -5.73504641652E-002 +3.50228458643E-001 
+1.52100000000E+010 -5.84403574467E-001 -4.38934683800E-001 -3.09032923542E-003 +6.20576459914E-003 -3.93507070839E-006 +1.39820840559E-005 -1.85003802180E-002 +3.65626275539E-001 
+1.54100000000E+010 -5.87520778179E-001 -4.36708778143E-001 +4.29319171235E-003 +4.85733244568E-003 +2.50499601862E-006 -1.02281346699E-005 +2.40022744983E-002 +3.75752776861E-001 
+1.56100000000E+010 -5.90787649155E-001 -4.33509200811E-001 +5.88077027351E-003 -1.86437426601E-003 -2.27492600970E-005 +3.91754610973E-006 +6.82385712862E-002 +3.79934191704E-001 
+1.58100000000E+010 -5.91761291027E-001 -4.33042049408E-001 +5.36022998858E-004 -6.00082892925E-003 +1.58580496645E-005 +9.49087825575E-006 +1.12389273942E-001 +3.80283147097E-001 
+1.60100000000E+010 -5.93862354755E-001 -4.32193607092E-001 -5.00749889761E-003 -2.63451389037E-003 +1.52502771016E-005 +1.99826863536E-005 +1.57836347818E-001 +3.75264197588E-001 
+1.62100000000E+010 -5.95910310745E-001 -4.31004941463E-001 -4.27377084270E-003 +3.32887936383E-003 +2.36696769207E-006 +2.10269663512E-005 +2.05357939005E-001 +3.64922463894E-001 
+1.64100000000E+010 -5.98007142544E-001 -4.29901331663E-001 +1.43686716910E-003 +5.11853536591E-003 +2.45257488132E-005 +6.30769318377E-006 +2.52330839634E-001 +3.48568230867E-001 
+1.66100000000E+010 -6.01369619370E-001 -4.28282558918E-001 +4.97958390042E-003 +5.26586722117E-004 +1.78344762389E-005 -1.34783531394E-005 +2.96382188797E-001 +3.24991315603E-001 
+1.68100000000E+010 -6.04390680790E-001 -4.26175653934E-001 +2.41759582423E-003 -4.12568263710E-003 -4.37145354226E-006 +1.59068440553E-005 +3.39733272791E-001 +2.97823250294E-001 
+1.70100000000E+010 -6.05883002281E-001 -4.24454629421E-001 -2.80757946894E-003 -3.68633470498E-003 +5.08533912580E-006 +4.80620547023E-005 +3.80160212517E-001 +2.66424536705E-001 
+1.72100000000E+010 -6.08079493046E-001 -4.23188120127E-001 -4.19911136851E-003 +1.14053068683E-003 +4.13592124460E-006 +3.53468749381E-006 +4.18069541454E-001 +2.27919310331E-001 
+1.74100000000E+010 -6.11545145512E-001 -4.21744763851E-001 -6.97265262716E-004 +4.08479291946E-003 -3.78722489813E-007 -1.43535935422E-005 +4.51571464539E-001 +1.84525325894E-001 
+1.76100000000E+010 -6.14610612392E-001 -4.19939815998E-001 +3.45897255465E-003 +2.17191828415E-003 +1.20169652291E-005 +2.41058660322E-005 +4.79335516691E-001 +1.38394430280E-001 
+1.78100000000E+010 -6.17869973183E-001 -4.17979300022E-001 +3.13037238084E-003 -2.19614105299E-003 -3.77313426725E-006 +3.76664752366E-006 +5.02897858620E-001 +8.97326692939E-002 
+1.80100000000E+010 -6.20483875275E-001 -4.15949940681E-001 -7.05810962245E-004 -3.72120132670E-003 +1.15188404379E-005 +3.52635179297E-005 +5.22037029266E-001 +3.83183993399E-002 
+1.82100000000E+010 -6.23647093773E-001 -4.14144635201E-001 -3.55434394442E-003 -7.48947903048E-004 -3.02965854644E-005 -6.74005514156E-006 +5.34566581249E-001 -1.65079552680E-002 
+1.84100000000E+010 -6.26696348190E-001 -4.12363767624E-001 -2.00271559879E-003 +2.90296087041E-003 -1.54283279699E-005 +2.39664423134E-005 +5.40906310081E-001 -7.38423317671E-002 
+1.86100000000E+010 -6.29699885845E-001 -4.10455733538E-001 +1.85587210581E-003 +2.89949355647E-003 -1.72077704974E-006 +3.78643853765E-005 +5.41089475155E-001 -1.30619525909E-001 
+1.88100000000E+010 -6.32304549217E-001 -4.08573657274E-001 +3.23349540122E-003 -6.31893577520E-004 -1.14969006972E-005 -3.43442343365E-006 +5.35531461239E-001 -1.87641128898E-001 
+1.90100000000E+010 -6.34666502476E-001 -4.07095372677E-001 +6.45580876153E-004 -3.04392888211E-003 -6.88581712893E-006 -2.75831225736E-005 +5.24161934853E-001 -2.44362100959E-001 
+1.92100000000E+010 -6.38043582439E-001 -4.05715048313E-001 -2.46093957685E-003 -1.70260691084E-003 -2.98531540466E-005 -5.11434263899E-005 +5.05464911461E-001 -3.02350640297E-001 
+1.94100000000E+010 -6.41173779964E-001 -4.02900397778E-001 -2.41436087526E-003 +1.55380461365E-003 +6.08188202023E-006 +9.68709082372E-006 +4.79928374290E-001 -3.57377916574E-001 
+1.96100000000E+010 -6.41858875751E-001 -4.00460600853E-001 +4.70422586659E-004 +2.59270193055E-003 +9.55229370447E-006 +2.55513114098E-005 +4.49035793543E-001 -4.09402132034E-001 
+1.98100000000E+010 -6.41386866570E-001 -3.97921949625E-001 +2.45220493525E-003 +6.59535697196E-004 -1.71448482433E-005 +5.11724319949E-005 +4.14904087782E-001 -4.56770449877E-001 
+2.00100000000E+010 -6.41342580318E-001 -3.97330462933E-001 +1.56736827921E-003 -1.96325057186E-003 -1.31734341267E-005 -3.02425760310E-005 +3.72796833515E-001 -5.03824830055E-001 
