!;Filter: kein Filter
!auto
!3/21/2019 9:27:07 AM
!3/21/2019 9:27:22 AM
!SP-Measurements Prober G4
!SP-Measurements Prober G4
!
!134
!237
!12
!20
!-20
!0.00299959
!1.83
!0.38139174
!0.38139174
# Hz S  RI   R 50
+1.00000000000E+007 +2.93773353100E-001 +1.50689044967E-002 +5.59030137956E-002 -2.34464164823E-002 +1.07236497570E-004 +2.78120860457E-004 +4.77675441653E-003 +9.93067165837E-004 
+2.10000000000E+008 +3.10223460197E-001 -3.36011461914E-002 -2.63446453027E-003 -5.67844882607E-002 +4.19409516326E-005 -5.22160917171E-005 +9.01227258146E-003 -4.47495374829E-003 
+4.10000000000E+008 +3.08026254177E-001 -7.16352462769E-002 -5.35681098700E-002 -1.73497945070E-002 +6.66679188726E-005 +5.85777925153E-005 +1.01340524852E-002 -7.22846761346E-003 
+6.10000000000E+008 +3.02176475525E-001 -1.08077220619E-001 -3.37800458074E-002 +4.35933433473E-002 -1.21187458717E-005 +4.31279986515E-005 +9.40911378711E-003 -1.14589594305E-002 
+8.10000000000E+008 +2.93238013983E-001 -1.43467813730E-001 +2.82645002007E-002 +4.65603917837E-002 +6.25526627118E-006 +3.50517366314E-005 +6.88275508583E-003 -1.52943683788E-002 
+1.01000000000E+009 +2.82243281603E-001 -1.76920667291E-001 +5.40749803185E-002 -9.54959075898E-003 +3.45091575582E-005 -1.37838133014E-005 +2.94020283036E-003 -1.88503004611E-002 
+1.21000000000E+009 +2.69481718540E-001 -2.09037497640E-001 +9.24223382026E-003 -5.34847192466E-002 -7.95157029643E-006 -1.10900155050E-005 -1.77728431299E-003 -2.11153924465E-002 
+1.41000000000E+009 +2.54698544741E-001 -2.40090951324E-001 -4.63037006557E-002 -2.72317603230E-002 +2.64756654360E-005 +2.19262874452E-005 -7.69902253523E-003 -2.42131650448E-002 
+1.61000000000E+009 +2.39151924849E-001 -2.69460499287E-001 -4.19508032501E-002 +3.35026271641E-002 -3.54156727553E-005 -3.91671710531E-006 -1.37108368799E-002 -2.68897097558E-002 
+1.81000000000E+009 +2.21599280834E-001 -2.96973109245E-001 +1.67546160519E-002 +5.00693246722E-002 +7.10024869477E-006 +3.26794579451E-005 -1.78366564214E-002 -2.78630759567E-002 
+2.01000000000E+009 +2.03663751483E-001 -3.23145538568E-001 +5.11862039566E-002 +2.76885204948E-003 -8.44883197715E-006 -1.54256770202E-006 -2.30202320963E-002 -2.68085449934E-002 
+2.21000000000E+009 +1.84416875243E-001 -3.47609341145E-001 +2.28164587170E-002 -4.74858134985E-002 -1.89064758160E-005 +1.21128596220E-005 -2.89353039116E-002 -2.47586537153E-002 
+2.41000000000E+009 +1.64210766554E-001 -3.70096772909E-001 -3.61699126661E-002 -3.71941998601E-002 -7.79426318331E-006 +1.44577816172E-005 -3.56091074646E-002 -2.23648212850E-002 
+2.61000000000E+009 +1.43859133124E-001 -3.90816599131E-001 -4.85194772482E-002 +1.87023486942E-002 -3.31050932800E-006 -1.07927635327E-005 -4.07298505306E-002 -1.92904602736E-002 
+2.81000000000E+009 +1.23260818422E-001 -4.10177499056E-001 +8.07513832115E-004 +5.40391057730E-002 -2.48025990004E-005 -5.23915105077E-006 -4.46731150150E-002 -1.44016165286E-002 
+3.01000000000E+009 +1.01715594530E-001 -4.27883982658E-001 +4.98670563102E-002 +1.80028192699E-002 +6.26851306151E-006 +7.48624415792E-006 -4.85071167350E-002 -8.74745100737E-003 
+3.21000000000E+009 +8.03709030151E-002 -4.43951785564E-001 +3.70148979127E-002 -3.97729985416E-002 -1.52667998918E-005 -8.68285042088E-006 -5.25950267911E-002 -2.35203467309E-003 
+3.41000000000E+009 +5.93469962478E-002 -4.58940684795E-001 -2.61762049049E-002 -5.05059920251E-002 +1.24645475807E-005 +1.84774798981E-005 -5.55867515504E-002 +4.88649867475E-003 
+3.61000000000E+009 +3.80307361484E-002 -4.72611486912E-001 -5.61505705118E-002 +6.65591470897E-003 +9.30052283366E-006 -1.35724458232E-005 -5.73098957539E-002 +1.18283703923E-002 
+3.81000000000E+009 +1.67352221906E-002 -4.84705716372E-001 -1.57564263791E-002 +5.70058971643E-002 +6.21501430942E-006 +2.12344111787E-005 -5.72490170598E-002 +1.92972831428E-002 
+4.01000000000E+009 -4.08206833526E-003 -4.96090024710E-001 +5.13337701559E-002 +3.46514061093E-002 +3.55126721843E-005 +3.65151681763E-005 -5.62278032303E-002 +2.73058544844E-002 
+4.21000000000E+009 -2.50763073564E-002 -5.05970537663E-001 +5.02388849854E-002 -3.58837097883E-002 -9.39559231483E-006 -2.73799869319E-005 -5.42736910284E-002 +3.59618589282E-002 
+4.41000000000E+009 -4.54288944602E-002 -5.14874756336E-001 -1.55871259049E-002 -6.35710805655E-002 +7.07297931513E-006 +3.46332683421E-007 -5.11246882379E-002 +4.43240366876E-002 
+4.61000000000E+009 -6.57901987433E-002 -5.23080825806E-001 -6.91126063466E-002 -4.69810515642E-003 +1.71908141056E-005 +9.18041223485E-006 -4.68461140990E-002 +5.16021698713E-002 
+4.81000000000E+009 -8.62140953541E-002 -5.30081689358E-001 -2.81588323414E-002 +6.44577220082E-002 +2.04671996471E-005 -3.14124226861E-005 -4.03485298157E-002 +5.88895380497E-002 
+5.01000000000E+009 -1.05686657131E-001 -5.36765217781E-001 +5.62391467392E-002 +5.27256019413E-002 +1.79700127774E-005 +4.51866162621E-006 -3.38040851057E-002 +6.55307695270E-002 
+5.21000000000E+009 -1.25162631273E-001 -5.43037772179E-001 +6.89284428954E-002 -4.40903119743E-002 +3.62691680493E-005 +5.43000305697E-006 -2.62409932911E-002 +7.16242045164E-002 
+5.41000000000E+009 -1.44431933761E-001 -5.47744214535E-001 -2.15546991676E-002 -7.92089328170E-002 +1.28437377498E-005 -1.06101524580E-005 -1.73462424427E-002 +7.67180994153E-002 
+5.61000000000E+009 -1.63819685578E-001 -5.52371263504E-001 -8.85147377849E-002 -8.84082983248E-004 +2.58159634541E-005 -2.10033667827E-005 -7.55336601287E-003 +7.98770412803E-002 
+5.81000000000E+009 -1.82562038302E-001 -5.55465936661E-001 -2.00362410396E-002 +8.66626426578E-002 +7.38724111216E-007 +1.72286909219E-005 +3.04247834720E-003 +8.08555409312E-002 
+6.01000000000E+009 -2.00387164950E-001 -5.57514965534E-001 +7.59996026754E-002 +4.24816869199E-002 -6.46278567729E-006 -3.31347450810E-006 +1.42139578238E-002 +8.26192200184E-002 
+6.21000000000E+009 -2.18509122729E-001 -5.59228062630E-001 +5.95722906291E-002 -6.71328678727E-002 -1.31676442834E-005 -2.57270021393E-005 +2.51187030226E-002 +8.20930004120E-002 
+6.41000000000E+009 -2.35439017415E-001 -5.59466183186E-001 -5.03721833229E-002 -6.59559965134E-002 +2.16420921788E-005 +4.67878053314E-005 +3.65722365677E-002 +8.01894068718E-002 
+6.61000000000E+009 -2.51921981573E-001 -5.59356749058E-001 -7.05683901906E-002 +2.76881214231E-002 +6.24436461294E-006 +1.53879523168E-006 +4.76927570999E-002 +7.53044784069E-002 
+6.81000000000E+009 -2.67515629530E-001 -5.58945775032E-001 +9.21042729169E-003 +6.96247816086E-002 +1.72496311279E-005 +3.83942679036E-005 +5.87875023484E-002 +6.95120468736E-002 
+7.01000000000E+009 -2.82189846039E-001 -5.58241784573E-001 +6.05316124856E-002 +8.92287958413E-003 +1.13551459435E-005 +5.27892279933E-006 +6.89114555717E-002 +6.31704553962E-002 
+7.21000000000E+009 -2.96609163284E-001 -5.57319104671E-001 +2.55933292210E-002 -4.86461184919E-002 +1.35630343721E-005 -2.52750328400E-006 +7.79896900058E-002 +5.44807277620E-002 
+7.41000000000E+009 -3.10365080833E-001 -5.56395590305E-001 -3.56601700187E-002 -3.56968976557E-002 -3.95642382500E-006 +4.38194092567E-006 +8.70453119278E-002 +4.43797558546E-002 
+7.61000000000E+009 -3.23235601187E-001 -5.54906368256E-001 -3.95861044526E-002 +2.02529542148E-002 -4.00037970394E-006 -5.44469730812E-006 +9.36519652605E-002 +3.23088839650E-002 
+7.81000000000E+009 -3.36554557085E-001 -5.52933156490E-001 +4.65324940160E-003 +3.95301878452E-002 +4.53976008430E-006 +2.13345956581E-005 +9.88495498896E-002 +1.98276583105E-002 
+8.01000000000E+009 -3.48877519369E-001 -5.50793230534E-001 +3.52931693196E-002 +7.93086178601E-003 +3.44943873642E-006 +2.07180019061E-005 +1.02512367070E-001 +6.16345414892E-003 
+8.21000000000E+009 -3.60820621252E-001 -5.48423051834E-001 +1.72634869814E-002 -2.71064080298E-002 +1.44646273839E-005 -2.04189855140E-005 +1.04737251997E-001 -7.90141150355E-003 
+8.41000000000E+009 -3.72366577387E-001 -5.45743763447E-001 -1.77444089204E-002 -2.24663130939E-002 +4.93267361890E-006 +1.92183069885E-005 +1.04329697788E-001 -2.31903661042E-002 
+8.61000000000E+009 -3.83852154016E-001 -5.43497562408E-001 -2.54544261843E-002 +6.51154015213E-003 -9.12049927138E-006 +7.36449692340E-007 +1.01029910147E-001 -3.88362146914E-002 
+8.81000000000E+009 -3.94765168428E-001 -5.40955066681E-001 -2.69668363035E-003 +2.37168166786E-002 -7.52394134906E-006 +3.44111663253E-006 +9.56212431192E-002 -5.43845444918E-002 
+9.01000000000E+009 -4.05337452888E-001 -5.38019478321E-001 +1.90304238349E-002 +1.06894550845E-002 -5.37788491783E-006 +9.79015203484E-006 +8.88979062438E-002 -6.83753415942E-002 
+9.21000000000E+009 -4.15621727705E-001 -5.35246968269E-001 +1.57606583089E-002 -1.29804154858E-002 +1.28209949253E-005 +8.70136318554E-006 +7.89089649916E-002 -8.33094194531E-002 
+9.41000000000E+009 -4.25205588341E-001 -5.32467544079E-001 -5.83699904382E-003 -1.77194718271E-002 +1.13720516310E-005 -9.18156729313E-006 +6.62581995130E-002 -9.69581753016E-002 
+9.61000000000E+009 -4.34829562902E-001 -5.29301822186E-001 -1.69592294842E-002 -1.37455703225E-003 -3.53108049467E-007 -2.49177919613E-005 +5.08796423674E-002 -1.08996503055E-001 
+9.81000000000E+009 -4.43592458963E-001 -5.26613175869E-001 -7.30924727395E-003 +1.43213756382E-002 -2.61594341282E-005 -5.80843050102E-007 +3.57232540846E-002 -1.18391901255E-001 
+1.00100000000E+010 -4.52401608229E-001 -5.23541867733E-001 +9.84445959330E-003 +1.10854953527E-002 -9.02199371922E-006 +1.09499587779E-005 +1.89267918468E-002 -1.26343727112E-001 
+1.02100000000E+010 -4.60761159658E-001 -5.20332455635E-001 +1.29724722356E-002 -4.29451419041E-003 +4.94160667586E-006 +7.70852238929E-006 +6.70190376695E-004 -1.33497893810E-001 
+1.04100000000E+010 -4.69304621220E-001 -5.17370402813E-001 +8.68514587637E-004 -1.30587676540E-002 +1.26796367113E-005 -1.20117201732E-005 -2.00055483729E-002 -1.38921827078E-001 
+1.06100000000E+010 -4.77544397116E-001 -5.14036655426E-001 -1.09577998519E-002 -5.07115665823E-003 +3.50582604369E-006 -8.86736415850E-006 -4.19000163674E-002 -1.41428798437E-001 
+1.08100000000E+010 -4.84523683786E-001 -5.11439979076E-001 -8.32483451813E-003 +7.37597653642E-003 +1.03121774373E-005 -2.62232788373E-005 -6.36972859502E-002 -1.41015663743E-001 
+1.10100000000E+010 -4.92017358541E-001 -5.08087575436E-001 +3.47482645884E-003 +1.01043414325E-002 +1.97901372303E-005 +1.26983477458E-005 -8.58801901340E-002 -1.37334138155E-001 
+1.12100000000E+010 -4.98992264271E-001 -5.05522608757E-001 +9.84254106879E-003 +4.42525866674E-004 -8.15909152152E-006 -3.02121657114E-006 -1.09729215503E-001 -1.30820304155E-001 
+1.14100000000E+010 -5.05975067616E-001 -5.02194106579E-001 +4.11618594080E-003 -8.15615244210E-003 +5.88376997257E-006 +1.83988813660E-005 -1.32759571075E-001 -1.20427049696E-001 
+1.16100000000E+010 -5.11700928211E-001 -4.99321460724E-001 -5.80180203542E-003 -6.71731773764E-003 -6.94126993039E-006 -6.70332701702E-006 -1.54531151056E-001 -1.07129484415E-001 
+1.18100000000E+010 -5.18080770969E-001 -4.96390253305E-001 -7.80257536098E-003 +2.73005338386E-003 -1.30562966660E-005 +1.93747910089E-005 -1.74296677113E-001 -9.03903171420E-002 
+1.20100000000E+010 -5.24582386017E-001 -4.92828845978E-001 -6.57232769299E-004 +7.63996271417E-003 -1.98927991732E-005 -2.42751866608E-006 -1.91648751497E-001 -7.08925575018E-002 
+1.22100000000E+010 -5.30952453613E-001 -4.88942891359E-001 +6.65165577084E-003 +3.41904535890E-003 +2.16026710405E-005 -6.24582708042E-006 -2.09154039621E-001 -4.87854294479E-002 
+1.24100000000E+010 -5.36776602268E-001 -4.85660910606E-001 +5.18027227372E-003 -4.53337142244E-003 -2.44727175414E-006 +9.34137187869E-006 -2.23808795214E-001 -2.31868140399E-002 
+1.26100000000E+010 -5.42556822300E-001 -4.82197940350E-001 -1.80732726585E-003 -6.20101345703E-003 +1.20126869660E-005 -2.51845212915E-005 -2.33797952533E-001 +4.52206004411E-003 
+1.28100000000E+010 -5.47928094864E-001 -4.78601545095E-001 -6.24471576884E-003 -6.45147636533E-004 -1.49744982991E-005 +4.97148857903E-006 -2.40259006619E-001 +3.36614958942E-002 
+1.30100000000E+010 -5.53172767162E-001 -4.74601030350E-001 -2.71859881468E-003 +5.15186367556E-003 -1.65071742231E-005 -3.07075993078E-007 -2.43804126978E-001 +6.35653287172E-002 
+1.32100000000E+010 -5.58071136475E-001 -4.71119105816E-001 +3.34415095858E-003 +4.43276995793E-003 +1.23868994706E-005 +4.47091088063E-006 -2.44081035256E-001 +9.51929092407E-002 
+1.34100000000E+010 -5.63085496426E-001 -4.66887772083E-001 +5.18959527835E-003 -1.42739806324E-003 +2.78092352346E-006 -8.49042135087E-006 -2.40632489324E-001 +1.26917392015E-001 
+1.36100000000E+010 -5.66163539886E-001 -4.63143765926E-001 +5.71254058741E-004 -4.93083801121E-003 +2.77339750028E-005 +1.76420126081E-005 -2.32834577560E-001 +1.59861341119E-001 
+1.38100000000E+010 -5.70987761021E-001 -4.59784746170E-001 -4.00157738477E-003 -2.49046180397E-003 +2.11933893297E-005 +4.16615257564E-005 -2.19870254397E-001 +1.92162007093E-001 
+1.40100000000E+010 -5.75525224209E-001 -4.56425279379E-001 -3.74021776952E-003 +2.70881154574E-003 +2.13843031815E-005 -9.18764089874E-006 -2.03053012490E-001 +2.23506346345E-001 
+1.42100000000E+010 -5.79666495323E-001 -4.53241318464E-001 +1.04326766450E-003 +4.14858572185E-003 -1.84610162250E-005 -6.53651932225E-006 -1.82337686419E-001 +2.54887521267E-001 
+1.44100000000E+010 -5.83906054497E-001 -4.49486881495E-001 +4.00848546997E-003 +7.80110422056E-004 -9.03804539121E-006 -6.09243079452E-006 -1.56486362219E-001 +2.83580303192E-001 
+1.46100000000E+010 -5.87240755558E-001 -4.46387231350E-001 +2.20591155812E-003 -3.31150623970E-003 -3.59896603186E-006 +2.78331790469E-005 -1.25688627362E-001 +3.09114009142E-001 
+1.48100000000E+010 -5.90668201447E-001 -4.41004365683E-001 -2.10318574682E-003 -3.02806985565E-003 +1.01570849438E-005 +9.94223773887E-006 -9.27171111107E-002 +3.30996662378E-001 
+1.50100000000E+010 -5.92163085938E-001 -4.39729481936E-001 -3.46337561496E-003 +5.87891554460E-004 +2.02072005777E-005 +2.01126044885E-006 -5.71990460157E-002 +3.50247561932E-001 
+1.52100000000E+010 -5.94735980034E-001 -4.38615798950E-001 -7.19680625480E-004 +3.35546466522E-003 +1.41551909110E-005 -4.19831940235E-006 -1.83737557381E-002 +3.65663260221E-001 
+1.54100000000E+010 -5.97746610641E-001 -4.36140090227E-001 +2.62456154451E-003 +1.83172186371E-003 -1.78600657819E-005 -1.49481929839E-005 +2.42238435894E-002 +3.75794440508E-001 
+1.56100000000E+010 -6.00850284100E-001 -4.32708293200E-001 +2.65190727077E-003 -1.49420648813E-003 -2.41061097768E-005 +8.11107747722E-006 +6.84687867761E-002 +3.79971206188E-001 
+1.58100000000E+010 -6.01645767689E-001 -4.32023435831E-001 -3.92100831959E-004 -2.94060213491E-003 +3.73948410015E-006 +2.96380203508E-005 +1.12628228962E-001 +3.80261093378E-001 
+1.60100000000E+010 -6.03581845760E-001 -4.30881291628E-001 -2.65544606373E-003 -7.65642616898E-004 -4.05832133765E-006 +2.06998156500E-005 +1.58050969243E-001 +3.75249713659E-001 
+1.62100000000E+010 -6.05456173420E-001 -4.29540336132E-001 -1.74849317409E-003 +2.05834023654E-003 -6.93404035701E-006 +5.68469204154E-006 +2.05611661077E-001 +3.64769876003E-001 
+1.64100000000E+010 -6.07411682606E-001 -4.28250700235E-001 +1.22232863214E-003 +2.33048922382E-003 +1.95027723748E-006 +1.25394353745E-005 +2.52589553595E-001 +3.48419815302E-001 
+1.66100000000E+010 -6.10573768616E-001 -4.26378846169E-001 +2.42367736064E-003 -1.88047881238E-004 -2.94022229355E-005 +1.44489540617E-005 +2.96509981155E-001 +3.24749797583E-001 
+1.68100000000E+010 -6.13337874413E-001 -4.24013614655E-001 +8.30379605759E-004 -2.20708199777E-003 +1.90259161172E-005 +6.39522704660E-006 +3.39859455824E-001 +2.97627508640E-001 
+1.70100000000E+010 -6.14627838135E-001 -4.22298848629E-001 -1.71129778028E-003 -1.55303976499E-003 +3.65200176020E-005 -1.50126015797E-006 +3.80335897207E-001 +2.66178727150E-001 
+1.72100000000E+010 -6.16610288620E-001 -4.20813798904E-001 -1.95995555259E-003 +8.46297189128E-004 -1.15914454000E-005 -1.10488451810E-006 +4.18201446533E-001 +2.27606847882E-001 
+1.74100000000E+010 -6.19899868965E-001 -4.19257253408E-001 -1.60641269758E-004 +2.08632671274E-003 +1.05011686173E-005 +2.16677417484E-005 +4.51704353094E-001 +1.84227213264E-001 
+1.76100000000E+010 -6.22884690762E-001 -4.17355149984E-001 +1.93516886793E-003 +8.78432416357E-004 -1.36732105602E-005 -2.23845363507E-005 +4.79379266500E-001 +1.37980788946E-001 
+1.78100000000E+010 -6.25919282436E-001 -4.15283471346E-001 +1.50739261881E-003 -1.43007072620E-003 +1.53004675667E-005 +1.30943826662E-005 +5.02900779247E-001 +8.92863273621E-002 
+1.80100000000E+010 -6.28322839737E-001 -4.13151025772E-001 -6.97238254361E-004 -1.81085988879E-003 -1.03880283859E-005 +4.35876754636E-005 +5.21989583969E-001 +3.78966033459E-002 
+1.82100000000E+010 -6.31357252598E-001 -4.11276906729E-001 -1.89883494750E-003 -1.53613509610E-004 -2.19132016355E-005 -4.28761632065E-006 +5.34511804581E-001 -1.68274808675E-002 
+1.84100000000E+010 -6.34192585945E-001 -4.09539818764E-001 -7.56350462325E-004 +1.61343114451E-003 +4.30505533586E-005 +8.57516261021E-006 +5.40745317936E-001 -7.41325467825E-002 
+1.86100000000E+010 -6.37014150620E-001 -4.07561451197E-001 +1.06917298399E-003 +1.26566865947E-003 -1.43359488902E-006 +1.20360855362E-005 +5.40894985199E-001 -1.30953282118E-001 
+1.88100000000E+010 -6.39378726482E-001 -4.05562937260E-001 +1.61405222025E-003 -4.56613110146E-004 -1.35362887566E-009 +2.33210062106E-006 +5.35343647003E-001 -1.87900111079E-001 
+1.90100000000E+010 -6.41747117043E-001 -4.04025465250E-001 +1.23345278553E-004 -1.54319731519E-003 -1.82436906471E-005 -1.32005934574E-005 +5.23886263371E-001 -2.44692265987E-001 
+1.92100000000E+010 -6.44877672195E-001 -4.02588009834E-001 -1.33099779487E-003 -7.81002105214E-004 -1.10102264443E-005 +3.26398658217E-005 +5.05064606667E-001 -3.02556872368E-001 
+1.94100000000E+010 -6.47888302803E-001 -3.99531811476E-001 -1.22663821094E-003 +9.04898450244E-004 +2.00173417397E-005 -7.86804775998E-006 +4.79490399361E-001 -3.57584536076E-001 
+1.96100000000E+010 -6.48454308510E-001 -3.96980315447E-001 +3.06415284285E-004 +1.33619760163E-003 -1.29013105834E-005 -3.59360528819E-005 +4.48592603207E-001 -4.09548044205E-001 
+1.98100000000E+010 -6.47625744343E-001 -3.94212484360E-001 +1.37190602254E-003 +2.67450464889E-004 -2.92925105896E-005 -1.37935676321E-005 +4.14420753717E-001 -4.56942588091E-001 
+2.00100000000E+010 -6.46918118000E-001 -3.93987596035E-001 +7.63427815400E-004 -1.13640923519E-003 +1.36508879223E-005 -2.49464665103E-006 +3.72280269861E-001 -5.03829181194E-001 
