!;Filter: kein Filter
!auto
!3/21/2019 9:27:39 AM
!3/21/2019 9:27:53 AM
!SP-Measurements Prober G4
!SP-Measurements Prober G4
!01103_448C
!134
!233
!12
!50
!-20
!0.00499992
!1.96
!0.64375220
!0.64375220
# Hz S  RI   R 50
+1.00000000000E+007 +2.42262676358E-001 +4.14311140776E-003 +4.25847619772E-002 -1.58730074763E-002 +3.81806661608E-004 -5.18284097780E-004 +4.69380849972E-003 +6.40950514935E-004 
+2.10000000000E+008 +2.54145860672E-001 -2.49621048570E-002 -1.61956809461E-003 -4.39725071192E-002 +3.73602888430E-005 -8.92593670869E-005 +8.74634832144E-003 -4.54028416425E-003 
+4.10000000000E+008 +2.56039202213E-001 -5.63628897071E-002 -4.12102043629E-002 -1.40065876767E-002 -2.10923335544E-005 -2.05073829420E-005 +1.01917888969E-002 -7.25053995848E-003 
+6.10000000000E+008 +2.54710376263E-001 -8.83906856179E-002 -2.69006583840E-002 +3.32562290132E-002 +1.39241581110E-006 +5.36281295354E-005 +9.70305223018E-003 -1.15146273747E-002 
+8.10000000000E+008 +2.50023961067E-001 -1.20714478195E-001 +2.14140769094E-002 +3.67514863610E-002 +2.68284547928E-005 +3.92421461584E-005 +6.98200846091E-003 -1.52794290334E-002 
+1.01000000000E+009 +2.42608040571E-001 -1.51803120971E-001 +4.22699004412E-002 -6.89339544624E-003 +1.16489090942E-005 -2.13929233723E-005 +2.82745086588E-003 -1.90510731190E-002 
+1.21000000000E+009 +2.33513012528E-001 -1.82094871998E-001 +8.21310561150E-003 -4.08958010375E-002 -8.00912675913E-006 +1.05847930172E-005 -1.76114169881E-003 -2.11544856429E-002 
+1.41000000000E+009 +2.22264006734E-001 -2.11841911077E-001 -3.53138968349E-002 -2.23136916757E-002 +4.15279782828E-006 -8.09778066468E-006 -7.54475034773E-003 -2.45150849223E-002 
+1.61000000000E+009 +2.09888696671E-001 -2.40114331245E-001 -3.30951996148E-002 +2.52429600805E-002 +1.49586121552E-005 -7.24404753782E-006 -1.37500362471E-002 -2.67605520785E-002 
+1.81000000000E+009 +1.95588514209E-001 -2.67329186201E-001 +1.14009380341E-002 +3.90913337469E-002 +2.64000082097E-005 -8.53827259562E-006 -1.76932718605E-002 -2.78077553958E-002 
+2.01000000000E+009 +1.80611595511E-001 -2.93148398399E-001 +4.08478416502E-002 +3.46641871147E-003 -4.55259760201E-006 -1.32602472149E-005 -2.32459753752E-002 -2.67217308283E-002 
+2.21000000000E+009 +1.64303794503E-001 -3.17931443453E-001 +1.70870646834E-002 -3.71553488076E-002 -2.64658092419E-006 +2.21841219172E-006 -2.88245212287E-002 -2.45765112340E-002 
+2.41000000000E+009 +1.46439418197E-001 -3.40947419405E-001 -2.77616027743E-002 -2.88562327623E-002 +7.90287231212E-006 +2.01802704396E-005 -3.54376733303E-002 -2.23315004259E-002 
+2.61000000000E+009 +1.28230959177E-001 -3.62484991550E-001 -3.71335446835E-002 +1.58398598433E-002 -2.62734124590E-006 -3.56463533535E-006 -4.07820083201E-002 -1.93717330694E-002 
+2.81000000000E+009 +1.09151430428E-001 -3.82625401020E-001 +2.27321544662E-003 +3.96170690656E-002 +2.72160123131E-005 -4.94046616950E-006 -4.47149910033E-002 -1.44320977852E-002 
+3.01000000000E+009 +8.93791615963E-002 -4.00993764400E-001 +3.71740162373E-002 +1.24106174335E-002 +4.32233264291E-007 -2.04753337130E-006 -4.85972762108E-002 -8.69036372751E-003 
+3.21000000000E+009 +6.94803670049E-002 -4.18092250824E-001 +2.47685480863E-002 -3.04194800556E-002 +1.91446761164E-005 +8.23281334306E-006 -5.24941273034E-002 -2.16287351213E-003 
+3.41000000000E+009 +4.95720282197E-002 -4.33853298426E-001 -1.96164678782E-002 -3.33412438631E-002 +2.05750529858E-005 -1.13744245027E-005 -5.54047673941E-002 +4.85922954977E-003 
+3.61000000000E+009 +2.95022223145E-002 -4.48218852282E-001 -3.77510152757E-002 +5.86971547455E-003 +4.62690969982E-008 -2.75653637800E-005 -5.71999177337E-002 +1.18695329875E-002 
+3.81000000000E+009 +9.19518619776E-003 -4.61125552654E-001 -7.98874627799E-003 +3.75277437270E-002 +2.10963062273E-005 -2.67323548542E-006 -5.70224523544E-002 +1.92939713597E-002 
+4.01000000000E+009 -1.06468517333E-002 -4.73134011030E-001 +3.16915772855E-002 +2.02346574515E-002 +2.93164357572E-005 +9.65428898780E-006 -5.60442954302E-002 +2.71877031773E-002 
+4.21000000000E+009 -3.06145045906E-002 -4.83741939068E-001 +3.02882064134E-002 -2.18529924750E-002 +1.11248673420E-005 -6.78252808939E-006 -5.41414543986E-002 +3.58717963099E-002 
+4.41000000000E+009 -5.01775033772E-002 -4.93260055780E-001 -9.56895481795E-003 -3.62030118704E-002 -3.62270438927E-005 +2.54768983723E-005 -5.10179288685E-002 +4.42775189877E-002 
+4.61000000000E+009 -6.94451257586E-002 -5.01745045185E-001 -3.66248488426E-002 -3.88485356234E-003 -4.00425506086E-006 +1.85293483810E-005 -4.68243658543E-002 +5.15480414033E-002 
+4.81000000000E+009 -8.86581242085E-002 -5.09375154972E-001 -1.70695129782E-002 +3.26355136931E-002 +2.20630809054E-005 -2.22077433136E-005 -4.02094013989E-002 +5.87717518210E-002 
+5.01000000000E+009 -1.07270181179E-001 -5.16516149044E-001 +2.43410449475E-002 +2.77677401900E-002 +1.23470726976E-006 -1.96128403331E-005 -3.35850045085E-002 +6.53967708349E-002 
+5.21000000000E+009 -1.25443965197E-001 -5.22882699966E-001 +3.45284827054E-002 -1.28365289420E-002 +1.62654905580E-005 +1.33436351462E-005 -2.61720214039E-002 +7.14019834995E-002 
+5.41000000000E+009 -1.43366426229E-001 -5.28117775917E-001 +5.33003825694E-004 -3.69848459959E-002 -2.83051758743E-006 +1.02712544958E-006 -1.72910913825E-002 +7.65266492963E-002 
+5.61000000000E+009 -1.61276936531E-001 -5.33036947250E-001 -3.45576144755E-002 -1.39041692019E-002 -9.67833602772E-006 +1.61072348419E-005 -7.52991158515E-003 +7.96691328287E-002 
+5.81000000000E+009 -1.78386136889E-001 -5.36953508854E-001 -2.52179894596E-002 +2.77397613972E-002 +7.58719443184E-006 -4.77941284771E-005 +3.01938434131E-003 +8.06359574199E-002 
+6.01000000000E+009 -1.94959908724E-001 -5.39997160435E-001 +1.70703958720E-002 +3.34692522883E-002 -3.70363522961E-005 +2.30890600506E-006 +1.42043847591E-002 +8.25466960669E-002 
+6.21000000000E+009 -2.11360946298E-001 -5.42515158653E-001 +3.81204970181E-002 -4.40714647993E-003 -2.05735232157E-005 -1.92998822968E-006 +2.49800272286E-002 +8.20445492864E-002 
+6.41000000000E+009 -2.27059945464E-001 -5.44521570206E-001 +8.82116146386E-003 -3.74462120235E-002 +3.27311245201E-005 -1.08857502710E-005 +3.65394242108E-002 +8.01562443376E-002 
+6.61000000000E+009 -2.42692917585E-001 -5.46103179455E-001 -3.20271514356E-002 -2.10694130510E-002 +1.63215954672E-005 -5.66984135730E-006 +4.77394461632E-002 +7.51021653414E-002 
+6.81000000000E+009 -2.57942318916E-001 -5.47147393227E-001 -3.12253572047E-002 +2.34189834446E-002 +1.79350718099E-005 -7.19447552910E-006 +5.85770159960E-002 +6.92723169923E-002 
+7.01000000000E+009 -2.72580087185E-001 -5.47813892365E-001 +1.22394906357E-002 +3.73390242457E-002 -8.00245743449E-006 -1.09282345875E-005 +6.85565918684E-002 +6.29620924592E-002 
+7.21000000000E+009 -2.86908805370E-001 -5.47959923744E-001 +3.87196503580E-002 +1.06184824836E-003 +1.58373609338E-006 +2.23775314225E-005 +7.76872858405E-002 +5.44284060597E-002 
+7.41000000000E+009 -3.00595670938E-001 -5.48040032387E-001 +1.39032155275E-002 -3.65813858807E-002 +6.09479002378E-006 +1.93257146748E-005 +8.68607908487E-002 +4.42434884608E-002 
+7.61000000000E+009 -3.13522219658E-001 -5.47469854355E-001 -3.01562398672E-002 -2.44632437825E-002 -1.04747505247E-005 +1.41063374031E-005 +9.32524055243E-002 +3.21557596326E-002 
+7.81000000000E+009 -3.26740443707E-001 -5.46305537224E-001 -3.22074554861E-002 +2.01505217701E-002 +2.00987651624E-005 +3.82444159186E-005 +9.87349227071E-002 +1.98257341981E-002 
+8.01000000000E+009 -3.38982284069E-001 -5.45004189014E-001 +8.52434616536E-003 +3.68763916194E-002 +1.10221926661E-005 -5.61626438866E-006 +1.02340482175E-001 +6.07246998698E-003 
+8.21000000000E+009 -3.51064711809E-001 -5.43413341045E-001 +3.68238687515E-002 +2.81971017830E-003 +1.84401069419E-005 +1.32170434881E-005 +1.04494623840E-001 -8.18335544318E-003 
+8.41000000000E+009 -3.62752407789E-001 -5.41318476200E-001 +1.40768531710E-002 -3.25079858303E-002 -1.85968747246E-006 -1.80549977813E-005 +1.04035578668E-001 -2.33156979084E-002 
+8.61000000000E+009 -3.74142497778E-001 -5.39474487305E-001 -2.57519297302E-002 -2.34745014459E-002 -2.46473646257E-005 +1.71020528796E-005 +1.00717358291E-001 -3.87586764991E-002 
+8.81000000000E+009 -3.85001838207E-001 -5.37464737892E-001 -2.89313104004E-002 +1.68446395546E-002 -1.52327993419E-005 +8.64176581672E-006 +9.53128561378E-002 -5.43445795774E-002 
+9.01000000000E+009 -3.95533859730E-001 -5.35076677799E-001 +6.09838450328E-003 +3.10439541936E-002 -4.87756506118E-006 +1.03915795080E-006 +8.85448753834E-002 -6.81670457125E-002 
+9.21000000000E+009 -4.05784875154E-001 -5.32716989517E-001 +3.01783699542E-002 +4.14116494358E-003 -3.85141856896E-006 +2.21597429118E-006 +7.86816999316E-002 -8.30138474703E-002 
+9.41000000000E+009 -4.15298998356E-001 -5.30389666557E-001 +1.23900333419E-002 -2.58377641439E-002 -2.21195441554E-005 -6.71818997944E-006 +6.61109685898E-002 -9.66031625867E-002 
+9.61000000000E+009 -4.24752712250E-001 -5.27609527111E-001 -1.85353998095E-002 -1.87786277384E-002 +1.58802795340E-005 -2.18647091970E-005 +5.09020537138E-002 -1.08832716942E-001 
+9.81000000000E+009 -4.33530628681E-001 -5.25632977486E-001 -2.28743832558E-002 +1.04054324329E-002 -1.00397583083E-005 -2.63616948359E-005 +3.57132293284E-002 -1.18188038468E-001 
+1.00100000000E+010 -4.42592799664E-001 -5.22817313671E-001 +2.19138059765E-003 +2.32364423573E-002 -2.07629136639E-006 +2.16225798795E-005 +1.86733864248E-002 -1.26032665372E-001 
+1.02100000000E+010 -4.50810074806E-001 -5.19794106483E-001 +2.08199918270E-002 +5.90872298926E-003 -1.30620537675E-005 +2.03443437385E-006 +4.78211819427E-004 -1.32939100266E-001 
+1.04100000000E+010 -4.59090530872E-001 -5.17233312130E-001 +1.19683546945E-002 -1.70074459165E-002 +1.18690541058E-005 +5.37189725947E-006 -2.01212074608E-002 -1.38233736157E-001 
+1.06100000000E+010 -4.67142164707E-001 -5.14446735382E-001 -1.08980117366E-002 -1.53404437006E-002 +2.75651655102E-005 -3.25542387145E-005 -4.17900830507E-002 -1.40853926539E-001 
+1.08100000000E+010 -4.74049061537E-001 -5.12406229973E-001 -1.68067440391E-002 +3.77153977752E-003 -1.45636147408E-006 +5.69993108002E-006 -6.35913759470E-002 -1.40485167503E-001 
+1.10100000000E+010 -4.81363087893E-001 -5.09702444077E-001 -2.63199093752E-003 +1.62035040557E-002 +3.93745676774E-006 +1.42466487887E-005 -8.56514945626E-002 -1.36845022440E-001 
+1.12100000000E+010 -4.88090455532E-001 -5.07798850536E-001 +1.32850529626E-002 +7.62551557273E-003 -3.15518286698E-006 +2.31224312301E-005 -1.09477125108E-001 -1.30399391055E-001 
+1.14100000000E+010 -4.95143115520E-001 -5.05076408386E-001 +1.12405354157E-002 -8.69436375797E-003 +7.38535663913E-006 -1.29500776893E-005 -1.32478073239E-001 -1.20272405446E-001 
+1.16100000000E+010 -5.00684559345E-001 -5.02667784691E-001 -3.79921216518E-003 -1.30901001394E-002 -1.78010031959E-005 -4.71593330076E-006 -1.54365047812E-001 -1.06841050088E-001 
+1.18100000000E+010 -5.06661593914E-001 -5.00200331211E-001 -1.26290060580E-002 -9.11504728720E-004 +1.53358523676E-005 -3.77258925255E-006 -1.74033463001E-001 -8.99931043386E-002 
+1.20100000000E+010 -5.12695610523E-001 -4.97382819653E-001 -5.39840012789E-003 +1.03775737807E-002 -1.65285064213E-006 -1.86862453120E-005 -1.91120028496E-001 -7.04672634602E-002 
+1.22100000000E+010 -5.18825769424E-001 -4.94213461876E-001 +7.30095058680E-003 +8.55817180127E-003 -2.04751268029E-005 +1.78783957381E-005 -2.08516359329E-001 -4.85571175814E-002 
+1.24100000000E+010 -5.24285793304E-001 -4.91551756859E-001 +9.86632239074E-003 -3.47651378252E-003 +1.02641661215E-005 +2.23796796490E-005 -2.22990661860E-001 -2.33432576060E-002 
+1.26100000000E+010 -5.29721021652E-001 -4.88733738661E-001 +6.85456732754E-004 -9.75494924933E-003 +1.37581646413E-005 +4.88345312988E-006 -2.33377084136E-001 +4.39408607781E-003 
+1.28100000000E+010 -5.34863471985E-001 -4.85850155354E-001 -8.46554897726E-003 -4.14957758039E-003 +8.68785446073E-006 +1.19003570944E-005 -2.39620298147E-001 +3.35184708238E-002 
+1.30100000000E+010 -5.39982795715E-001 -4.82330054045E-001 -6.56684348360E-003 +5.94191811979E-003 -2.92496752081E-005 -3.59771984222E-005 -2.43361189961E-001 +6.34776130319E-002 
+1.32100000000E+010 -5.44638752937E-001 -4.79291915894E-001 +2.70512443967E-003 +7.87826534361E-003 -1.05436697595E-006 +3.09556389766E-006 -2.43627071381E-001 +9.50552523136E-002 
+1.34100000000E+010 -5.49361109734E-001 -4.75592464209E-001 +8.04959889501E-003 +4.22176002758E-004 +8.00749603513E-006 -1.67647558555E-005 -2.40082532167E-001 +1.26845300198E-001 
+1.36100000000E+010 -5.52277386189E-001 -4.72525030375E-001 +3.10525810346E-003 -6.84197107330E-003 -3.80714445782E-005 +1.08319391074E-005 -2.32260242105E-001 +1.59669712186E-001 
+1.38100000000E+010 -5.57084739208E-001 -4.70059424639E-001 -4.72254026681E-003 -5.21093839779E-003 -1.49757461259E-005 +1.79634898814E-005 -2.19157844782E-001 +1.91760733724E-001 
+1.40100000000E+010 -5.61764299870E-001 -4.67189520597E-001 -6.38354010880E-003 +2.32813437469E-003 -1.02698259070E-005 -1.79515700438E-006 -2.02382609248E-001 +2.22904101014E-001 
+1.42100000000E+010 -5.65908968449E-001 -4.64635521173E-001 -1.06223553303E-004 +6.32128398865E-003 -1.42725766636E-005 +9.75261082203E-006 -1.81928634644E-001 +2.54121482372E-001 
+1.44100000000E+010 -5.70329546928E-001 -4.61330741644E-001 +5.28606632724E-003 +2.51712044701E-003 +1.15621478471E-005 -2.32052043430E-005 -1.56159430742E-001 +2.82779902220E-001 
+1.46100000000E+010 -5.73714554310E-001 -4.58635360003E-001 +4.25049383193E-003 -3.78603441641E-003 +5.46793262401E-006 +8.34710863273E-006 -1.25471338630E-001 +3.08299362659E-001 
+1.48100000000E+010 -5.77015340328E-001 -4.53774362803E-001 -1.77570641972E-003 -4.91356244311E-003 -4.27288177889E-005 -1.93426567421E-005 -9.24726575613E-002 +3.30398380756E-001 
+1.50100000000E+010 -5.78544259071E-001 -4.53146189451E-001 -4.92981076241E-003 -4.79335576529E-004 +5.33346928933E-006 -1.29321624627E-005 -5.67826591432E-002 +3.49758625031E-001 
+1.52100000000E+010 -5.81129014492E-001 -4.52798694372E-001 -2.33957846649E-003 +4.10432182252E-003 -2.79492678601E-006 -1.60046056408E-006 -1.78732313216E-002 +3.64794909954E-001 
+1.54100000000E+010 -5.84535241127E-001 -4.51142191887E-001 +2.72116763517E-003 +3.64399282262E-003 +1.39487319757E-005 +5.86281294090E-006 +2.44093891233E-002 +3.74753177166E-001 
+1.56100000000E+010 -5.88060736656E-001 -4.48134869337E-001 +4.39941696823E-003 -9.99990734272E-004 +8.11405425338E-006 +7.16523891242E-006 +6.83933421969E-002 +3.79040539265E-001 
+1.58100000000E+010 -5.89386940002E-001 -4.47786897421E-001 +6.78617099766E-004 -4.41739754751E-003 +8.49145362736E-006 +8.07433571026E-006 +1.12324155867E-001 +3.79444211721E-001 
+1.60100000000E+010 -5.91670572758E-001 -4.46733087301E-001 -3.64109897055E-003 -2.14688130654E-003 +3.14501630783E-005 -2.74054218607E-005 +1.57543927431E-001 +3.74484211206E-001 
+1.62100000000E+010 -5.94007551670E-001 -4.45586413145E-001 -3.26336314902E-003 +2.33390857466E-003 -4.37935023001E-006 -1.73173539224E-005 +2.05113306642E-001 +3.64115476608E-001 
+1.64100000000E+010 -5.95990419388E-001 -4.44506138563E-001 +9.00098355487E-004 +3.79296904430E-003 -3.29370559484E-005 -2.70768232440E-005 +2.52000659704E-001 +3.47945928574E-001 
+1.66100000000E+010 -5.99544346333E-001 -4.43281531334E-001 +3.63366398960E-003 +5.27169555426E-004 +1.24274756672E-005 -1.82739913726E-005 +2.96024143696E-001 +3.24283272028E-001 
+1.68100000000E+010 -6.02861285210E-001 -4.41270112991E-001 +1.87789730262E-003 -2.94757192023E-003 +1.42097751450E-005 -4.02700970881E-006 +3.39378356934E-001 +2.96835750341E-001 
+1.70100000000E+010 -6.04849100113E-001 -4.39574480057E-001 -1.96431879885E-003 -2.78405006975E-003 -4.83849225930E-006 +4.16171023971E-005 +3.79485011101E-001 +2.65451282263E-001 
+1.72100000000E+010 -6.07402563095E-001 -4.37925010920E-001 -3.07477451861E-003 +7.33725377358E-004 +2.18606437556E-005 +1.01637970147E-005 +4.17008370161E-001 +2.26833179593E-001 
+1.74100000000E+010 -6.10572159290E-001 -4.36354517937E-001 -6.17740442976E-004 +3.00438026898E-003 -2.49269232881E-005 -2.73757614195E-005 +4.50444936752E-001 +1.83974578977E-001 
+1.76100000000E+010 -6.13383412361E-001 -4.34598863125E-001 +2.47415457852E-003 +1.67393824086E-003 +4.95509766552E-006 +2.52910904237E-005 +4.78296369314E-001 +1.37921437621E-001 
+1.78100000000E+010 -6.16535663605E-001 -4.32785868645E-001 +2.34849355184E-003 -1.56220898498E-003 +1.94765652850E-005 -4.18942763645E-005 +5.01890122890E-001 +8.90706405044E-002 
+1.80100000000E+010 -6.19235277176E-001 -4.30895090103E-001 -4.28962841397E-004 -2.62574153021E-003 -2.26621086767E-005 -1.18849993669E-005 +5.21127879620E-001 +3.78262475133E-002 
+1.82100000000E+010 -6.22237503529E-001 -4.29315060377E-001 -2.54221074283E-003 -6.40136131551E-004 +1.02518906715E-005 +2.37222393480E-005 +5.33799231052E-001 -1.68993547559E-002 
+1.84100000000E+010 -6.25198602676E-001 -4.27963405848E-001 -1.48186238948E-003 +1.99252972379E-003 -3.11876610795E-005 -1.91149192688E-005 +5.39928913116E-001 -7.42855966091E-002 
+1.86100000000E+010 -6.28453731537E-001 -4.26251709461E-001 +1.15599436685E-003 +2.08851788193E-003 +2.32749316638E-005 +3.57275757779E-006 +5.40052533150E-001 -1.31005063653E-001 
+1.88100000000E+010 -6.31184816360E-001 -4.24056380987E-001 +2.31286394410E-003 -2.11277423659E-004 -3.32587260345E-005 +7.17589318810E-006 +5.34146189690E-001 -1.87733203173E-001 
+1.90100000000E+010 -6.33178353310E-001 -4.22521948814E-001 +6.49039808195E-004 -2.10276711732E-003 -1.41461778185E-005 -1.68161968759E-005 +5.22414982319E-001 -2.44047373533E-001 
+1.92100000000E+010 -6.35836362839E-001 -4.21693533659E-001 -1.62091851234E-003 -1.42470956780E-003 -8.05812078397E-007 +1.00288307294E-005 +5.04399478436E-001 -3.01631480455E-001 
+1.94100000000E+010 -6.38698458672E-001 -4.19859677553E-001 -1.85986456927E-003 +8.67842580192E-004 +3.96086761612E-005 +2.65737453446E-005 +4.79129612446E-001 -3.56508821249E-001 
+1.96100000000E+010 -6.39981448650E-001 -4.18008625507E-001 +6.24027597951E-005 +1.92489090841E-003 +4.74167172797E-005 +1.71525675796E-006 +4.48365867138E-001 -4.08781796694E-001 
+1.98100000000E+010 -6.40115022659E-001 -4.15402561426E-001 +1.76863977686E-003 +7.33822525945E-004 -1.46671500261E-005 -4.44639908892E-006 +4.13480192423E-001 -4.56418991089E-001 
+2.00100000000E+010 -6.39898240566E-001 -4.14265662432E-001 +1.31480966229E-003 -1.36097439099E-003 -9.64570790529E-006 -7.37979371479E-006 +3.71685206890E-001 -5.02883374691E-001 
