!;Filter: kein Filter
!auto
!3/21/2019 9:27:54 AM
!3/21/2019 9:28:10 AM
!SP-Measurements Prober G4
!SP-Measurements Prober G4
!01103_448C
!134
!237
!12
!50
!-20
!0.00599970
!2.02
!0.74959551
!0.74959551
# Hz S  RI   R 50
+1.00000000000E+007 +8.39328467846E-002 +6.04752078652E-003 +6.01341873407E-002 -2.30289064348E-002 +1.33539011586E-004 -3.20773309795E-004 +5.29608689249E-003 +2.99762090435E-004 
+2.10000000000E+008 +1.00272551179E-001 -1.92499924451E-002 -2.65893875621E-004 -6.30044788122E-002 -4.91562350362E-005 +1.19225787785E-005 +8.74641723931E-003 -4.47256630287E-003 
+4.10000000000E+008 +1.01948507130E-001 -4.53519150615E-002 -5.92689774930E-002 -2.29840856045E-002 +3.35996664944E-005 -1.91887811525E-005 +1.01550826803E-002 -7.27056106552E-003 
+6.10000000000E+008 +1.00800149143E-001 -7.10660293698E-002 -4.20777946711E-002 +4.76742945611E-002 +1.05945564428E-005 -7.28361737856E-006 +9.68731939793E-003 -1.14794597030E-002 
+8.10000000000E+008 +9.69434529543E-002 -9.71866622567E-002 +2.98246592283E-002 +5.67034482956E-002 +3.46670003637E-006 +2.20192614506E-005 +6.96732802317E-003 -1.52799850330E-002 
+1.01000000000E+009 +9.14075449109E-002 -1.22173897922E-001 +6.45192414522E-002 -8.19619558752E-003 -2.81016091321E-005 +2.82873024844E-005 +2.82294000499E-003 -1.89941376448E-002 
+1.21000000000E+009 +8.42594206333E-002 -1.46618291736E-001 +1.43315866590E-002 -6.17399103940E-002 -4.39267387264E-006 +1.98086672754E-005 -1.72760686837E-003 -2.11445651948E-002 
+1.41000000000E+009 +7.54777565598E-002 -1.70500144362E-001 -5.23774176836E-002 -3.59647162259E-002 +1.73640444245E-006 -1.74274136953E-005 -7.53611000255E-003 -2.45064031333E-002 
+1.61000000000E+009 +6.61459565163E-002 -1.93554952741E-001 -5.21284490824E-002 +3.70811186731E-002 -1.11997851491E-005 -2.45715891651E-005 -1.37344626710E-002 -2.67166029662E-002 
+1.81000000000E+009 +5.48792257905E-002 -2.15410724282E-001 +1.50862885639E-002 +6.07162788510E-002 -5.14904786542E-006 -9.02868032426E-006 -1.76475066692E-002 -2.77927853167E-002 
+2.01000000000E+009 +4.35417406261E-002 -2.36331880093E-001 +6.28930181265E-002 +8.18803999573E-003 -8.04636056273E-006 +1.74198758032E-005 -2.31887400150E-002 -2.67098527402E-002 
+2.21000000000E+009 +3.09790056199E-002 -2.56663829088E-001 +2.89794933051E-002 -5.63136450946E-002 +2.03084309760E-005 -5.12904298375E-005 -2.87941377610E-002 -2.45505217463E-002 
+2.41000000000E+009 +1.73196587712E-002 -2.75263786316E-001 -4.09585423768E-002 -4.72001284361E-002 -2.21975665227E-006 +1.03096404303E-007 -3.54099161923E-002 -2.23177019507E-002 
+2.61000000000E+009 +3.58602497727E-003 -2.92964786291E-001 -5.96725977957E-002 +2.15906146914E-002 -1.26280583572E-005 -1.06578499981E-005 -4.07144203782E-002 -1.93359684199E-002 
+2.81000000000E+009 -1.09410695732E-002 -3.09602409601E-001 -1.98702298803E-004 +6.29638656974E-002 -2.52524168900E-005 -1.12887100840E-005 -4.46444191039E-002 -1.43968481570E-002 
+3.01000000000E+009 -2.59057283401E-002 -3.24865221977E-001 +5.79330213368E-002 +2.37274728715E-002 +3.27658599417E-005 +4.01887518819E-006 -4.84755225480E-002 -8.71492922306E-003 
+3.21000000000E+009 -4.08477708697E-002 -3.39374125004E-001 +4.38320674002E-002 -4.66344431043E-002 -2.71393491857E-006 -2.35496258938E-006 -5.24165108800E-002 -2.22551403567E-003 
+3.41000000000E+009 -5.59712275863E-002 -3.52999746799E-001 -2.85324323922E-002 -5.67521899939E-002 -1.20007516671E-005 +7.29801377020E-006 -5.53044378757E-002 +4.86144982278E-003 
+3.61000000000E+009 -7.12409988046E-002 -3.65611106157E-001 -6.35912194848E-002 +5.17561566085E-003 -1.26276299852E-005 +9.49177592702E-006 -5.71306161582E-002 +1.18011888117E-002 
+3.81000000000E+009 -8.67531672120E-002 -3.77213567495E-001 -1.75178144127E-002 +6.30942210555E-002 -3.88376474802E-006 -5.43051737623E-006 -5.69144412875E-002 +1.91805902869E-002 
+4.01000000000E+009 -1.02051496506E-001 -3.88175725937E-001 +5.22149838507E-002 +3.78058068454E-002 -5.10220670549E-005 +5.59483987672E-006 -5.59724755585E-002 +2.70843636245E-002 
+4.21000000000E+009 -1.17411725223E-001 -3.98026406765E-001 +5.54921850562E-002 -3.48536409438E-002 +2.72818942904E-005 +5.77442779104E-006 -5.40426596999E-002 +3.57648208737E-002 
+4.41000000000E+009 -1.32686242461E-001 -4.07185047865E-001 -1.43788428977E-002 -6.54372200370E-002 +4.25803546023E-006 +3.34871183441E-005 -5.09750805795E-002 +4.41307909787E-002 
+4.61000000000E+009 -1.47796794772E-001 -4.15474563837E-001 -6.57155737281E-002 -9.71003249288E-003 -2.80524523077E-006 +1.04840401036E-005 -4.67968285084E-002 +5.14202937484E-002 
+4.81000000000E+009 -1.62914887071E-001 -4.23119366169E-001 -3.39431688190E-002 +5.93529157341E-002 -1.21002431115E-005 +1.07130126707E-005 -4.02144044638E-002 +5.86544983089E-002 
+5.01000000000E+009 -1.77733436227E-001 -4.30589318275E-001 +4.58338893950E-002 +5.29547780752E-002 -2.54483747995E-005 -2.35566476476E-005 -3.36010381579E-002 +6.52936100960E-002 
+5.21000000000E+009 -1.92300468683E-001 -4.37399685383E-001 +6.59662559628E-002 -2.45801899582E-002 -2.85033343062E-006 -2.89589679596E-005 -2.61814352125E-002 +7.12578296661E-002 
+5.41000000000E+009 -2.06678912044E-001 -4.43199574947E-001 -9.25375788938E-005 -7.29103833437E-002 -2.77477556665E-005 -1.81089035323E-005 -1.73396356404E-002 +7.64375999570E-002 
+5.61000000000E+009 -2.21386596560E-001 -4.48894768953E-001 -7.10295066237E-002 -2.35765706748E-002 +1.08616213765E-005 +2.19504158849E-006 -7.54623953253E-003 +7.95600190759E-002 
+5.81000000000E+009 -2.35333487391E-001 -4.53518837690E-001 -4.63653430343E-002 +5.95126226544E-002 -1.92514889932E-005 +1.10848104669E-005 +2.95248441398E-003 +8.04971083999E-002 
+6.01000000000E+009 -2.48940333724E-001 -4.57570105791E-001 +4.28103134036E-002 +6.56508132815E-002 -1.92303764379E-006 +6.63477430862E-006 +1.41354808584E-002 +8.24136808515E-002 
+6.21000000000E+009 -2.62704789639E-001 -4.61100697517E-001 +7.65378177166E-002 -2.21406053752E-002 -2.15435356949E-005 -3.06610763801E-006 +2.48992759734E-002 +8.19125249982E-002 
+6.41000000000E+009 -2.75768637657E-001 -4.64073181152E-001 +3.28949955292E-003 -7.96220749617E-002 +9.20581624086E-006 +1.63570803124E-005 +3.63982133567E-002 +8.00452828407E-002 
+6.61000000000E+009 -2.89046019316E-001 -4.66708451509E-001 -7.69244059920E-002 -2.72327046841E-002 -1.69337617990E-005 +2.66904426098E-005 +4.75863963366E-002 +7.50486925244E-002 
+6.81000000000E+009 -3.01979571581E-001 -4.68732774258E-001 -4.65810708702E-002 +6.54696673155E-002 +8.00484576757E-006 +1.31038113977E-005 +5.84119856358E-002 +6.92141875625E-002 
+7.01000000000E+009 -3.14317256212E-001 -4.70427602530E-001 +4.69576828182E-002 +6.32614269853E-002 +5.16959607921E-006 -7.46108344174E-006 +6.83774203062E-002 +6.29089325666E-002 
+7.21000000000E+009 -3.26576203108E-001 -4.71578180790E-001 +7.34309703112E-002 -2.76082959026E-002 -1.94912427105E-005 -6.94674099577E-006 +7.75604993105E-002 +5.44263236225E-002 
+7.41000000000E+009 -3.38214665651E-001 -4.72591370344E-001 -6.34005246684E-003 -7.36709386110E-002 +1.13702626550E-005 +1.79494509212E-005 +8.66654291749E-002 +4.42469082773E-002 
+7.61000000000E+009 -3.49088281393E-001 -4.73079472780E-001 -6.89317658544E-002 -1.62516273558E-002 +5.93062304688E-006 +4.15134600189E-005 +9.30411219597E-002 +3.21945101023E-002 
+7.81000000000E+009 -3.60356897116E-001 -4.73001301289E-001 -3.25628370047E-002 +5.86894676089E-002 -4.68024481961E-005 +1.84360953881E-006 +9.85506325960E-002 +1.98868904263E-002 
+8.01000000000E+009 -3.70639503002E-001 -4.72824186087E-001 +4.23526093364E-002 +4.49375361204E-002 -1.19665928651E-005 -2.27759410336E-005 +1.02140031755E-001 +6.17284514010E-003 
+8.21000000000E+009 -3.80858957767E-001 -4.72488939762E-001 +5.24857789278E-002 -2.47188247740E-002 +2.02409537451E-005 +3.23585627484E-005 +1.04317873716E-001 -8.02588462830E-003 
+8.41000000000E+009 -3.90750855207E-001 -4.71609383821E-001 -8.49563349038E-003 -5.17699345946E-002 -3.20774488500E-005 +5.12752740178E-006 +1.03895574808E-001 -2.31219194829E-002 
+8.61000000000E+009 -4.00459051132E-001 -4.71197605133E-001 -4.55143302679E-002 -1.03428401053E-002 -1.40851470860E-005 -6.36786808172E-006 +1.00610733032E-001 -3.85913513601E-002 
+8.81000000000E+009 -4.09821450710E-001 -4.70537334681E-001 -2.41317953914E-002 +3.71120050550E-002 -1.35783639053E-005 +3.29094018525E-006 +9.52239930630E-002 -5.41706234217E-002 
+9.01000000000E+009 -4.18997853994E-001 -4.69503909349E-001 +2.49075051397E-002 +3.16409841180E-002 +1.04061064121E-005 +9.46748332353E-006 +8.84571671486E-002 -6.79471045732E-002 
+9.21000000000E+009 -4.27847057581E-001 -4.68561321497E-001 +3.53486984968E-002 -1.04306535795E-002 -8.16957253846E-006 +4.10112488680E-006 +7.86128044128E-002 -8.28172788024E-002 
+9.41000000000E+009 -4.36206966639E-001 -4.67730551958E-001 +2.23238859326E-003 -3.46699282527E-002 -1.71952115124E-006 -2.15289986727E-007 +6.61034584045E-002 -9.63898748159E-002 
+9.61000000000E+009 -4.44519132376E-001 -4.66401338577E-001 -2.87532191724E-002 -1.27474674955E-002 -2.31480203183E-006 +1.04718192233E-005 +5.08881285787E-002 -1.08549661934E-001 
+9.81000000000E+009 -4.52374488115E-001 -4.65827643871E-001 -2.10928730667E-002 +1.99648179114E-002 -1.13265537038E-006 +1.34104639073E-005 +3.57427373528E-002 -1.17921926081E-001 
+1.00100000000E+010 -4.60609853268E-001 -4.64386612177E-001 +1.06841288507E-002 +2.53281146288E-002 +1.97215395019E-005 -3.95292863686E-006 +1.87771879137E-002 -1.25774532557E-001 
+1.02100000000E+010 -4.68115687370E-001 -4.62727934122E-001 +2.49765813351E-002 -7.10081891157E-004 -3.29179965775E-005 -6.72332907925E-006 +5.62143162824E-004 -1.32668375969E-001 
+1.04100000000E+010 -4.75717782974E-001 -4.61398631334E-001 +8.49630311131E-003 -2.17651035637E-002 +1.61698390002E-005 +8.45437625685E-006 -1.99920888990E-002 -1.38025626540E-001 
+1.06100000000E+010 -4.83060836792E-001 -4.59820866585E-001 -1.63530744612E-002 -1.48481857032E-002 +1.05996741695E-005 +3.69785607290E-006 -4.15714085102E-002 -1.40664085746E-001 
+1.08100000000E+010 -4.89316672087E-001 -4.58973050117E-001 -1.81580558419E-002 +8.80972482264E-003 -1.63862241607E-005 -1.11968415695E-006 -6.33885636926E-002 -1.40253379941E-001 
+1.10100000000E+010 -4.96116220951E-001 -4.57463413477E-001 +8.58920684550E-004 +1.90471000969E-002 -1.11435647341E-005 +1.01221021396E-005 -8.54044705629E-002 -1.36657968163E-001 
+1.12100000000E+010 -5.02306640148E-001 -4.56746935844E-001 +1.70595292002E-002 +5.67670213059E-003 +1.94552249013E-005 -1.25500755530E-005 -1.09208084643E-001 -1.30244582891E-001 
+1.14100000000E+010 -5.08908331394E-001 -4.55196827650E-001 +1.08576044440E-002 -1.24197313562E-002 +7.81296148489E-006 -2.18883496927E-006 -1.32239282131E-001 -1.20143912733E-001 
+1.16100000000E+010 -5.14136493206E-001 -4.53887104988E-001 -6.78609544411E-003 -1.42516130581E-002 +2.16764910874E-005 +9.72435645963E-006 -1.54066920280E-001 -1.06754302979E-001 
+1.18100000000E+010 -5.19846260548E-001 -4.52490031719E-001 -1.48727903143E-002 +1.09326688107E-003 +1.84243526746E-005 -5.69041867493E-006 -1.73690780997E-001 -8.99935290217E-002 
+1.20100000000E+010 -5.25594890118E-001 -4.50642198324E-001 -4.45023784414E-003 +1.30940489471E-002 -2.11289570871E-005 +6.46174521535E-006 -1.90804958344E-001 -7.05203637481E-002 
+1.22100000000E+010 -5.31400978565E-001 -4.48570132256E-001 +9.81000531465E-003 +8.84221307933E-003 -1.39118974403E-005 -2.15114396269E-005 -2.08171233535E-001 -4.86179552972E-002 
+1.24100000000E+010 -5.36746144295E-001 -4.46956872940E-001 +1.12653505057E-002 -5.52661670372E-003 -1.86067609320E-005 +2.02629362320E-005 -2.22659826279E-001 -2.34054848552E-002 
+1.26100000000E+010 -5.42018651962E-001 -4.45155858994E-001 -6.26925437246E-004 -1.16250505671E-002 -5.12369661010E-006 +4.24389418185E-006 -2.33059570193E-001 +4.19881893322E-003 
+1.28100000000E+010 -5.47150254250E-001 -4.43208247423E-001 -1.05753028765E-002 -3.85657069273E-003 +1.93770138139E-005 -1.16367273222E-005 -2.39311411977E-001 +3.33128795028E-002 
+1.30100000000E+010 -5.52290797234E-001 -4.40656363964E-001 -7.09321862087E-003 +7.98213947564E-003 -1.40817528518E-005 +1.26402310343E-005 -2.43072107434E-001 +6.32422491908E-002 
+1.32100000000E+010 -5.57076990604E-001 -4.38486158848E-001 +4.24150424078E-003 +9.04718693346E-003 -1.12092420750E-005 +7.00115606378E-006 -2.43400350213E-001 +9.47330743074E-002 
+1.34100000000E+010 -5.62000989914E-001 -4.35642451048E-001 +9.69508104026E-003 -3.30391310854E-004 +4.74722355648E-006 -3.87701584259E-005 -2.39864766598E-001 +1.26510530710E-001 
+1.36100000000E+010 -5.64861238003E-001 -4.33274030685E-001 +3.02074523643E-003 -8.68078041822E-003 +1.00717243185E-005 +2.32175989368E-005 -2.32089534402E-001 +1.59319609404E-001 
+1.38100000000E+010 -5.69770872593E-001 -4.31603163481E-001 -6.23225001618E-003 -5.91304898262E-003 -6.04316073805E-006 +4.87982060804E-006 -2.19033241272E-001 +1.91339150071E-001 
+1.40100000000E+010 -5.74598550797E-001 -4.29543018341E-001 -7.63883860782E-003 +3.37271881290E-003 -9.22975141293E-006 -2.11481210499E-006 -2.02374219894E-001 +2.22501337528E-001 
+1.42100000000E+010 -5.79090118408E-001 -4.27619695663E-001 +3.03255015751E-004 +7.91206024587E-003 +1.58758975886E-005 -1.24690241137E-005 -1.81914567947E-001 +2.53703325987E-001 
+1.44100000000E+010 -5.83744347095E-001 -4.24969702959E-001 +6.90431473777E-003 +2.78307404369E-003 -1.09537450044E-005 -9.93239837044E-007 -1.56245857477E-001 +2.82336771488E-001 
+1.46100000000E+010 -5.87449789047E-001 -4.22820836306E-001 +5.11083798483E-003 -5.13357063755E-003 -3.16981386277E-005 +1.33331996039E-005 -1.25559821725E-001 +3.07877302170E-001 
+1.48100000000E+010 -5.91214239597E-001 -4.18424993753E-001 -2.71738250740E-003 -6.24170107767E-003 +1.69689938048E-005 -8.15227122075E-006 -9.26333442330E-002 +3.29949468374E-001 
+1.50100000000E+010 -5.92894613743E-001 -4.18192237616E-001 -6.43277773634E-003 -7.37982845749E-005 +2.31894700846E-005 +7.51998777559E-006 -5.70196881890E-002 +3.49386513233E-001 
+1.52100000000E+010 -5.95976114273E-001 -4.18186187744E-001 -2.50905076973E-003 +5.74762886390E-003 -2.05209089472E-005 +4.30698992204E-006 -1.81717015803E-002 +3.64447116852E-001 
+1.54100000000E+010 -5.99688947201E-001 -4.16776716709E-001 +4.15861513466E-003 +4.23735380173E-003 +1.24801306356E-006 +1.17924901133E-005 +2.40908674896E-002 +3.74467223883E-001 
+1.56100000000E+010 -6.03641033173E-001 -4.13856148720E-001 +5.26404893026E-003 -1.92330684513E-003 -2.23587085202E-005 +1.15942275443E-005 +6.80200979114E-002 +3.78788143396E-001 
+1.58100000000E+010 -6.05095088482E-001 -4.13446366787E-001 +2.42402224103E-004 -5.48871932551E-003 -2.74798858300E-005 -5.50528284293E-006 +1.11950561404E-001 +3.79225283861E-001 
+1.60100000000E+010 -6.07570052147E-001 -4.12546753883E-001 -4.66819247231E-003 -2.16259411536E-003 +1.54947556439E-005 +4.80259359392E-007 +1.57142072916E-001 +3.74320209026E-001 
+1.62100000000E+010 -6.10021710396E-001 -4.11452949047E-001 -3.74495098367E-003 +3.24155599810E-003 +4.10351731261E-006 +2.98985232803E-005 +2.04611241817E-001 +3.64043623209E-001 
+1.64100000000E+010 -6.12223565578E-001 -4.10247474909E-001 +1.51151698083E-003 +4.60050208494E-003 +2.67422801699E-005 -1.39866706377E-005 +2.51495450735E-001 +3.47875833511E-001 
+1.66100000000E+010 -6.15790963173E-001 -4.08864200115E-001 +4.53284475952E-003 +3.57380107744E-004 +1.50754658534E-005 -8.01315582066E-006 +2.95474588871E-001 +3.24310272932E-001 
+1.68100000000E+010 -6.19069695473E-001 -4.06833499670E-001 +2.08928342909E-003 -3.83257423528E-003 -7.45116585676E-006 +2.64093960141E-005 +3.38864117861E-001 +2.96929836273E-001 
+1.70100000000E+010 -6.20997786522E-001 -4.05148416758E-001 -2.69946712069E-003 -3.33263701759E-003 +1.17395165944E-005 -1.64822340594E-005 +3.78974109888E-001 +2.65588819981E-001 
+1.72100000000E+010 -6.23415768147E-001 -4.03337240219E-001 -3.85943450965E-003 +1.10392400529E-003 +5.34850150871E-005 -9.83047448244E-006 +4.16560143232E-001 +2.27076902986E-001 
+1.74100000000E+010 -6.26611769199E-001 -4.01703417301E-001 -5.39880187716E-004 +3.83216352202E-003 +5.32862395630E-005 -5.59376094316E-005 +4.50020998716E-001 +1.84284746647E-001 
+1.76100000000E+010 -6.29275500774E-001 -3.99811148643E-001 +3.17308120430E-003 +1.92802201491E-003 -2.23123606702E-005 -6.21241360932E-006 +4.77895915508E-001 +1.38230249286E-001 
+1.78100000000E+010 -6.32164239883E-001 -3.98028463125E-001 +2.82562663779E-003 -2.12054746225E-003 +5.12535443704E-005 -2.68198236881E-005 +5.01529157162E-001 +8.94223749638E-002 
+1.80100000000E+010 -6.34575784206E-001 -3.95911514759E-001 -7.43110897020E-004 -3.33073269576E-003 -2.84244748627E-007 +7.93688883505E-008 +5.20816922188E-001 +3.82655225694E-002 
+1.82100000000E+010 -6.37324750423E-001 -3.94389361143E-001 -3.25243454427E-003 -6.25070359092E-004 +1.47955179273E-005 -7.20760863260E-006 +5.33489108086E-001 -1.64052154869E-002 
+1.84100000000E+010 -6.40008807182E-001 -3.93157839775E-001 -1.72390847001E-003 +2.59786006063E-003 +3.18789716403E-005 -9.34869513003E-006 +5.39723694324E-001 -7.36954435706E-002 
+1.86100000000E+010 -6.43081247807E-001 -3.91399979591E-001 +1.58304907382E-003 +2.55409884267E-003 -3.30658394887E-006 -1.35083346322E-005 +5.39947390556E-001 -1.30388841033E-001 
+1.88100000000E+010 -6.45454823971E-001 -3.89347225428E-001 +2.92136194184E-003 -4.63406817289E-004 -1.49065854202E-005 +1.01837595139E-005 +5.34116864204E-001 -1.87106564641E-001 
+1.90100000000E+010 -6.47195458412E-001 -3.87801021338E-001 +6.97790412232E-004 -2.68807029352E-003 +2.39450528170E-005 -7.15490023140E-006 +5.22523581982E-001 -2.43482619524E-001 
+1.92100000000E+010 -6.49497509003E-001 -3.87053102255E-001 -2.14345473796E-003 -1.71172618866E-003 -2.11126298382E-005 -3.11239864459E-006 +5.04454553127E-001 -3.01070690155E-001 
+1.94100000000E+010 -6.52285993099E-001 -3.85192871094E-001 -2.29805195704E-003 +1.25995348208E-003 +3.63299186574E-005 +2.95438112516E-005 +4.79261875153E-001 -3.56008321047E-001 
+1.96100000000E+010 -6.53236925602E-001 -3.83073091507E-001 +2.26421369007E-004 +2.46338383295E-003 -2.31421254284E-005 -4.37517483078E-005 +4.48582857847E-001 -4.08182412386E-001 
+1.98100000000E+010 -6.52622938156E-001 -3.80224227905E-001 +2.27163592353E-003 +7.87907803897E-004 +2.47305306402E-005 +6.58283488519E-006 +4.13836330175E-001 -4.55835312605E-001 
+2.00100000000E+010 -6.51412844658E-001 -3.80018502474E-001 +1.59544765484E-003 -1.78537948523E-003 -2.53628277278E-005 -3.93314479652E-007 +3.72101098299E-001 -5.02387285233E-001 
