!;Filter: kein Filter
!auto
!3/21/2019 9:26:39 AM
!3/21/2019 9:26:51 AM
!SP-Measurements Prober G4
!SP-Measurements Prober G4
!01103_448C
!134
!233
!12
!50
!-20
!0.00099996
!1.65
!0.05816927
!0.05816927
# Hz S  RI   R 50
+1.00000000000E+007 +4.78945940733E-001 +3.60377528705E-003 +4.07252050936E-002 -1.64996571839E-002 +3.68306442397E-004 -9.50883259065E-004 +5.64009929076E-003 +8.23304057121E-004 
+2.10000000000E+008 +4.87588703632E-001 -4.72069792449E-002 -2.90362117812E-003 -4.14338707924E-002 +6.19565253146E-005 -1.11870385808E-005 +8.79002735019E-003 -4.43322397768E-003 
+4.10000000000E+008 +4.82656419277E-001 -9.50038805604E-002 -3.92387732863E-002 -1.12016210333E-002 +6.32452574791E-005 -7.57935194997E-005 +1.02467173710E-002 -7.27264769375E-003 
+6.10000000000E+008 +4.73713964224E-001 -1.40879288316E-001 -2.35833302140E-002 +3.27935144305E-002 +2.49397612606E-006 -4.18691306550E-005 +9.77095309645E-003 -1.16064501926E-002 
+8.10000000000E+008 +4.61264997721E-001 -1.85413867235E-001 +2.30533927679E-002 +3.33640463650E-002 +2.13936491491E-005 +6.25440179647E-006 +7.04036653042E-003 -1.53244985268E-002 
+1.01000000000E+009 +4.45593088865E-001 -2.27703586221E-001 +3.96202430129E-002 -1.02670686319E-002 +4.58350768895E-005 +3.48725620825E-006 +2.91558029130E-003 -1.90822072327E-002 
+1.21000000000E+009 +4.27596241236E-001 -2.67865389585E-001 +4.01501869783E-003 -4.12649177015E-002 -2.54322117144E-006 +3.41009908880E-005 -1.71370792668E-003 -2.12232861668E-002 
+1.41000000000E+009 +4.08123522997E-001 -3.06526571512E-001 -3.89326624572E-002 -1.74577962607E-002 -2.37548138102E-005 +8.09698406101E-007 -7.51375965774E-003 -2.45699230582E-002 
+1.61000000000E+009 +3.87008577585E-001 -3.42901110649E-001 -2.98551525921E-002 +3.23161073029E-002 -5.68914720134E-006 +1.84738855751E-005 -1.37445749715E-002 -2.68648155034E-002 
+1.81000000000E+009 +3.62631976604E-001 -3.77169013023E-001 +2.06053834409E-002 +3.93186099827E-002 -2.99061557598E-005 +4.17197725255E-006 -1.76597796381E-002 -2.79084071517E-002 
+2.01000000000E+009 +3.37945967913E-001 -4.08621907234E-001 +4.53942790627E-002 -6.48037157953E-003 -2.00486065296E-005 -1.67671478266E-005 -2.32782159001E-002 -2.68220510334E-002 
+2.21000000000E+009 +3.12689781189E-001 -4.37458515167E-001 +1.01611707360E-002 -4.78648580611E-002 -2.42060159508E-005 +1.92508450709E-005 -2.88742091507E-002 -2.46591847390E-002 
+2.41000000000E+009 +2.86863565445E-001 -4.64241951704E-001 -4.56320419908E-002 -2.71581579000E-002 -8.43723501021E-006 -2.60303204414E-005 -3.54988574982E-002 -2.23609525710E-002 
+2.61000000000E+009 +2.61392086744E-001 -4.91491287947E-001 -4.09322120249E-002 +4.20498512685E-002 -8.12947746454E-006 -3.35694312525E-005 -4.07985672355E-002 -1.94169878960E-002 
+2.81000000000E+009 +2.34641432762E-001 -5.18106818199E-001 +3.74217815697E-002 +5.43326959014E-002 +1.11781364467E-005 -2.09244444704E-005 -4.47549410164E-002 -1.44811412320E-002 
+3.01000000000E+009 +2.04521507025E-001 -5.44305562973E-001 +6.43256902695E-002 -3.33711802959E-002 +3.04314926325E-005 +1.82814721938E-006 -4.86420877278E-002 -8.74638278037E-003 
+3.21000000000E+009 +1.69152691960E-001 -5.67621946335E-001 -3.08498479426E-002 -6.66800439358E-002 +6.62176989863E-006 -1.75122731889E-005 -5.25446273386E-002 -2.21406621858E-003 
+3.41000000000E+009 +1.34498149157E-001 -5.83244204521E-001 -6.72930702567E-002 +1.99858173728E-002 -1.02039450667E-006 +2.79231480818E-005 -5.54993264377E-002 +4.85799927264E-003 
+3.61000000000E+009 +1.01462319493E-001 -5.94517171383E-001 +7.52510176972E-003 +6.42996877432E-002 -3.63487815775E-005 +1.55694142450E-005 -5.72902597487E-002 +1.18306986988E-002 
+3.81000000000E+009 +7.11846873164E-002 -6.01998984814E-001 +5.56339100003E-002 +6.62956945598E-003 +5.06635342390E-006 -4.72844403703E-005 -5.71545697749E-002 +1.92489512265E-002 
+4.01000000000E+009 +4.31158579886E-002 -6.08847320080E-001 +1.66269857436E-002 -4.72794026136E-002 -2.83875706373E-005 +1.97782014766E-006 -5.61955384910E-002 +2.72191949189E-002 
+4.21000000000E+009 +1.67651791126E-002 -6.14535391331E-001 -3.62946018577E-002 -2.52382829785E-002 -5.09942656208E-005 +7.33267952455E-005 -5.42694143951E-002 +3.59091386199E-002 
+4.41000000000E+009 -7.92134460062E-003 -6.18988692760E-001 -2.82440427691E-002 +2.39490903914E-002 -3.08860580844E-005 -4.64018194180E-006 -5.11131882668E-002 +4.43128012121E-002 
+4.61000000000E+009 -3.13113667071E-002 -6.23524904251E-001 +1.16471564397E-002 +2.90753766894E-002 -3.06167712552E-005 -1.88927806448E-005 -4.68844212592E-002 +5.16048967838E-002 
+4.81000000000E+009 -5.47250099480E-002 -6.27668797970E-001 +2.78562810272E-002 -1.47332728375E-003 +1.60932222570E-006 -1.89143684111E-005 -4.03174310923E-002 +5.88779784739E-002 
+5.01000000000E+009 -7.67648816109E-002 -6.31252408028E-001 +5.91033371165E-003 -2.25621927530E-002 -1.92385755327E-006 +2.61541808868E-005 -3.36400158703E-002 +6.55036345124E-002 
+5.21000000000E+009 -9.81070399284E-002 -6.34797692299E-001 -1.57573465258E-002 -1.17694120854E-002 -1.07615542220E-005 +2.21870122914E-005 -2.61981394142E-002 +7.15127885342E-002 
+5.41000000000E+009 -1.19272284210E-001 -6.37282967567E-001 -1.51129961014E-002 +9.24123916775E-003 +2.30571567954E-005 +2.05340602406E-005 -1.73031371087E-002 +7.67043232918E-002 
+5.61000000000E+009 -1.40237331390E-001 -6.39453828335E-001 +3.18254088052E-003 +1.51842115447E-002 +6.57560212858E-006 -2.33524624491E-005 -7.51389609650E-003 +7.98466652632E-002 
+5.81000000000E+009 -1.60190269351E-001 -6.40767693520E-001 +1.32719101384E-002 +2.62148864567E-003 +4.13292946178E-005 +8.29300370242E-006 +3.06587852538E-003 +8.07740911841E-002 
+6.01000000000E+009 -1.79520174861E-001 -6.41348123550E-001 +6.71982346103E-003 -1.04232151061E-002 -1.77507299668E-005 -1.02870162664E-005 +1.42671242356E-002 +8.26794654131E-002 
+6.21000000000E+009 -1.98553130031E-001 -6.41236007214E-001 -6.48684753105E-003 -8.85505229235E-003 -1.34647480081E-005 +2.52561549132E-005 +2.50959172845E-002 +8.21986570954E-002 
+6.41000000000E+009 -2.16574907303E-001 -6.40801966190E-001 -9.48590971529E-003 +2.26779631339E-003 +9.47387070482E-006 +2.62805224338E-005 +3.66847999394E-002 +8.03134143353E-002 
+6.61000000000E+009 -2.34445020556E-001 -6.39903903008E-001 -1.45275215618E-003 +8.73717386276E-003 -2.88555520456E-006 +5.15312103744E-006 +4.78819720447E-002 +7.52003416419E-002 
+6.81000000000E+009 -2.51806497574E-001 -6.38540446758E-001 +6.84637902305E-003 +4.21854248270E-003 -5.98300573529E-008 +3.60979429388E-005 +5.87280206382E-002 +6.93698301911E-002 
+7.01000000000E+009 -2.68289595842E-001 -6.36975705624E-001 +5.94112742692E-003 -4.18449006975E-003 +3.65099513147E-005 +2.90648349619E-005 +6.87425211072E-002 +6.30570724607E-002 
+7.21000000000E+009 -2.84543454647E-001 -6.34854257107E-001 -1.46865588613E-003 -6.59927120432E-003 +3.78107979486E-005 +1.60657361903E-006 +7.79144465923E-002 +5.44736422598E-002 
+7.41000000000E+009 -2.99910098314E-001 -6.32711589336E-001 -6.16853451356E-003 -1.08495005406E-003 +1.01218538475E-005 -1.96933724510E-005 +8.70942920446E-002 +4.42724451423E-002 
+7.61000000000E+009 -3.14447194338E-001 -6.30006670952E-001 -3.09658842161E-003 +4.86492412165E-003 -5.07008153363E-005 -7.33625574867E-006 +9.34198498726E-002 +3.21769192815E-002 
+7.81000000000E+009 -3.29173803329E-001 -6.26619398594E-001 +2.99036921933E-003 +4.33400971815E-003 +7.38403514333E-006 +3.92808433389E-005 +9.89774167538E-002 +1.97889972478E-002 
+8.01000000000E+009 -3.42805445194E-001 -6.23342335224E-001 +4.77858120576E-003 -1.01563555654E-003 -1.67165740095E-006 -8.18433636596E-006 +1.02559730411E-001 +6.01623440161E-003 
+8.21000000000E+009 -3.56105983257E-001 -6.19662940502E-001 +8.38239735458E-004 -4.44478355348E-003 +5.34840037290E-005 -1.28230194605E-005 +1.04706898332E-001 -8.28842353076E-003 
+8.41000000000E+009 -3.68950635195E-001 -6.15457892418E-001 -3.45338042825E-003 -2.32396600768E-003 +1.86630786629E-005 +3.51398157363E-005 +1.04262672365E-001 -2.33973264694E-002 
+8.61000000000E+009 -3.81536632776E-001 -6.11756205559E-001 -3.36455856450E-003 +2.12823715992E-003 -1.15659340736E-005 -1.74286469701E-005 +1.00937999785E-001 -3.88988144696E-002 
+8.81000000000E+009 -3.93392652273E-001 -6.07822656631E-001 +6.99376279954E-004 +3.62480897456E-003 +6.85857776261E-006 -2.07015364140E-005 +9.55276116729E-002 -5.45557700098E-002 
+9.01000000000E+009 -4.04947578907E-001 -6.03582561016E-001 +3.34806670435E-003 +7.04065256286E-004 -4.35306128566E-006 +3.90466921090E-005 +8.86733680964E-002 -6.83781206608E-002 
+9.21000000000E+009 -4.16049569845E-001 -5.99441647530E-001 +1.88294344116E-003 -2.66211223789E-003 +4.37804701505E-005 -7.78142020863E-006 +7.87750333548E-002 -8.32996740937E-002 
+9.41000000000E+009 -4.26447123289E-001 -5.95292985439E-001 -1.60037865862E-003 -2.56410962902E-003 +2.34286490013E-005 -1.43457818922E-005 +6.62105754018E-002 -9.68862026930E-002 
+9.61000000000E+009 -4.36529278755E-001 -5.90729534626E-001 -2.74241180159E-003 +4.50922729215E-004 -3.91556659451E-006 -2.57763513218E-005 +5.09594678879E-002 -1.09069325030E-001 
+9.81000000000E+009 -4.45956170559E-001 -5.87040603161E-001 -7.06690305378E-004 +2.57922243327E-003 -5.45760121895E-005 +1.85889148270E-005 +3.57041433454E-002 -1.18431940675E-001 
+1.00100000000E+010 -4.55607235432E-001 -5.82623064518E-001 +1.99679099023E-003 +1.53170980047E-003 +2.59004536929E-005 -8.26774339657E-007 +1.86422672123E-002 -1.26348957419E-001 
+1.02100000000E+010 -4.64485794306E-001 -5.77941954136E-001 +2.00320151635E-003 -1.15347187966E-003 +1.22879127957E-005 +4.13433444919E-005 +3.87310719816E-004 -1.33214414120E-001 
+1.04100000000E+010 -4.73311126232E-001 -5.73789775372E-001 -2.14909843635E-004 -2.24106945097E-003 -1.24587986647E-005 -2.30637342611E-005 -2.02599298209E-002 -1.38556912541E-001 
+1.06100000000E+010 -4.81789618731E-001 -5.69513618946E-001 -2.03936966136E-003 -6.03953201789E-004 +7.08292645868E-006 +3.02127464238E-005 -4.19399403036E-002 -1.41131147742E-001 
+1.08100000000E+010 -4.89059358835E-001 -5.65968692303E-001 -1.24265567865E-003 +1.50553975254E-003 -2.42488840740E-005 +1.70729781530E-005 -6.38579502702E-002 -1.40672713518E-001 
+1.10100000000E+010 -4.96794849634E-001 -5.61713337898E-001 +8.57973645907E-004 +1.68999028392E-003 -1.39129642776E-005 +2.60291744780E-005 -8.58930274844E-002 -1.37036383152E-001 
+1.12100000000E+010 -5.03792881966E-001 -5.58436691761E-001 +1.78271636833E-003 -1.06124047306E-004 +2.11302831303E-005 +1.67670223163E-005 -1.09770067036E-001 -1.30555197597E-001 
+1.14100000000E+010 -5.11151015759E-001 -5.54368317127E-001 +6.26723514870E-004 -1.54365540948E-003 -5.19055211043E-005 -1.40398105941E-005 -1.32821619511E-001 -1.20433092117E-001 
+1.16100000000E+010 -5.16936063766E-001 -5.50628006458E-001 -1.16460851859E-003 -1.09719578177E-003 -2.99356961477E-005 -3.59844198101E-005 -1.54724031687E-001 -1.06906361878E-001 
+1.18100000000E+010 -5.23106396198E-001 -5.46950697899E-001 -1.39977340586E-003 +6.53587805573E-004 -8.83024222276E-006 -2.71434896604E-006 -1.74394473433E-001 -9.00462195277E-002 
+1.20100000000E+010 -5.29301166534E-001 -5.42863309383E-001 +2.16812022700E-005 +1.38241425157E-003 -5.37035839443E-006 +3.73308466806E-005 -1.91540002823E-001 -7.05003961921E-002 
+1.22100000000E+010 -5.35666167736E-001 -5.38526296616E-001 +1.27892813180E-003 +5.29142504092E-004 +1.79944090632E-005 -6.15146291238E-007 -2.08899661899E-001 -4.85344231129E-002 
+1.24100000000E+010 -5.41339397430E-001 -5.34662961960E-001 +9.31750575546E-004 -9.34798677918E-004 -4.54664150311E-005 -8.94623372005E-006 -2.23397731781E-001 -2.32041627169E-002 
+1.26100000000E+010 -5.46863377094E-001 -5.30660033226E-001 -4.83279116452E-004 -1.13657291513E-003 +2.39263990807E-005 -3.18060592690E-005 -2.33746170998E-001 +4.56588668749E-003 
+1.28100000000E+010 -5.52116572857E-001 -5.26642143726E-001 -1.20112788863E-003 -6.13321899436E-005 -1.82426028914E-005 -1.55359648488E-005 -2.39983677864E-001 +3.37528809905E-002 
+1.30100000000E+010 -5.57277023792E-001 -5.22033035755E-001 -4.78270609165E-004 +9.87256295048E-004 -1.11863828351E-005 -4.30489017162E-005 -2.43669271469E-001 +6.37633576989E-002 
+1.32100000000E+010 -5.62051296234E-001 -5.17926752567E-001 +7.02156685293E-004 +8.13404796645E-004 -3.92627043766E-005 -1.45005815284E-005 -2.43907794356E-001 +9.54319313169E-002 
+1.34100000000E+010 -5.66844761372E-001 -5.13226807117E-001 +9.32583177928E-004 -3.21370142046E-004 -2.68794301519E-005 -7.89633577369E-006 -2.40290313959E-001 +1.27288043499E-001 
+1.36100000000E+010 -5.69715797901E-001 -5.09177327156E-001 +7.94551087893E-005 -9.94884409010E-004 -6.90886599841E-006 +5.41492852335E-007 -2.32416108251E-001 +1.60081937909E-001 
+1.38100000000E+010 -5.74577331543E-001 -5.05797147751E-001 -8.09267105069E-004 -4.55719797174E-004 -3.84382881080E-009 +3.52222050424E-005 -2.19245404005E-001 +1.92222163081E-001 
+1.40100000000E+010 -5.79208374023E-001 -5.01959145069E-001 -6.65898609441E-004 +5.49061107449E-004 -3.78325694328E-006 +1.39212133945E-005 -2.02452152967E-001 +2.23377436399E-001 
+1.42100000000E+010 -5.83252191544E-001 -4.98475998640E-001 +2.05161675694E-004 +8.43043264467E-004 -4.32807564721E-006 -1.82031162694E-005 -1.81888729334E-001 +2.54626631737E-001 
+1.44100000000E+010 -5.87706983089E-001 -4.94269698858E-001 +8.42022418510E-004 +1.32679095259E-004 -1.89189868252E-005 +1.88084777619E-005 -1.56016811728E-001 +2.83300846815E-001 
+1.46100000000E+010 -5.91024339199E-001 -4.90770965815E-001 +3.87296720874E-004 -6.25447195489E-004 -1.85267726920E-005 +2.90806656267E-005 -1.25281393528E-001 +3.08791607618E-001 
+1.48100000000E+010 -5.94274282455E-001 -4.85023140907E-001 -4.06100385590E-004 -6.49784284178E-004 +1.88906560652E-005 +2.52316340266E-006 -9.22322645783E-002 +3.30852568150E-001 
+1.50100000000E+010 -5.95646083355E-001 -4.83546257019E-001 -6.78378215525E-004 +1.53052009409E-004 +8.65080710355E-006 -2.95519439533E-005 -5.64450807869E-002 +3.50232422352E-001 
+1.52100000000E+010 -5.98114371300E-001 -4.82535153627E-001 -1.70071944012E-004 +6.66930514853E-004 -1.37856104629E-005 -1.44827652093E-006 -1.74826346338E-002 +3.65159869194E-001 
+1.54100000000E+010 -6.01322710514E-001 -4.80105757713E-001 +5.40860870387E-004 +3.55287833372E-004 +2.00755275728E-005 +5.69364055991E-006 +2.48351376504E-002 +3.75075638294E-001 
+1.56100000000E+010 -6.04752123356E-001 -4.76291358471E-001 +5.73809840716E-004 -3.33296076860E-004 -1.49417355715E-005 +5.71380837755E-007 +6.88688829541E-002 +3.79329264164E-001 
+1.58100000000E+010 -6.05920672417E-001 -4.75279748440E-001 -8.64740286488E-005 -5.85694680922E-004 -2.21617538045E-005 +2.70465916401E-005 +1.12848475575E-001 +3.79651904106E-001 
+1.60100000000E+010 -6.08060240746E-001 -4.73636180162E-001 -5.43586735148E-004 -2.11927035707E-004 -1.40029724207E-005 -1.58259499585E-005 +1.58146217465E-001 +3.74578803778E-001 
+1.62100000000E+010 -6.10237300396E-001 -4.71922338009E-001 -3.73550428776E-004 +4.40498959506E-004 +4.39286668552E-005 +7.22606455383E-006 +2.05696329474E-001 +3.64153355360E-001 
+1.64100000000E+010 -6.12136423588E-001 -4.70226466656E-001 +1.95437023649E-004 +4.82340779854E-004 +2.66932911472E-005 -1.95598531718E-005 +2.52665609121E-001 +3.47924888134E-001 
+1.66100000000E+010 -6.15559995174E-001 -4.68489885330E-001 +5.40635373909E-004 -3.60068224836E-005 -2.00417998713E-005 +2.66064289463E-005 +2.96644896269E-001 +3.24153512716E-001 
+1.68100000000E+010 -6.18812739849E-001 -4.65942442417E-001 +1.76498084329E-004 -4.32670640294E-004 +8.52940502227E-006 +1.23877016449E-005 +3.39980930090E-001 +2.96639800072E-001 
+1.70100000000E+010 -6.20609343052E-001 -4.63649213314E-001 -3.29317030264E-004 -2.96997663099E-004 +4.12441295339E-005 +3.37008077622E-006 +3.80079597235E-001 +2.65129804611E-001 
+1.72100000000E+010 -6.23028755188E-001 -4.61410313845E-001 -4.44776174845E-004 +2.00740905711E-004 +1.46256252265E-006 -3.17520280078E-005 +4.17491912842E-001 +2.26426109672E-001 
+1.74100000000E+010 -6.26153826714E-001 -4.59365785122E-001 +2.10240486922E-005 +4.66021301690E-004 -1.70030143636E-005 +2.17910182982E-005 +4.50865387917E-001 +1.83529332280E-001 
+1.76100000000E+010 -6.28769516945E-001 -4.57058042288E-001 +3.95695387851E-004 +1.77704539965E-004 +1.68543650148E-007 -3.26166118612E-005 +4.78679597378E-001 +1.37313589454E-001 
+1.78100000000E+010 -6.32021248341E-001 -4.54867243767E-001 +3.02532804199E-004 -2.73100740742E-004 +2.96626749332E-005 +1.33880566864E-005 +5.02127349377E-001 +8.84854793549E-002 
+1.80100000000E+010 -6.34438097477E-001 -4.52435821295E-001 -1.27631603391E-004 -3.57248005457E-004 -2.41015072788E-006 -3.76328398488E-006 +5.21321594715E-001 +3.72066572309E-002 
+1.82100000000E+010 -6.37292563915E-001 -4.50317502022E-001 -3.07614041958E-004 -4.56717134512E-005 +5.13121303811E-005 -2.13209168578E-005 +5.33867120743E-001 -1.75555013120E-002 
+1.84100000000E+010 -6.40188157558E-001 -4.48465496302E-001 -1.23716978123E-004 +3.54683375917E-004 +1.59461960720E-005 -9.68055883277E-006 +5.39946913719E-001 -7.49388262630E-002 
+1.86100000000E+010 -6.43253207207E-001 -4.46375250816E-001 +2.74569902103E-004 +2.64845119091E-004 +4.29763440479E-006 -5.45619295735E-005 +5.39944231510E-001 -1.31682962179E-001 
+1.88100000000E+010 -6.45855545998E-001 -4.43782091141E-001 +3.39424179401E-004 -1.00848279544E-004 +2.34791205003E-005 -9.27103428694E-006 +5.33974468708E-001 -1.88430503011E-001 
+1.90100000000E+010 -6.47734582424E-001 -4.41765487194E-001 +1.20937993415E-005 -2.82293505734E-004 +7.99725626166E-007 +1.50177820615E-005 +5.22147953510E-001 -2.44656577706E-001 
+1.92100000000E+010 -6.50273084641E-001 -4.40497338772E-001 -2.37142594415E-004 -2.27870405070E-004 -2.84177967842E-005 +5.45774746570E-005 +5.04010617733E-001 -3.02202165127E-001 
+1.94100000000E+010 -6.52999758720E-001 -4.38281714916E-001 -2.95695062960E-004 +2.31876838370E-004 -6.53750385027E-006 -1.18106072478E-005 +4.78672266006E-001 -3.57115417719E-001 
+1.96100000000E+010 -6.54150664806E-001 -4.35864239931E-001 +4.74318003398E-005 +2.84509966150E-004 -7.25973541194E-006 -3.74123701476E-005 +4.47745710611E-001 -4.09338802099E-001 
+1.98100000000E+010 -6.54043495655E-001 -4.32966619730E-001 +2.71255412372E-004 +3.61842685379E-005 +2.79704545392E-006 +3.25325709127E-005 +4.12834852934E-001 -4.56775873899E-001 
+2.00100000000E+010 -6.53768360615E-001 -4.31398093700E-001 +2.13343038922E-004 -2.39108616370E-004 -5.81261447223E-005 +2.71569001598E-006 +3.70894759893E-001 -5.03117382526E-001 
