!;Filter: kein Filter
!auto
!3/21/2019 9:27:07 AM
!3/21/2019 9:27:22 AM
!SP-Measurements Prober G4
!SP-Measurements Prober G4
!01103_448C
!134
!233
!12
!50
!-20
!0.00299959
!1.83
!0.38139174
!0.38139174
# Hz S  RI   R 50
+1.00000000000E+007 +3.32621455193E-001 +5.72067126632E-003 +4.51724901795E-002 -1.79925374687E-002 -1.42079195939E-004 -3.92440677388E-004 +4.86834673211E-003 +6.02670304943E-004 
+2.10000000000E+008 +3.48506182432E-001 -3.24624516070E-002 -1.75374047831E-003 -4.68354225159E-002 +8.82672975422E-006 -8.24454400572E-005 +8.75856913626E-003 -4.55970689654E-003 
+4.10000000000E+008 +3.47943693399E-001 -7.15537369251E-002 -4.36083897948E-002 -1.54806468636E-002 -3.27897905663E-005 -1.01569976323E-005 +1.02383075282E-002 -7.21646193415E-003 
+6.10000000000E+008 +3.43044012785E-001 -1.09680876136E-001 -2.99278441817E-002 +3.46746556461E-002 -2.41097623075E-005 -2.58999461948E-005 +9.74192284048E-003 -1.15438206121E-002 
+8.10000000000E+008 +3.34985315800E-001 -1.46669805050E-001 +2.20007449389E-002 +4.10006232560E-002 -3.63356921298E-005 +2.05139749596E-005 +7.03657371923E-003 -1.52993425727E-002 
+1.01000000000E+009 +3.24570715427E-001 -1.82140007615E-001 +4.74533811212E-002 -5.81157533452E-003 -1.21090380389E-007 +1.47546797962E-005 +2.87324818783E-003 -1.90546177328E-002 
+1.21000000000E+009 +3.11601072550E-001 -2.16548591852E-001 +1.08210770413E-002 -4.58386279643E-002 +2.07519406104E-005 -9.81517223408E-006 -1.71452725772E-003 -2.12023239583E-002 
+1.41000000000E+009 +2.96973407269E-001 -2.50153452158E-001 -3.97230051458E-002 -2.57253069431E-002 +1.18798343465E-005 +3.06567653752E-006 -7.52169732004E-003 -2.45574247092E-002 
+1.61000000000E+009 +2.81447142363E-001 -2.81904757023E-001 -3.83522920310E-002 +2.99532152712E-002 +1.32450065848E-006 -4.48273749498E-006 -1.37169510126E-002 -2.67800427973E-002 
+1.81000000000E+009 +2.62738078833E-001 -3.11817288399E-001 +1.38611625880E-002 +4.51494120061E-002 +8.11877907836E-006 -2.41539783019E-005 -1.76528003067E-002 -2.78676413000E-002 
+2.01000000000E+009 +2.43483856320E-001 -3.40323537588E-001 +4.65751662850E-002 +2.74555035867E-003 -5.32023796040E-006 +1.51450094563E-005 -2.32248809189E-002 -2.67773102969E-002 
+2.21000000000E+009 +2.23003476858E-001 -3.67229372263E-001 +1.79121065885E-002 -4.31581698358E-002 -3.77724500140E-005 -1.00858142105E-005 -2.88255736232E-002 -2.46247537434E-002 
+2.41000000000E+009 +2.00908675790E-001 -3.91547590494E-001 -3.23557555676E-002 -3.12665738165E-002 -2.84711841232E-005 +2.62649518845E-005 -3.54637242854E-002 -2.23773457110E-002 
+2.61000000000E+009 +1.78508654237E-001 -4.14001435041E-001 -4.08367291093E-002 +1.84214729816E-002 +2.35474362853E-005 +2.18000259338E-005 -4.08191010356E-002 -1.93879883736E-002 
+2.81000000000E+009 +1.55665338039E-001 -4.34844285250E-001 +3.62383853644E-003 +4.46571186185E-002 -7.73427836975E-006 +2.59829739662E-005 -4.47462722659E-002 -1.44676603377E-002 
+3.01000000000E+009 +1.32063701749E-001 -4.53452408314E-001 +4.11590151489E-002 +1.29937622696E-002 -4.87065262860E-005 +1.91830640688E-005 -4.86044846475E-002 -8.71304050088E-003 
+3.21000000000E+009 +1.08827307820E-001 -4.70411121845E-001 +2.81445942819E-002 -3.35222966969E-002 -1.01734749478E-005 +6.49101366434E-006 -5.25064095855E-002 -2.21861014143E-003 
+3.41000000000E+009 +8.57867226005E-002 -4.86220419407E-001 -2.25468184799E-002 -3.78265082836E-002 +4.12082727053E-006 -2.42643382080E-005 -5.54246306419E-002 +4.87373815849E-003 
+3.61000000000E+009 +6.25359788537E-002 -5.00201642513E-001 -4.22411374748E-002 +6.14902563393E-003 -1.11392319013E-005 +2.11126030081E-006 -5.72728477418E-002 +1.18123348802E-002 
+3.81000000000E+009 +3.95570211112E-002 -5.12594461441E-001 -1.07712559402E-002 +4.26690950990E-002 -5.97343750997E-006 -3.07806622004E-005 -5.70730417967E-002 +1.92422661930E-002 
+4.01000000000E+009 +1.70603301376E-002 -5.24346888065E-001 +3.72200123966E-002 +2.40625012666E-002 -6.44221063340E-006 +2.35204679484E-005 -5.60799725354E-002 +2.71616391838E-002 
+4.21000000000E+009 -5.40590332821E-003 -5.34221112728E-001 +3.56544964015E-002 -2.44471579790E-002 -2.67003779300E-005 +1.78272603080E-005 -5.41761331260E-002 +3.58834527433E-002 
+4.41000000000E+009 -2.71818470210E-002 -5.42980015278E-001 -9.58197843283E-003 -4.41508404911E-002 +2.19729772652E-005 -1.45667536344E-005 -5.10682724416E-002 +4.42524813116E-002 
+4.61000000000E+009 -4.87342476845E-002 -5.50951480865E-001 -4.53149676323E-002 -4.72116610035E-003 +8.04054161563E-006 -1.32103823489E-005 -4.68886159360E-002 +5.15653342009E-002 
+4.81000000000E+009 -7.00556114316E-002 -5.57676136494E-001 -2.14482303709E-002 +3.93279232085E-002 +2.65009066425E-006 +4.73921818411E-006 -4.02621701360E-002 +5.87775148451E-002 
+5.01000000000E+009 -9.04104635119E-002 -5.63968956470E-001 +3.05677261204E-002 +3.65343317389E-002 -1.82978999419E-006 -2.03017225431E-005 -3.35961543024E-002 +6.54267817736E-002 
+5.21000000000E+009 -1.10618099570E-001 -5.69767951965E-001 +4.42471578717E-002 -1.83617137372E-002 +1.07350724647E-005 +9.50539106270E-006 -2.61967163533E-002 +7.14480802417E-002 
+5.41000000000E+009 -1.30204692483E-001 -5.73955059052E-001 -8.71348529472E-005 -4.74855639040E-002 +3.47188301930E-006 +1.99338173843E-005 -1.73228364438E-002 +7.65708684921E-002 
+5.61000000000E+009 -1.49649456143E-001 -5.78181564808E-001 -4.79297190905E-002 -1.74225382507E-002 +2.08133569686E-005 -9.13220446819E-007 -7.52585707232E-003 +7.97494500875E-002 
+5.81000000000E+009 -1.68601155281E-001 -5.81266641617E-001 -3.04192695767E-002 +4.06703352928E-002 -9.98585505840E-007 -1.40581078085E-005 +3.01570259035E-003 +8.07047784328E-002 
+6.01000000000E+009 -1.86527088284E-001 -5.83224594593E-001 +2.64801550657E-002 +4.32310812175E-002 +1.31145761770E-005 +1.00017168734E-005 +1.41966249794E-002 +8.26291814446E-002 
+6.21000000000E+009 -2.04346790910E-001 -5.84974586964E-001 +5.32614961267E-002 -1.24433571473E-002 -2.06104850804E-005 +1.64142838912E-005 +2.50194277614E-002 +8.21016207337E-002 
+6.41000000000E+009 -2.21591487527E-001 -5.86023807526E-001 +2.68881069496E-003 -5.36733530462E-002 -1.77188030648E-005 +7.52084929445E-007 +3.65765802562E-002 +8.02111625671E-002 
+6.61000000000E+009 -2.38430395722E-001 -5.86496949196E-001 -4.95185032487E-002 -2.12901420891E-002 -9.19940066524E-006 +2.04923071578E-005 +4.77719195187E-002 +7.51433372498E-002 
+6.81000000000E+009 -2.55012184381E-001 -5.86640298367E-001 -3.59066799283E-002 +4.38802875578E-002 +2.51304245467E-005 -3.83151491405E-005 +5.86280077696E-002 +6.93035498261E-002 
+7.01000000000E+009 -2.70860642195E-001 -5.86070716381E-001 +3.09863146394E-002 +4.45027686656E-002 -6.94199115969E-006 +6.27008375886E-006 +6.85830116272E-002 +6.30153641105E-002 
+7.21000000000E+009 -2.86125391722E-001 -5.85059285164E-001 +5.16317300498E-002 -1.46776046604E-002 +1.86627894436E-005 +3.41878308063E-006 +7.77471736073E-002 +5.44792786241E-002 
+7.41000000000E+009 -3.00830572844E-001 -5.84032297134E-001 -7.31058185920E-004 -5.37784174085E-002 -7.18387624943E-008 +1.17240024338E-005 +8.69179144502E-002 +4.42850925028E-002 
+7.61000000000E+009 -3.14597547054E-001 -5.82217574120E-001 -4.85495403409E-002 -1.35924397036E-002 -3.56674604518E-006 -3.04195473291E-005 +9.32614579797E-002 +3.22056598961E-002 
+7.81000000000E+009 -3.28462123871E-001 -5.79859673977E-001 -2.67247911543E-002 +4.01756614447E-002 +1.23257577798E-005 +2.81851498585E-005 +9.88185927272E-002 +1.98409352452E-002 
+8.01000000000E+009 -3.41337293386E-001 -5.77425599098E-001 +2.96946298331E-002 +3.52210029960E-002 -1.29194713736E-005 -3.02389435092E-006 +1.02411158383E-001 +6.07805047184E-003 
+8.21000000000E+009 -3.53803604841E-001 -5.74717164040E-001 +3.90543006361E-002 -1.64352338761E-002 -1.45483099914E-005 -2.53569919551E-006 +1.04577422142E-001 -8.16345214844E-003 
+8.41000000000E+009 -3.65851223469E-001 -5.71569025517E-001 -2.78358720243E-003 -3.90126183629E-002 +6.53313190924E-006 +1.45923886521E-005 +1.04147821665E-001 -2.33147293329E-002 
+8.61000000000E+009 -3.77596884966E-001 -5.68790912628E-001 -3.54832373559E-002 -9.26161836833E-003 +1.21531456898E-005 -1.06089437395E-005 +1.00810378790E-001 -3.87751087546E-002 
+8.81000000000E+009 -3.88736605644E-001 -5.65893352032E-001 -1.82437803596E-002 +2.83512100577E-002 +6.72851274430E-006 +2.34929648286E-005 +9.53864455223E-002 -5.43880797923E-002 
+9.01000000000E+009 -3.99495333433E-001 -5.62686443329E-001 +1.84617880732E-002 +2.42447610945E-002 -2.40309418587E-005 -1.39139847306E-005 +8.85984227061E-002 -6.82106241584E-002 
+9.21000000000E+009 -4.10051852465E-001 -5.59575378895E-001 +2.74089556187E-002 -8.26785992831E-003 -2.51382843999E-005 +1.47175100551E-007 +7.87623524666E-002 -8.30854550004E-002 
+9.41000000000E+009 -4.19764518738E-001 -5.56452512741E-001 +8.30501434393E-004 -2.63549555093E-002 +7.15223586667E-006 -3.00483388855E-005 +6.61695525050E-002 -9.67413112521E-002 
+9.61000000000E+009 -4.29380506277E-001 -5.53003489971E-001 -2.16568782926E-002 -9.25383064896E-003 +1.16857563626E-005 +2.75190122920E-005 +5.09690865874E-002 -1.08911640942E-001 
+9.81000000000E+009 -4.38284933567E-001 -5.50278484821E-001 -1.57634876668E-002 +1.57884079963E-002 -2.57228821283E-005 -3.54229086952E-005 +3.57585176826E-002 -1.18285156786E-001 
+1.00100000000E+010 -4.47580516338E-001 -5.46858668327E-001 +9.01238713413E-003 +1.85287799686E-002 -2.92599161185E-005 -5.46895819298E-007 +1.86706669629E-002 -1.26148432493E-001 
+1.02100000000E+010 -4.55965220928E-001 -5.43182492256E-001 +1.84361580759E-002 -1.09847262502E-003 -1.50849800775E-005 +5.63277012589E-007 +4.58213005913E-004 -1.33003860712E-001 
+1.04100000000E+010 -4.64462429285E-001 -5.40004968643E-001 +5.78692182899E-003 -1.68024804443E-002 +1.27524454001E-005 -4.50722109235E-005 -2.01692767441E-002 -1.38379871845E-001 
+1.06100000000E+010 -4.72637087107E-001 -5.36606609821E-001 -1.29236448556E-002 -1.01287197322E-002 -1.02324256659E-005 -4.09930453316E-006 -4.18506264687E-002 -1.40972927213E-001 
+1.08100000000E+010 -4.79626983404E-001 -5.33995985985E-001 -1.29758864641E-002 +7.01348204166E-003 +3.27395173372E-006 +2.34744061345E-006 -6.36596679688E-002 -1.40565186739E-001 
+1.10100000000E+010 -4.87090975046E-001 -5.30702114105E-001 +1.42453180160E-003 +1.42901754007E-002 +2.94932597171E-005 +1.75071672857E-005 -8.57337638736E-002 -1.36942416430E-001 
+1.12100000000E+010 -4.93906408548E-001 -5.28245389462E-001 +1.28621971235E-002 +3.17742628977E-003 +3.16451269100E-006 +1.46287648022E-005 -1.09577938914E-001 -1.30484357476E-001 
+1.14100000000E+010 -5.01056075096E-001 -5.24980485439E-001 +7.29661993682E-003 -9.39360912889E-003 -1.54335975111E-008 +2.23689075938E-005 -1.32610902190E-001 -1.20354674757E-001 
+1.16100000000E+010 -5.06656289101E-001 -5.22093594074E-001 -5.70211978629E-003 -1.02798743173E-002 +2.81782808997E-006 +7.09922278475E-006 -1.54463320971E-001 -1.06894783676E-001 
+1.18100000000E+010 -5.12700319290E-001 -5.19131839275E-001 -1.07105048373E-002 +1.82893348392E-003 -5.28437112735E-006 +2.10253756450E-006 -1.74107491970E-001 -9.00260657072E-002 
+1.20100000000E+010 -5.18858730793E-001 -5.15880882740E-001 -2.55527673289E-003 +9.50613804162E-003 +1.76164958248E-005 +1.32724762807E-005 -1.91238015890E-001 -7.04923644662E-002 
+1.22100000000E+010 -5.25094747543E-001 -5.12243151665E-001 +7.68884550780E-003 +5.98172238097E-003 +1.15933480629E-005 +8.54971585795E-006 -2.08653554320E-001 -4.85758520663E-002 
+1.24100000000E+010 -5.30642747879E-001 -5.09117841721E-001 +7.57090980187E-003 -4.83488105237E-003 -2.78813899968E-006 +2.15600557567E-005 -2.23120868206E-001 -2.33139339834E-002 
+1.26100000000E+010 -5.36051213741E-001 -5.05866527557E-001 -1.05310371146E-003 -8.10804311186E-003 -1.67347279785E-005 -7.66115135775E-006 -2.33507215977E-001 +4.44889115170E-003 
+1.28100000000E+010 -5.41302144527E-001 -5.02483308315E-001 -7.84884020686E-003 -2.20953044482E-003 +7.27624592400E-006 -4.59980255982E-005 -2.39769652486E-001 +3.35576497018E-002 
+1.30100000000E+010 -5.46446144581E-001 -4.98560994864E-001 -4.34358045459E-003 +6.09400542453E-003 -1.47055786215E-007 -1.35368982228E-005 -2.43471041322E-001 +6.35703951120E-002 
+1.32100000000E+010 -5.51140069962E-001 -4.95096504688E-001 +3.34880431183E-003 +6.03739870712E-003 -1.19366995932E-005 +1.48255348904E-005 -2.43730708957E-001 +9.51637402177E-002 
+1.34100000000E+010 -5.55903673172E-001 -4.91040766239E-001 +6.84677669778E-003 -7.63848889619E-004 -2.46049439738E-005 -2.30088062381E-005 -2.40182697773E-001 +1.26948624849E-001 
+1.36100000000E+010 -5.58821797371E-001 -4.87601071596E-001 +1.50387978647E-003 -6.15621218458E-003 -9.03877662495E-006 +2.12925187952E-005 -2.32328593731E-001 +1.59856453538E-001 
+1.38100000000E+010 -5.63599646091E-001 -4.84724819660E-001 -4.49631875381E-003 -3.70184588246E-003 +1.22620103866E-005 -6.07748188486E-006 -2.19185933471E-001 +1.91862344742E-001 
+1.40100000000E+010 -5.68305253983E-001 -4.81528431177E-001 -5.20795211196E-003 +2.71064438857E-003 -1.82686217158E-005 -6.99690781403E-006 -2.02408179641E-001 +2.23050430417E-001 
+1.42100000000E+010 -5.72482585907E-001 -4.78619545698E-001 +7.28733779397E-004 +5.34230656922E-003 -4.25941561844E-006 -1.48685749082E-005 -1.81927725673E-001 +2.54345655441E-001 
+1.44100000000E+010 -5.76905310154E-001 -4.74964082241E-001 +4.75020008162E-003 +1.57706637401E-003 -2.92619806714E-005 +2.25161966227E-006 -1.56097382307E-001 +2.82950520515E-001 
+1.46100000000E+010 -5.80265343189E-001 -4.71917480230E-001 +3.29468050040E-003 -3.80280800164E-003 +5.99580926064E-006 -1.84202360742E-006 -1.25396862626E-001 +3.08514684439E-001 
+1.48100000000E+010 -5.83525776863E-001 -4.66728687286E-001 -2.25509586744E-003 -4.06185770407E-003 -4.83545863972E-006 -1.75046588993E-005 -9.23710986972E-002 +3.30539792776E-001 
+1.50100000000E+010 -5.84960043430E-001 -4.65768992901E-001 -4.31055156514E-003 +1.66971600265E-004 +2.55670215665E-006 -1.91191938939E-005 -5.66917061806E-002 +3.49939167500E-001 
+1.52100000000E+010 -5.87560236454E-001 -4.65121269226E-001 -1.48381781764E-003 +4.10329084843E-003 +2.53320631600E-005 -1.00318056866E-005 -1.77583042532E-002 +3.64928811789E-001 
+1.54100000000E+010 -5.90907692909E-001 -4.63162124157E-001 +3.03968158551E-003 +2.61127483100E-003 -2.66079241555E-005 +1.35656391649E-005 +2.45706606656E-002 +3.74870926142E-001 
+1.56100000000E+010 -5.94447016716E-001 -4.59871411324E-001 +3.42228147201E-003 -1.44893385004E-003 -2.01305265364E-005 +3.15061674883E-006 +6.85297399759E-002 +3.79124522209E-001 
+1.58100000000E+010 -5.95675706863E-001 -4.59187269211E-001 -3.19446953654E-005 -3.79000953399E-003 -4.15670947405E-005 +1.34244301080E-005 +1.12519368529E-001 +3.79543632269E-001 
+1.60100000000E+010 -5.97987473011E-001 -4.57978606224E-001 -3.26751428656E-003 -1.20741198771E-003 +2.81804454971E-006 +8.62377874000E-006 +1.57778367400E-001 +3.74513208866E-001 
+1.62100000000E+010 -6.00175678730E-001 -4.56594109535E-001 -2.41292128339E-003 +2.26183375344E-003 +1.26516542878E-005 +1.30123225972E-005 +2.05301746726E-001 +3.64159047604E-001 
+1.64100000000E+010 -6.02146148682E-001 -4.55279231071E-001 +1.23942503706E-003 +3.06382332928E-003 +1.49547895489E-005 -1.75008099177E-005 +2.52236217260E-001 +3.47891658545E-001 
+1.66100000000E+010 -6.05699777603E-001 -4.53862398863E-001 +3.05002043024E-003 +2.28658427659E-006 -1.94661479327E-005 -1.43627075886E-005 +2.96260595322E-001 +3.24242711067E-001 
+1.68100000000E+010 -6.08942091465E-001 -4.51608002186E-001 +1.24061026145E-003 -2.58492259309E-003 -5.81012216117E-007 -1.11308481792E-005 +3.39622825384E-001 +2.96767562628E-001 
+1.70100000000E+010 -6.10873818398E-001 -4.49667006731E-001 -1.92456564400E-003 -2.15831538662E-003 -5.84629879086E-006 -2.17621345655E-006 +3.79703640938E-001 +2.65332579613E-001 
+1.72100000000E+010 -6.13282084465E-001 -4.47713792324E-001 -2.53238575533E-003 +9.60469478741E-004 -2.24500831791E-006 +4.36465461462E-006 +4.17197227478E-001 +2.26685255766E-001 
+1.74100000000E+010 -6.16441130638E-001 -4.46074932814E-001 -2.58235231740E-004 +2.51895748079E-003 -1.68646438397E-005 -3.49922011083E-005 +4.50690180063E-001 +1.83849096298E-001 
+1.76100000000E+010 -6.19315147400E-001 -4.44095999002E-001 +2.24824878387E-003 +1.18061352987E-003 -8.95727225725E-006 +1.48105737026E-005 +4.78439867496E-001 +1.37698203325E-001 
+1.78100000000E+010 -6.22474551201E-001 -4.42098945379E-001 +1.81016523857E-003 -1.50388886686E-003 +9.08479069039E-006 +5.86701332850E-007 +5.02004206181E-001 +8.88185575604E-002 
+1.80100000000E+010 -6.25045835972E-001 -4.39991176128E-001 -5.65758673474E-004 -2.18375842087E-003 -1.39456014949E-005 -4.13543275499E-005 +5.21280169487E-001 +3.76045741141E-002 
+1.82100000000E+010 -6.28080308437E-001 -4.38211947680E-001 -2.22955830395E-003 -3.43978783349E-004 +2.97601654893E-005 +2.63916463155E-005 +5.33863782883E-001 -1.71821173280E-002 
+1.84100000000E+010 -6.30995988846E-001 -4.36669349670E-001 -1.02186575532E-003 +1.78242160473E-003 +3.59578443749E-005 +2.58305408352E-005 +5.39906620979E-001 -7.45323374867E-002 
+1.86100000000E+010 -6.34194731712E-001 -4.34738963842E-001 +1.08498125337E-003 +1.66615995113E-003 +4.15024878748E-005 +5.88430657444E-006 +5.40043294430E-001 -1.31245076656E-001 
+1.88100000000E+010 -6.36853635311E-001 -4.32377517223E-001 +1.96329271421E-003 -4.39351046225E-004 +4.72706415167E-005 -1.27904613691E-005 +5.34108519554E-001 -1.88007190824E-001 
+1.90100000000E+010 -6.38803422451E-001 -4.30655092001E-001 +3.30313225277E-004 -1.82841822971E-003 +1.43748202390E-005 -3.32894815074E-005 +5.22358536720E-001 -2.44346871972E-001 
+1.92100000000E+010 -6.41385674477E-001 -4.29638087749E-001 -1.44764455035E-003 -1.02900876664E-003 -1.12567176984E-005 -2.63099373115E-005 +5.04268765450E-001 -3.01931142807E-001 
+1.94100000000E+010 -6.44273400307E-001 -4.27665024996E-001 -1.54493784066E-003 +9.37195727602E-004 +9.17703982850E-006 -9.09683330974E-006 +4.79001432657E-001 -3.56745004654E-001 
+1.96100000000E+010 -6.45517230034E-001 -4.25568342209E-001 +2.61339155259E-004 +1.61135126837E-003 -2.85961559712E-005 +7.59828708397E-006 +4.48130756617E-001 -4.09008145332E-001 
+1.98100000000E+010 -6.45506083965E-001 -4.22837108374E-001 +1.55932630878E-003 +4.45167010184E-004 +1.49693096319E-005 -1.54874815053E-005 +4.13267344236E-001 -4.56596642733E-001 
+2.00100000000E+010 -6.45301342010E-001 -4.21593040228E-001 +9.48988657910E-004 -1.25734682661E-003 +9.43722079683E-006 +1.97175213543E-005 +3.71362179518E-001 -5.03047585487E-001 
