!;Filter: kein Filter
!auto
!3/21/2019 9:27:54 AM
!3/21/2019 9:28:10 AM
!SP-Measurements Prober G4
!SP-Measurements Prober G4
!01103_448C
!134
!235
!12
!50
!-20
!0.00599970
!2.02
!0.74959551
!0.74959551
# Hz S  RI   R 50
+1.00000000000E+007 +1.46638318896E-001 +4.07197326422E-003 +4.90299537778E-002 -1.81563422084E-002 +1.91741681192E-004 +1.50555846631E-004 +5.37339877337E-003 +1.44144555088E-003 
+2.10000000000E+008 +1.59704416990E-001 -1.99006889015E-002 -1.28775695339E-003 -5.18684834242E-002 +3.47659188265E-005 -8.97283098311E-006 +8.74538347125E-003 -4.52233199030E-003 
+4.10000000000E+008 +1.62797957659E-001 -4.70132865012E-002 -4.88357879221E-002 -1.65833029896E-002 +1.04309528979E-005 -2.19387111429E-005 +1.02697582915E-002 -7.27548729628E-003 
+6.10000000000E+008 +1.62598401308E-001 -7.51981139183E-002 -3.21794040501E-002 +3.97959724069E-002 +9.79090236797E-006 -1.41500704558E-005 +9.69524215907E-003 -1.15183871239E-002 
+8.10000000000E+008 +1.59200489521E-001 -1.03882513940E-001 +2.57482957095E-002 +4.36297133565E-002 -3.84695449611E-005 +6.15520730207E-006 +6.99126860127E-003 -1.53083000332E-002 
+1.01000000000E+009 +1.53446704149E-001 -1.31671041250E-001 +4.95474673808E-002 -8.74764285982E-003 -2.76785976894E-005 -8.56597580423E-006 +2.80644558370E-003 -1.90163105726E-002 
+1.21000000000E+009 +1.45945876837E-001 -1.58521011472E-001 +9.30430926383E-003 -4.88191694021E-002 -3.10900759359E-006 +5.00100213685E-006 -1.75260473043E-003 -2.11313050240E-002 
+1.41000000000E+009 +1.36468365788E-001 -1.85026511550E-001 -4.19793315232E-002 -2.58518196642E-002 +8.10871642898E-006 +6.12244139120E-006 -7.52891460434E-003 -2.44962479919E-002 
+1.61000000000E+009 +1.26070812345E-001 -2.10285484791E-001 -3.86729910970E-002 +2.97583304346E-002 +1.05815270217E-005 -5.17297485203E-006 -1.37584134936E-002 -2.67409179360E-002 
+1.81000000000E+009 +1.13925799727E-001 -2.34383791685E-001 +1.35882971808E-002 +4.64041456580E-002 -7.03409966718E-007 +8.01993064670E-006 -1.76787395030E-002 -2.78070345521E-002 
+2.01000000000E+009 +1.01251371205E-001 -2.57572561502E-001 +4.82015162706E-002 +4.01204358786E-003 -1.23925274238E-005 +1.62203104992E-006 -2.32070013881E-002 -2.67122276127E-002 
+2.21000000000E+009 +8.72948244214E-002 -2.79690116644E-001 +2.07140576094E-002 -4.35553975403E-002 +2.04329353437E-006 +2.44613038376E-005 -2.88148000836E-002 -2.45627798140E-002 
+2.41000000000E+009 +7.21600130200E-002 -3.00305157900E-001 -3.30441184342E-002 -3.46766859293E-002 -2.48741707765E-006 -5.02832654092E-006 -3.54263857007E-002 -2.22993120551E-002 
+2.61000000000E+009 +5.66710978746E-002 -3.19762021303E-001 -4.41230535507E-002 +1.84404850006E-002 +1.13189462354E-005 -2.89580657409E-005 -4.07206602395E-002 -1.93270649761E-002 
+2.81000000000E+009 +4.04273346066E-002 -3.37898463011E-001 +1.69946136884E-003 +4.75818291306E-002 -7.70515453041E-006 +1.21719303934E-005 -4.46517653763E-002 -1.44312074408E-002 
+3.01000000000E+009 +2.36368384212E-002 -3.54648232460E-001 +4.46803569794E-002 +1.53713747859E-002 -8.26065661386E-006 +1.37495781019E-005 -4.85009066761E-002 -8.68925452232E-003 
+3.21000000000E+009 +6.68085832149E-003 -3.70358496904E-001 +3.03039681166E-002 -3.62018607557E-002 +7.54272878112E-006 +5.92263631916E-006 -5.24305701256E-002 -2.19794013537E-003 
+3.41000000000E+009 -1.02350944653E-002 -3.84938925505E-001 -2.30577699840E-002 -4.09913212061E-002 -1.02163112388E-005 -4.16560806116E-006 -5.53751625121E-002 +4.87030716613E-003 
+3.61000000000E+009 -2.74088531733E-002 -3.98472070694E-001 -4.62795011699E-002 +6.81063951924E-003 +1.99191763386E-005 -2.63454294327E-005 -5.71336187422E-002 +1.18307005614E-002 
+3.81000000000E+009 -4.48437519372E-002 -4.10709321499E-001 -1.02381594479E-002 +4.57942374051E-002 -5.01612794324E-006 +1.33787680170E-005 -5.69631196558E-002 +1.92504897714E-002 
+4.01000000000E+009 -6.18777163327E-002 -4.22257751226E-001 +3.93067225814E-002 +2.57038269192E-002 +3.14060634992E-005 -3.58980946658E-006 -5.59921264648E-002 +2.71666869521E-002 
+4.21000000000E+009 -7.90495872498E-002 -4.32631075382E-001 +3.77787202597E-002 -2.75399945676E-002 +1.41890532177E-005 +1.41630634971E-005 -5.40813095868E-002 +3.58258746564E-002 
+4.41000000000E+009 -9.61290597916E-002 -4.42040979862E-001 -1.24829076231E-002 -4.51341681182E-002 +1.93229370780E-005 +4.17731680500E-005 -5.10102510452E-002 +4.42201830447E-002 
+4.61000000000E+009 -1.12936630845E-001 -4.50568050146E-001 -4.65019755065E-002 -3.87752777897E-003 -5.34201944902E-006 -9.82397068583E-006 -4.67955172062E-002 +5.15138767660E-002 
+4.81000000000E+009 -1.29760473967E-001 -4.58395391703E-001 -1.98761075735E-002 +4.17483821511E-002 +4.31580156146E-006 +8.36066465126E-006 -4.02101315558E-002 +5.87307475507E-002 
+5.01000000000E+009 -1.46124944091E-001 -4.65758502483E-001 +3.19413915277E-002 +3.33407074213E-002 +1.30993585117E-005 -1.32567784021E-005 -3.35647054017E-002 +6.53146654367E-002 
+5.21000000000E+009 -1.62184193730E-001 -4.72518652678E-001 +4.23337630928E-002 -1.80921554565E-002 -5.13704719651E-007 +2.83597473754E-005 -2.61561311781E-002 +7.13199228048E-002 
+5.41000000000E+009 -1.78067848086E-001 -4.78184223175E-001 -1.88573787455E-003 -4.58508990705E-002 +2.22634025704E-005 -5.15180772709E-006 -1.73265133053E-002 +7.64752998948E-002 
+5.61000000000E+009 -1.94010838866E-001 -4.83556330204E-001 -4.38122600317E-002 -1.45088341087E-002 +1.58151851792E-006 +1.24629377751E-005 -7.54147442058E-003 +7.96379446983E-002 
+5.81000000000E+009 -2.09262758493E-001 -4.88060623407E-001 -2.88578644395E-002 +3.63898314536E-002 -8.94141248864E-006 +7.84608528193E-006 +2.96951062046E-003 +8.05615410209E-002 
+6.01000000000E+009 -2.24113345146E-001 -4.91713702679E-001 +2.41580195725E-002 +3.95826399326E-002 +2.44315560849E-006 +1.15769198601E-005 +1.41394203529E-002 +8.24880748987E-002 
+6.21000000000E+009 -2.38895893097E-001 -4.94880288839E-001 +4.58709523082E-002 -9.10371169448E-003 +8.80590050656E-006 +3.51474664058E-005 +2.49512642622E-002 +8.20092186332E-002 
+6.41000000000E+009 -2.52987265587E-001 -4.97599810362E-001 +6.51389313862E-003 -4.64836061001E-002 -7.67103301769E-006 +5.72913620545E-007 +3.64787094295E-002 +8.00587534904E-002 
+6.61000000000E+009 -2.67157077789E-001 -4.99871969223E-001 -4.10960689187E-002 -2.14863531291E-002 -3.34859328177E-006 +3.04359455185E-005 +4.77033369243E-002 +7.50592947006E-002 
+6.81000000000E+009 -2.81016051769E-001 -5.01679301262E-001 -3.41894663870E-002 +3.15114073455E-002 +5.77919763600E-006 +2.03575964406E-005 +5.84840215743E-002 +6.92329034209E-002 
+7.01000000000E+009 -2.94320017099E-001 -5.03140151501E-001 +1.87918189913E-002 +4.23021130264E-002 -5.78318531552E-006 -7.50104345570E-006 +6.84529766440E-002 +6.29644095898E-002 
+7.21000000000E+009 -3.07417154312E-001 -5.03980159760E-001 +4.53326776624E-002 -3.64951044321E-003 -2.78604488813E-006 +5.42634779777E-006 +7.76138231158E-002 +5.44428825378E-002 
+7.41000000000E+009 -3.19893181324E-001 -5.04921734333E-001 +1.13977286965E-002 -4.39131334424E-002 -2.53703801718E-005 +1.39078492793E-005 +8.67489129305E-002 +4.42631691694E-002 
+7.61000000000E+009 -3.31706464291E-001 -5.05141854286E-001 -3.73933464289E-002 -2.40228157490E-002 +9.83236441243E-006 +7.62547642807E-006 +9.31267365813E-002 +3.21819856763E-002 
+7.81000000000E+009 -3.43850225210E-001 -5.04811584949E-001 -3.39095741510E-002 +2.66167037189E-002 +9.93156663753E-006 +4.93244988320E-005 +9.86163839698E-002 +1.98647603393E-002 
+8.01000000000E+009 -3.55076104403E-001 -5.04329442978E-001 +1.39670344070E-002 +3.99785041809E-002 +2.91025298793E-005 +8.79713388713E-006 +1.02233991027E-001 +6.11895229667E-003 
+8.21000000000E+009 -3.66223633289E-001 -5.03599405289E-001 +4.06752601266E-002 -7.17668561265E-004 -1.39941948873E-005 +1.68609017237E-006 +1.04385159910E-001 -8.10197368264E-003 
+8.41000000000E+009 -3.77038300037E-001 -5.02374529839E-001 +1.24035412446E-002 -3.68915759027E-002 -2.46026447712E-005 +4.96089569424E-006 +1.03946313262E-001 -2.32586897910E-002 
+8.61000000000E+009 -3.87654691935E-001 -5.01422524452E-001 -3.00221480429E-002 -2.31326017529E-002 -1.50161004058E-005 -7.07668050381E-006 +1.00657492876E-001 -3.86553220451E-002 
+8.81000000000E+009 -3.97809773684E-001 -5.00244498253E-001 -2.98413503915E-002 +2.00755484402E-002 +7.47118156141E-006 +1.69025806827E-005 +9.52417328954E-002 -5.42238317430E-002 
+9.01000000000E+009 -4.07665610313E-001 -4.98750030994E-001 +8.29893536866E-003 +3.30655388534E-002 +1.39009500799E-006 -2.13937346416E-005 +8.84754657745E-002 -6.80639594793E-002 
+9.21000000000E+009 -4.17288571596E-001 -4.97225195169E-001 +3.26432548463E-002 +2.91981617920E-003 +1.67261005117E-005 +1.98547459149E-005 +7.86602944136E-002 -8.28971266747E-002 
+9.41000000000E+009 -4.26287502050E-001 -4.95785444975E-001 +1.24997803941E-002 -2.80326697975E-002 +1.16075616461E-005 -1.02332182905E-006 +6.60899803042E-002 -9.64903607965E-002 
+9.61000000000E+009 -4.35194522142E-001 -4.93836551905E-001 -2.06394437701E-002 -2.01702266932E-002 -3.19138780469E-005 +1.81967504886E-006 +5.08864000440E-002 -1.08722724020E-001 
+9.81000000000E+009 -4.43533748388E-001 -4.92650061846E-001 -2.46141254902E-002 +1.19454804808E-002 +3.76781167688E-006 +1.48459930642E-005 +3.57538312674E-002 -1.18043661118E-001 
+1.00100000000E+010 -4.52236413956E-001 -4.90697890520E-001 +2.66764964908E-003 +2.52132713795E-002 -1.41793407238E-005 +7.32561693439E-006 +1.87411643565E-002 -1.25881612301E-001 
+1.02100000000E+010 -4.60178196430E-001 -4.88403588533E-001 +2.29670647532E-002 +6.10847165808E-003 +6.21816695912E-007 -3.93687223550E-005 +5.38089720067E-004 -1.32793366909E-001 
+1.04100000000E+010 -4.68099176884E-001 -4.86500263214E-001 +1.29526155069E-002 -1.82284656912E-002 -3.01020281768E-005 +1.86081524589E-006 -2.00608149171E-002 -1.38145983219E-001 
+1.06100000000E+010 -4.75831478834E-001 -4.84490990639E-001 -1.15409074351E-002 -1.72363836318E-002 +3.00361762129E-008 -8.33616559248E-006 -4.16798368096E-002 -1.40726253390E-001 
+1.08100000000E+010 -4.82437640429E-001 -4.83150184155E-001 -1.90438106656E-002 +4.04016021639E-003 -3.95657443732E-005 -5.54561211175E-006 -6.34693205357E-002 -1.40332788229E-001 
+1.10100000000E+010 -4.89554405212E-001 -4.81123268604E-001 -2.87659466267E-003 +1.82562507689E-002 +5.95352457822E-006 +7.21789047020E-006 -8.55018645525E-002 -1.36762440205E-001 
+1.12100000000E+010 -4.96060043573E-001 -4.79909598827E-001 +1.49131081998E-002 +8.61676223576E-003 +9.91262822936E-006 -9.82582969300E-006 -1.09288454056E-001 -1.30321294069E-001 
+1.14100000000E+010 -5.02926528454E-001 -4.77826744318E-001 +1.27426376566E-002 -9.91077255458E-003 -1.08801386887E-005 -1.56848982442E-005 -1.32352516055E-001 -1.20227620006E-001 
+1.16100000000E+010 -5.08356869221E-001 -4.76107686758E-001 -4.45244135335E-003 -1.46704213694E-002 -9.24800224311E-006 -1.83449665201E-005 -1.54215440154E-001 -1.06813929975E-001 
+1.18100000000E+010 -5.14277935028E-001 -4.74219471216E-001 -1.41261704266E-002 -1.10907957423E-003 +1.45016031183E-006 -1.20379063446E-005 -1.73826187849E-001 -8.99808928370E-002 
+1.20100000000E+010 -5.20219743252E-001 -4.71983611584E-001 -6.02791178972E-003 +1.18482830003E-002 +7.38203607398E-006 -3.28862042807E-005 -1.90913006663E-001 -7.05343708396E-002 
+1.22100000000E+010 -5.26261150837E-001 -4.69515323639E-001 +8.27477686107E-003 +9.46167577058E-003 +1.52988504851E-005 -2.77471986010E-006 -2.08345234394E-001 -4.86281998456E-002 
+1.24100000000E+010 -5.31710386276E-001 -4.67400372028E-001 +1.10631482676E-002 -3.74132394791E-003 +2.31614430959E-005 +1.37878050737E-005 -2.22838923335E-001 -2.34022475779E-002 
+1.26100000000E+010 -5.37171602249E-001 -4.65179473162E-001 +7.24175537471E-004 -1.11015727744E-002 -1.57565937116E-005 +1.88670146599E-005 -2.33198136091E-001 +4.25239745528E-003 
+1.28100000000E+010 -5.42400121689E-001 -4.62841451168E-001 -9.45639889687E-003 -4.57538152114E-003 -6.66263895255E-006 -1.01145869849E-005 -2.39464327693E-001 +3.33953313529E-002 
+1.30100000000E+010 -5.47643005848E-001 -4.59865152836E-001 -7.35214445740E-003 +6.54215086251E-003 +1.18221405501E-005 -1.10062537715E-005 -2.43238613009E-001 +6.33275732398E-002 
+1.32100000000E+010 -5.52472829819E-001 -4.57296341658E-001 +2.99133616500E-003 +8.87835212052E-003 +8.18940588942E-006 +3.59750998769E-007 -2.43516907096E-001 +9.48875695467E-002 
+1.34100000000E+010 -5.57403624058E-001 -4.54026341438E-001 +8.91089532524E-003 +5.81750064157E-004 -9.91743308987E-006 -4.50574680144E-006 -2.39993676543E-001 +1.26654967666E-001 
+1.36100000000E+010 -5.60379922390E-001 -4.51329737902E-001 +3.71228670701E-003 -7.55131710321E-003 -2.60195611190E-005 -2.87965049210E-005 -2.32195049524E-001 +1.59459218383E-001 
+1.38100000000E+010 -5.65369486809E-001 -4.49314594269E-001 -5.23061584681E-003 -6.11285679042E-003 -9.34266881814E-006 +1.46778693306E-005 -2.19095453620E-001 +1.91514357924E-001 
+1.40100000000E+010 -5.70317625999E-001 -4.46846634150E-001 -7.27062812075E-003 +2.39636865444E-003 -1.35199115903E-005 -3.88564558307E-006 -2.02403679490E-001 +2.22686648369E-001 
+1.42100000000E+010 -5.74780881405E-001 -4.44583296776E-001 -5.17193751875E-004 +7.23350839689E-003 -8.41500423121E-006 -3.12937409035E-005 -1.81984081864E-001 +2.53930091858E-001 
+1.44100000000E+010 -5.79451262951E-001 -4.41555708647E-001 +6.14486727864E-003 +3.14116501249E-003 -2.63756846834E-005 -2.68674302788E-005 -1.56219691038E-001 +2.82580345869E-001 
+1.46100000000E+010 -5.83171725273E-001 -4.39135730267E-001 +5.05174184218E-003 -4.28288849071E-003 -9.29039106268E-006 +1.15810428269E-006 -1.25572085381E-001 +3.08106243610E-001 
+1.48100000000E+010 -5.86785256863E-001 -4.34372216463E-001 -1.91036390606E-003 -5.93109801412E-003 +7.73586236846E-007 +7.83415089245E-006 -9.26218926907E-002 +3.30146282911E-001 
+1.50100000000E+010 -5.88582694530E-001 -4.33903932571E-001 -5.89566957206E-003 -6.06078421697E-004 +3.63066146747E-006 +1.18174175441E-005 -5.69680407643E-002 +3.49578052759E-001 
+1.52100000000E+010 -5.91487109661E-001 -4.33610409498E-001 -2.67718220130E-003 +5.00500109047E-003 +1.88954672922E-005 +3.23869267049E-006 -1.80604290217E-002 +3.64593505859E-001 
+1.54100000000E+010 -5.95193803310E-001 -4.31943625212E-001 +3.39179183356E-003 +4.20777453110E-003 -3.02510034089E-005 +9.90937496681E-006 +2.41541918367E-002 +3.74570399523E-001 
+1.56100000000E+010 -5.99043726921E-001 -4.28890377283E-001 +5.01827895641E-003 -1.37979700230E-003 -3.42122475558E-005 -2.51763558481E-005 +6.80748075247E-002 +3.78914088011E-001 
+1.58100000000E+010 -6.00504279137E-001 -4.28339302540E-001 +6.46186294034E-004 -4.91978600621E-003 -2.76636237686E-005 -6.30701424598E-006 +1.12066701055E-001 +3.79380673170E-001 
+1.60100000000E+010 -6.02941513062E-001 -4.27167952061E-001 -4.07810602337E-003 -2.38854391500E-003 +1.37076767714E-006 -6.68270104143E-007 +1.57290965319E-001 +3.74445557594E-001 
+1.62100000000E+010 -6.05356037617E-001 -4.25869643688E-001 -3.62698757090E-003 +2.68230447546E-003 -1.99272708414E-005 -1.44362422816E-006 +2.04797461629E-001 +3.64149719477E-001 
+1.64100000000E+010 -6.07462465763E-001 -4.24576669931E-001 +1.05054571759E-003 +4.21527493745E-003 -1.06315510493E-005 -1.49816969497E-005 +2.51728206873E-001 +3.47987323999E-001 
+1.66100000000E+010 -6.10984206200E-001 -4.23150897026E-001 +4.10324987024E-003 +6.40293350443E-004 +1.01519117379E-006 -1.55955831360E-006 +2.95739352703E-001 +3.24416846037E-001 
+1.68100000000E+010 -6.14309072495E-001 -4.20959293842E-001 +2.14936677366E-003 -3.33896186203E-003 -7.70239864778E-007 -2.21069376494E-006 +3.39104831219E-001 +2.96978026628E-001 
+1.70100000000E+010 -6.16291224957E-001 -4.18992310762E-001 -2.13594245724E-003 -3.14983190037E-003 -2.86827003038E-006 -2.98637078231E-005 +3.79173159599E-001 +2.65672832727E-001 
+1.72100000000E+010 -6.18712484837E-001 -4.17005866766E-001 -3.54389473796E-003 +7.08400330041E-004 -1.36771586767E-005 +1.47444861796E-005 +4.16769891977E-001 +2.27050259709E-001 
+1.74100000000E+010 -6.21790528297E-001 -4.15202111006E-001 -7.53318890929E-004 +3.41233192012E-003 -4.92010212838E-006 -5.20239118487E-005 +4.50145423412E-001 +1.84273466468E-001 
+1.76100000000E+010 -6.24396026134E-001 -4.13254976273E-001 +2.79905041680E-003 +1.95342767984E-003 -2.52816607826E-005 -5.88914144828E-006 +4.78101342916E-001 +1.38274490833E-001 
+1.78100000000E+010 -6.27329051495E-001 -4.11372035742E-001 +2.78206239454E-003 -1.73839880154E-003 -2.19867943088E-005 -7.95918353447E-008 +5.01667439938E-001 +8.93774852157E-002 
+1.80100000000E+010 -6.29710197449E-001 -4.09243553877E-001 -4.66663652332E-004 -3.10090859421E-003 +3.78763979825E-005 +3.66130443581E-005 +5.20996153355E-001 +3.82113717496E-002 
+1.82100000000E+010 -6.32464230061E-001 -4.07567411661E-001 -2.93591199443E-003 -7.32207146939E-004 -1.65481787917E-006 -1.74947472260E-005 +5.33665835857E-001 -1.64666436613E-002 
+1.84100000000E+010 -6.35124564171E-001 -4.06238436699E-001 -1.74599385355E-003 +2.26372410543E-003 -4.54976861874E-006 +7.01433123140E-007 +5.39873421192E-001 -7.38562270999E-002 
+1.86100000000E+010 -6.38169825077E-001 -4.04471606016E-001 +1.33371341508E-003 +2.41574156098E-003 +1.90691480384E-005 -1.87501500477E-005 +5.40065467358E-001 -1.30598202348E-001 
+1.88100000000E+010 -6.40554189682E-001 -4.02188748121E-001 +2.66636256129E-003 -2.58542480879E-004 -8.62637079990E-006 +8.59985448187E-007 +5.34185171127E-001 -1.87340244651E-001 
+1.90100000000E+010 -6.42246365547E-001 -4.00566279888E-001 +7.21988617443E-004 -2.39257724024E-003 +6.48711011308E-006 -2.72698271147E-005 +5.22567808628E-001 -2.43626609445E-001 
+1.92100000000E+010 -6.44583642483E-001 -3.99878293276E-001 -1.87754200306E-003 -1.58794014715E-003 +4.33047534898E-006 +2.10710550164E-005 +5.04581570625E-001 -3.01216781139E-001 
+1.94100000000E+010 -6.47229731083E-001 -3.98018091917E-001 -2.09688371979E-003 +1.01276277564E-003 -3.77287033189E-005 +1.85016051546E-005 +4.79411005974E-001 -3.56173694134E-001 
+1.96100000000E+010 -6.48287534714E-001 -3.96109342575E-001 +7.73259598645E-005 +2.26510316133E-003 +2.66546012426E-005 +4.14660507886E-006 +4.48635488749E-001 -4.08411473036E-001 
+1.98100000000E+010 -6.47858381271E-001 -3.93380224705E-001 +2.05037090927E-003 +7.48265651055E-004 +2.30047862715E-005 -4.30611034972E-005 +4.13754552603E-001 -4.56077128649E-001 
+2.00100000000E+010 -6.47125899792E-001 -3.92761826515E-001 +1.48528185673E-003 -1.49460753892E-003 -8.91131639946E-006 +6.75827905070E-005 +3.71992290020E-001 -5.02571702003E-001 
