!;Filter: kein Filter
!auto
!3/21/2019 9:27:39 AM
!3/21/2019 9:27:53 AM
!SP-Measurements Prober G4
!SP-Measurements Prober G4
!01103_448C
!134
!237
!12
!50
!-20
!0.00499992
!1.96
!0.64375220
!0.64375220
# Hz S  RI   R 50
+1.00000000000E+007 +1.12317353487E-001 +8.38711485267E-003 +6.59391433001E-002 -2.60381754488E-002 +6.36012991890E-004 -2.75893660728E-004 +5.64542878419E-003 +6.06665969826E-004 
+2.10000000000E+008 +1.32799208164E-001 -2.07168255001E-002 -2.18229158781E-003 -6.80246725678E-002 -9.89773980109E-005 -3.18913625961E-005 +8.70370958000E-003 -4.48369001970E-003 
+4.10000000000E+008 +1.34079098701E-001 -4.93122600019E-002 -6.36717006564E-002 -2.20059528947E-002 -4.20777832915E-005 +2.81914326479E-005 +1.01395202801E-002 -7.18630990013E-003 
+6.10000000000E+008 +1.31956428289E-001 -7.73749202490E-002 -4.22177761793E-002 +5.11278659105E-002 -7.51820471123E-006 -3.45010412275E-005 +9.71760600805E-003 -1.15286894143E-002 
+8.10000000000E+008 +1.26953721046E-001 -1.05065561831E-001 +3.23564670980E-002 +5.78082539141E-002 +6.12611620454E-006 +2.79036339634E-005 +6.98187807575E-003 -1.53088206425E-002 
+1.01000000000E+009 +1.20603121817E-001 -1.31335094571E-001 +6.70786350965E-002 -9.90552175790E-003 +1.64033372130E-005 +6.75085766488E-006 +2.80696270056E-003 -1.90262831748E-002 
+1.21000000000E+009 +1.12218625844E-001 -1.57152622938E-001 +1.36988172308E-002 -6.37046620250E-002 +2.33957034652E-005 +2.54106853390E-005 -1.71492865775E-003 -2.11370922625E-002 
+1.41000000000E+009 +1.02361395955E-001 -1.82014584541E-001 -5.44077195227E-002 -3.64081896842E-002 -5.69446137888E-006 -1.48970968894E-006 -7.51012936234E-003 -2.44706198573E-002 
+1.61000000000E+009 +9.21480804682E-002 -2.06224665046E-001 -5.31444251537E-002 +3.90248708427E-002 -1.63618078659E-005 -7.54281654736E-006 -1.37345129624E-002 -2.67747361213E-002 
+1.81000000000E+009 +7.96853676438E-002 -2.28897377849E-001 +1.60450637341E-002 +6.23489432037E-002 -2.28803455684E-005 -6.67568292556E-006 -1.76452454180E-002 -2.78062932193E-002 
+2.01000000000E+009 +6.73013478518E-002 -2.50542670488E-001 +6.49650692940E-002 +8.23005940765E-003 +2.12517788896E-005 +1.94036019820E-005 -2.32148822397E-002 -2.67297215760E-002 
+2.21000000000E+009 +5.36790154874E-002 -2.71633684635E-001 +2.96072568744E-002 -5.85408136249E-002 +1.32951399792E-005 +2.06495997190E-006 -2.87691392004E-002 -2.45835091919E-002 
+2.41000000000E+009 +3.88663150370E-002 -2.90785878897E-001 -4.24741618335E-002 -4.87557947636E-002 -8.23480786494E-006 -2.19837875193E-005 -3.53684090078E-002 -2.23282501101E-002 
+2.61000000000E+009 +2.40790676326E-002 -3.08914870024E-001 -6.22527636588E-002 +2.22885254771E-002 -2.81822522084E-005 -1.51232343342E-005 -4.07240688801E-002 -1.93405915052E-002 
+2.81000000000E+009 +8.57209414244E-003 -3.26103389263E-001 -1.09333544970E-004 +6.59509226680E-002 +9.18226487556E-006 -2.76312657661E-005 -4.46281470358E-002 -1.43876578659E-002 
+3.01000000000E+009 -7.43887852877E-003 -3.41717362404E-001 +6.07544705272E-002 +2.49446276575E-002 +1.83956053661E-005 -1.67098714883E-005 -4.85018528998E-002 -8.71216785163E-003 
+3.21000000000E+009 -2.33397185802E-002 -3.56515794992E-001 +4.65736240149E-002 -4.93254624307E-002 -3.29009776578E-006 +6.29292162557E-006 -5.24259246886E-002 -2.22061085515E-003 
+3.41000000000E+009 -3.94630618393E-002 -3.70508164167E-001 -3.08175124228E-002 -6.02496862411E-002 -1.71892061189E-005 +1.84814252862E-005 -5.53462989628E-002 +4.85873594880E-003 
+3.61000000000E+009 -5.56809194386E-002 -3.83263945580E-001 -6.77740573883E-002 +6.02316949517E-003 -4.20552424885E-007 +2.25278708967E-005 -5.71658872068E-002 +1.17974774912E-002 
+3.81000000000E+009 -7.20280557871E-002 -3.95080775023E-001 -1.81861948222E-002 +6.81038200855E-002 +1.21940856843E-005 -2.53556936514E-005 -5.69947250187E-002 +1.92113034427E-002 
+4.01000000000E+009 -8.83348956704E-002 -4.06195431948E-001 +5.69275319576E-002 +3.98765914142E-002 -1.50780651893E-005 +4.78803167425E-006 -5.60332536697E-002 +2.71174795926E-002 
+4.21000000000E+009 -1.04572966695E-001 -4.16055619717E-001 +5.92943988740E-002 -3.89728732407E-002 +3.66094354831E-005 -2.36103369389E-005 -5.41176572442E-002 +3.57913970947E-002 
+4.41000000000E+009 -1.20737865567E-001 -4.25314813852E-001 -1.75704807043E-002 -7.06170201302E-002 +6.74751618135E-006 +9.43363556871E-006 -5.10033406317E-002 +4.42083850503E-002 
+4.61000000000E+009 -1.36684671044E-001 -4.33524787426E-001 -7.21852928400E-002 -8.76547396183E-003 -1.04204922025E-007 -2.40617464442E-005 -4.68031577766E-002 +5.14625012875E-002 
+4.81000000000E+009 -1.52625948191E-001 -4.41180467606E-001 -3.48364375532E-002 +6.66896775365E-002 -2.42411952058E-005 -1.21176581160E-005 -4.02334630489E-002 +5.86598031223E-002 
+5.01000000000E+009 -1.68216407299E-001 -4.48552787304E-001 +5.27077578008E-002 +5.62742203474E-002 +1.30393236759E-005 -3.66329072676E-006 -3.35836634040E-002 +6.52867481112E-002 
+5.21000000000E+009 -1.83498322964E-001 -4.55326706171E-001 +7.26612657309E-002 -3.13928872347E-002 +1.65693891176E-005 -1.22329947772E-005 -2.61892508715E-002 +7.13089108467E-002 
+5.41000000000E+009 -1.98708042502E-001 -4.61070775986E-001 -6.02344796062E-003 -8.13324600458E-002 -2.53994057857E-005 +6.55609710520E-006 -1.73334367573E-002 +7.64771401882E-002 
+5.61000000000E+009 -2.14131653309E-001 -4.66609328985E-001 -8.13902616501E-002 -2.08398699760E-002 -3.46208412338E-006 +1.00505785667E-005 -7.56082590669E-003 +7.95953497291E-002 
+5.81000000000E+009 -2.28878363967E-001 -4.71189528704E-001 -4.60687018931E-002 +7.31541663408E-002 +8.87251826498E-006 -1.07252367343E-006 +2.96294689178E-003 +8.05381163955E-002 
+6.01000000000E+009 -2.43334576488E-001 -4.74924355745E-001 +5.68220019341E-002 +6.71582818031E-002 +3.46291089954E-005 -1.26646964418E-005 +1.41318319365E-002 +8.25058668852E-002 
+6.21000000000E+009 -2.57768303156E-001 -4.78201717138E-001 +8.27445313334E-002 -3.55519242585E-002 +1.00464576462E-005 -2.07658631552E-005 +2.49195899814E-002 +8.19505378604E-002 
+6.41000000000E+009 -2.71646469831E-001 -4.80893015862E-001 -1.19466036558E-002 -8.96416679025E-002 -3.62486898666E-005 -2.24105970119E-005 +3.64530421793E-002 +8.00824910402E-002 
+6.61000000000E+009 -2.85617202520E-001 -4.82983559370E-001 -8.76337289810E-002 -1.35950464755E-002 -1.14888689495E-005 +9.44767907640E-006 +4.76278103888E-002 +7.50844478607E-002 
+6.81000000000E+009 -2.99150496721E-001 -4.84622627497E-001 -3.65743562579E-002 +7.99686983228E-002 -1.73818043550E-005 +1.83728880074E-005 +5.84656037390E-002 +6.92687481642E-002 
+7.01000000000E+009 -3.12043428421E-001 -4.85732913017E-001 +6.44641146064E-002 +5.37923872471E-002 +8.97937025002E-006 -1.86063698493E-006 +6.84155672789E-002 +6.29714727402E-002 
+7.21000000000E+009 -3.24557214975E-001 -4.86328780651E-001 +6.67311400175E-002 -4.37267459929E-002 -5.74880630211E-007 -2.63266088041E-006 +7.75759294629E-002 +5.44419586658E-002 
+7.41000000000E+009 -3.36477816105E-001 -4.86931025982E-001 -2.23501343280E-002 -7.14119374752E-002 -5.43994519830E-006 +2.09159748010E-006 +8.67221206427E-002 +4.42624725401E-002 
+7.61000000000E+009 -3.47661882639E-001 -4.86956536770E-001 -6.93458393216E-002 +1.02497229818E-003 -1.05525941763E-005 +3.16432829095E-006 +9.30996686220E-002 +3.21880206466E-002 
+7.81000000000E+009 -3.59010249376E-001 -4.86507982016E-001 -1.87841877341E-002 +6.06590397656E-002 -8.00238467491E-006 +5.96885774939E-006 +9.86220240593E-002 +1.98557544500E-002 
+8.01000000000E+009 -3.69549214840E-001 -4.85949754715E-001 +4.88368049264E-002 +3.18109281361E-002 -3.50953050656E-005 +1.84808402537E-006 +1.02197416127E-001 +6.13942928612E-003 
+8.21000000000E+009 -3.79851371050E-001 -4.85267370939E-001 +4.09630760550E-002 -3.15318591893E-002 +7.10176891516E-006 +1.14409040179E-005 +1.04339331388E-001 -8.05678963661E-003 
+8.41000000000E+009 -3.89944016933E-001 -4.84310537577E-001 -1.30193987861E-002 -4.39961217344E-002 +1.58228158398E-005 -5.56157510800E-006 +1.03950709105E-001 -2.31912918389E-002 
+8.61000000000E+009 -3.99973690510E-001 -4.83635783195E-001 -4.30159009993E-002 -3.36583377793E-003 -3.48362118530E-006 +1.96066071112E-006 +1.00635088980E-001 -3.86234372854E-002 
+8.81000000000E+009 -4.09503668547E-001 -4.82699155807E-001 -1.62493232638E-002 +3.62750515342E-002 +7.47497597331E-006 +3.23200674757E-006 +9.52479690313E-002 -5.42378425598E-002 
+9.01000000000E+009 -4.18836653233E-001 -4.81445699930E-001 +2.55721937865E-002 +2.54036411643E-002 +1.87421096598E-006 -8.93059586815E-006 +8.84935483336E-002 -6.80199936032E-002 
+9.21000000000E+009 -4.27972555161E-001 -4.80249494314E-001 +3.07320058346E-002 -1.35787576437E-002 -1.13031737783E-005 +1.51376580106E-005 +7.86307156086E-002 -8.28634053469E-002 
+9.41000000000E+009 -4.36476379633E-001 -4.79168266058E-001 -1.95695320144E-003 -3.07622253895E-002 -1.43383113027E-005 +7.15523037798E-006 +6.60921260715E-002 -9.64993909001E-002 
+9.61000000000E+009 -4.45005923510E-001 -4.77591335773E-001 -2.65823379159E-002 -8.82300361991E-003 +1.01658224594E-006 -1.36809821925E-005 +5.09090125561E-002 -1.08658641577E-001 
+9.81000000000E+009 -4.52972233295E-001 -4.76706057787E-001 -1.70500148088E-002 +2.00013238937E-002 -2.80011645373E-005 +7.54359177790E-007 +3.57182770967E-002 -1.18005342782E-001 
+1.00100000000E+010 -4.61298793554E-001 -4.75077539682E-001 +1.16488998756E-002 +2.13359016925E-002 -1.02756503111E-005 -1.62267788255E-005 +1.87769047916E-002 -1.25830769539E-001 
+1.02100000000E+010 -4.69014614820E-001 -4.73131477833E-001 +2.21486780792E-002 -2.32493807562E-003 +8.54999689182E-006 +4.37759439365E-007 +5.65444352105E-004 -1.32773175836E-001 
+1.04100000000E+010 -4.76765215397E-001 -4.71580266953E-001 +5.93608571216E-003 -2.02659033239E-002 -1.03360591197E-007 -2.12752820516E-005 -2.00352929533E-002 -1.38088151813E-001 
+1.06100000000E+010 -4.84209954739E-001 -4.69762593508E-001 -1.54866287485E-002 -1.18419267237E-002 -5.34689570486E-006 +8.61547414388E-006 -4.16811034083E-002 -1.40728145838E-001 
+1.08100000000E+010 -4.90655213594E-001 -4.68687891960E-001 -1.57534014434E-002 +8.81862174720E-003 -8.09418088465E-006 +5.17883700013E-006 -6.34066388011E-002 -1.40309005976E-001 
+1.10100000000E+010 -4.97545003891E-001 -4.66900855303E-001 +1.97932985611E-003 +1.70854777098E-002 +1.45616877489E-005 +1.60198924277E-005 -8.55120494962E-002 -1.36738553643E-001 
+1.12100000000E+010 -5.03832399845E-001 -4.65926826000E-001 +1.53823737055E-002 +4.08331677318E-003 +3.26510271407E-005 +2.86858767140E-006 -1.09277442098E-001 -1.30286589265E-001 
+1.14100000000E+010 -5.10512471199E-001 -4.64200377464E-001 +9.28347092122E-003 -1.16733945906E-002 -1.37833339977E-005 -7.22595950720E-006 -1.32299408317E-001 -1.20167501271E-001 
+1.16100000000E+010 -5.15807688236E-001 -4.62737768888E-001 -6.91729038954E-003 -1.25224897638E-002 +1.13788628369E-005 +2.52216577792E-005 -1.54143452644E-001 -1.06803752482E-001 
+1.18100000000E+010 -5.21618366241E-001 -4.61124092340E-001 -1.33314775303E-002 +1.56852847431E-003 -1.54869994731E-005 -1.16460587378E-005 -1.73784226179E-001 -8.99950340390E-002 
+1.20100000000E+010 -5.27496874332E-001 -4.59102809429E-001 -3.69479134679E-003 +1.20800649747E-002 -1.48668686961E-005 +5.71365353608E-006 -1.90895959735E-001 -7.05359950662E-002 
+1.22100000000E+010 -5.33391654491E-001 -4.56817418337E-001 +9.45564080030E-003 +7.85054266453E-003 +1.54461813509E-005 -6.40092866888E-006 -2.08279073238E-001 -4.86538261175E-002 
+1.24100000000E+010 -5.38775265217E-001 -4.54941719770E-001 +1.00261541083E-002 -5.54949557409E-003 -6.00854809818E-006 -4.39366795035E-006 -2.22797989845E-001 -2.34099719673E-002 
+1.26100000000E+010 -5.44181287289E-001 -4.53018724918E-001 -1.08057959005E-003 -1.07243834063E-002 -1.88320809684E-005 -3.15911574944E-006 -2.33174294233E-001 +4.26074257120E-003 
+1.28100000000E+010 -5.49309849739E-001 -4.50893759727E-001 -9.95531212538E-003 -3.08477273211E-003 -5.48378557141E-006 +4.54737755717E-006 -2.39419370890E-001 +3.33677455783E-002 
+1.30100000000E+010 -5.54506540298E-001 -4.48168605566E-001 -6.09155511484E-003 +7.63850938529E-003 +6.11595623923E-006 +2.05429732887E-005 -2.43182495236E-001 +6.32976070046E-002 
+1.32100000000E+010 -5.59373855591E-001 -4.45816040039E-001 +4.26121568307E-003 +8.16272106022E-003 +6.15191902398E-006 +1.61030420713E-005 -2.43427395821E-001 +9.48468521237E-002 
+1.34100000000E+010 -5.64294159412E-001 -4.42774593830E-001 +8.89959838241E-003 -7.74977554101E-004 -2.54499500443E-005 -1.17695954032E-005 -2.39933028817E-001 +1.26546606421E-001 
+1.36100000000E+010 -5.67212164402E-001 -4.40296590328E-001 +2.39752396010E-003 -8.01343657076E-003 +1.31482247525E-005 +3.23124368151E-005 -2.32140332460E-001 +1.59407809377E-001 
+1.38100000000E+010 -5.72173297405E-001 -4.38339233398E-001 -5.98890334368E-003 -5.16893621534E-003 +2.24871860155E-006 +7.11913162377E-006 -2.19080537558E-001 +1.91443547606E-001 
+1.40100000000E+010 -5.76968550682E-001 -4.36157196760E-001 -6.88751926646E-003 +3.41324368492E-003 -2.03929585041E-006 -1.74634133145E-005 -2.02421426773E-001 +2.22611784935E-001 
+1.42100000000E+010 -5.81508100033E-001 -4.34087723494E-001 +5.69820753299E-004 +7.18231312931E-003 -4.43725693913E-005 +3.65412756764E-006 -1.81929886341E-001 +2.53851711750E-001 
+1.44100000000E+010 -5.86204469204E-001 -4.31293517351E-001 +6.43558753654E-003 +2.29394831695E-003 +1.57758331625E-005 +1.05589469968E-005 -1.56139150262E-001 +2.82488137484E-001 
+1.46100000000E+010 -5.89907705784E-001 -4.29029792547E-001 +4.48994757608E-003 -4.90006105974E-003 -1.73208663909E-005 +4.64046606794E-005 -1.25470414758E-001 +3.08005690575E-001 
+1.48100000000E+010 -5.93694269657E-001 -4.24482971430E-001 -2.70841526799E-003 -5.63008617610E-003 -6.71394263918E-006 +1.50777677845E-005 -9.25742983818E-002 +3.29998880625E-001 
+1.50100000000E+010 -5.95446169376E-001 -4.24046665430E-001 -5.89756527916E-003 +1.42969802255E-004 +1.57032336574E-005 +5.98296128373E-006 -5.69477044046E-002 +3.49447965622E-001 
+1.52100000000E+010 -5.98526537418E-001 -4.23882216215E-001 -2.06997571513E-003 +5.36194304004E-003 -4.32847946286E-006 +9.88540159597E-006 -1.81294418871E-002 +3.64506423473E-001 
+1.54100000000E+010 -6.02259933949E-001 -4.22315448523E-001 +3.92901897430E-003 +3.72884981334E-003 +5.28325472260E-006 -1.89416005014E-005 +2.41915378720E-002 +3.74535262585E-001 
+1.56100000000E+010 -6.06148719788E-001 -4.19267773628E-001 +4.75851818919E-003 -1.96806970052E-003 -2.61595123447E-005 -2.47598891292E-005 +6.80877044797E-002 +3.78852158785E-001 
+1.58100000000E+010 -6.07602238655E-001 -4.18763577938E-001 +5.63283756492E-005 -5.03669586033E-003 -3.58356373908E-005 -6.78060814607E-006 +1.12012304366E-001 +3.79278451204E-001 
+1.60100000000E+010 -6.10093355179E-001 -4.17729556561E-001 -4.35656728223E-003 -1.83847150765E-003 +9.87078510661E-006 +8.77331876836E-006 +1.57250031829E-001 +3.74349713326E-001 
+1.62100000000E+010 -6.12551331520E-001 -4.16590005159E-001 -3.34225664847E-003 +3.05480393581E-003 +5.62105412882E-007 -2.03797899303E-005 +2.04736143351E-001 +3.64027053118E-001 
+1.64100000000E+010 -6.14831328392E-001 -4.15336042643E-001 +1.51648151223E-003 +4.15130797774E-003 -3.66388690054E-006 -1.72764921444E-005 +2.51606762409E-001 +3.47873777151E-001 
+1.66100000000E+010 -6.18399739265E-001 -4.13767963648E-001 +4.14958596230E-003 +2.02320603421E-004 -1.58801231009E-005 +2.62427183770E-005 +2.95621573925E-001 +3.24321895838E-001 
+1.68100000000E+010 -6.21553242207E-001 -4.11588788033E-001 +1.80842820555E-003 -3.56172071770E-003 -2.48953474511E-005 -1.15540979095E-005 +3.38956922293E-001 +2.96927481890E-001 
+1.70100000000E+010 -6.23505413532E-001 -4.09801185131E-001 -2.52061174251E-003 -2.97095696442E-003 +1.61093157658E-005 +4.65899356641E-005 +3.79071354866E-001 +2.65610843897E-001 
+1.72100000000E+010 -6.25896573067E-001 -4.07884240150E-001 -3.49902361631E-003 +1.10261340160E-003 +2.01016591745E-005 -2.87740367639E-005 +4.16669338942E-001 +2.27049231529E-001 
+1.74100000000E+010 -6.29047453403E-001 -4.06221479177E-001 -4.20600670623E-004 +3.47007648088E-003 -1.80275419552E-005 -4.19708158006E-006 +4.50091451406E-001 +1.84230029583E-001 
+1.76100000000E+010 -6.31803154945E-001 -4.04222935438E-001 +2.99781234935E-003 +1.69731269125E-003 +1.41177442856E-005 -2.72207453236E-005 +4.77998435497E-001 +1.38126939535E-001 
+1.78100000000E+010 -6.34754359722E-001 -4.02258187532E-001 +2.60657095350E-003 -2.03953310847E-003 -2.67806117336E-005 -1.72770580775E-006 +5.01547276974E-001 +8.93365815282E-002 
+1.80100000000E+010 -6.37095630169E-001 -4.00141209364E-001 -6.70977984555E-004 -3.02607007325E-003 -1.28322362798E-005 -2.09723220905E-005 +5.20812451839E-001 +3.81351746619E-002 
+1.82100000000E+010 -6.39794409275E-001 -3.98487150669E-001 -2.96290265396E-003 -5.13845938258E-004 +8.28952306620E-006 +6.00054499955E-006 +5.33531367779E-001 -1.65636781603E-002 
+1.84100000000E+010 -6.42500340939E-001 -3.97106170654E-001 -1.55774306040E-003 +2.44096876122E-003 +4.76766808788E-006 +1.50265686898E-005 +5.39731383324E-001 -7.38665685058E-002 
+1.86100000000E+010 -6.45490348339E-001 -3.95260453224E-001 +1.48022721987E-003 +2.31003551744E-003 -3.59603745892E-007 -4.62375028292E-005 +5.39966225624E-001 -1.30519732833E-001 
+1.88100000000E+010 -6.47850871086E-001 -3.93132507801E-001 +2.67986068502E-003 -4.70203929581E-004 +9.09810751182E-006 -2.54174683505E-005 +5.34147560596E-001 -1.87312036753E-001 
+1.90100000000E+010 -6.49697542191E-001 -3.91551166773E-001 +5.91764866840E-004 -2.49045039527E-003 +1.45861258716E-005 +1.79814906005E-005 +5.22472679615E-001 -2.43673786521E-001 
+1.92100000000E+010 -6.52147233486E-001 -3.90636056662E-001 -1.97612144984E-003 -1.53848750051E-003 +2.27579243983E-006 -2.87086049866E-006 +5.04418671131E-001 -3.01299154758E-001 
+1.94100000000E+010 -6.54930651188E-001 -3.88682007790E-001 -2.17933487147E-003 +1.19523610920E-003 +3.29380345647E-005 +3.75509662263E-005 +4.79152321815E-001 -3.56067448854E-001 
+1.96100000000E+010 -6.55777573586E-001 -3.86379390955E-001 +1.99252768653E-004 +2.27753608488E-003 -1.89297752513E-005 +1.03055344880E-005 +4.48475480080E-001 -4.08286035061E-001 
+1.98100000000E+010 -6.55076563358E-001 -3.83513391018E-001 +2.17623193748E-003 +7.15432746802E-004 +4.27232480433E-005 +7.93741946836E-006 +4.13741707802E-001 -4.55927848816E-001 
+2.00100000000E+010 -6.53795063496E-001 -3.83263677359E-001 +1.46629824303E-003 -1.63725425955E-003 +3.64163388440E-005 -8.56243696035E-006 +3.71922850609E-001 -5.02480983734E-001 
