!;Filter: kein Filter
!auto
!3/21/2019 9:26:39 AM
!3/21/2019 9:26:51 AM
!SP-Measurements Prober G4
!SP-Measurements Prober G4
!01103_448C
!134
!235
!12
!50
!-20
!0.00099996
!1.65
!0.05816927
!0.05816927
# Hz S  RI   R 50
+1.00000000000E+007 +4.25234526396E-001 +5.07012940943E-003 +4.71279546618E-002 -1.92082710564E-002 +6.77159638144E-004 +1.21604731248E-004 +5.65162813291E-003 +1.22299778741E-003 
+2.10000000000E+008 +4.30185019970E-001 -4.48928363621E-002 -4.91327419877E-003 -4.94804196060E-002 +4.97140026710E-005 -9.36049218581E-006 +8.85799340904E-003 -4.52707149088E-003 
+4.10000000000E+008 +4.25093114376E-001 -8.94612520933E-002 -4.81801889837E-002 -1.07084857300E-002 +7.20850512153E-005 +7.16403810657E-005 +1.02915707976E-002 -7.22626084462E-003 
+6.10000000000E+008 +4.16975736618E-001 -1.32173046470E-001 -2.55546309054E-002 +4.31053154171E-002 +5.72361313971E-005 +1.03607409983E-004 +9.80650354177E-003 -1.14901252091E-002 
+8.10000000000E+008 +4.05915319920E-001 -1.75280719995E-001 +3.32762897015E-002 +3.77838723361E-002 -4.84517840960E-005 +1.24534044517E-005 +7.01008317992E-003 -1.53685053810E-002 
+1.01000000000E+009 +3.92082959414E-001 -2.15116858482E-001 +4.81275320053E-002 -2.08602976054E-002 -6.86753719492E-006 -5.04237686982E-006 +2.87157902494E-003 -1.90695691854E-002 
+1.21000000000E+009 +3.76552760601E-001 -2.56037771702E-001 -7.45502719656E-003 -5.21783754230E-002 -1.50549794853E-005 -5.87546264796E-006 -1.73490960151E-003 -2.12345737964E-002 
+1.41000000000E+009 +3.54648321867E-001 -2.92020052671E-001 -5.17737045884E-002 -1.28211928532E-002 -4.89743524668E-006 -1.76212943188E-005 -7.46808433905E-003 -2.45917849243E-002 
+1.61000000000E+009 +3.34994286299E-001 -3.24476897717E-001 -3.23380716145E-002 +4.84730042517E-002 -2.86914200842E-005 -2.44485750045E-006 -1.37588521466E-002 -2.68627926707E-002 
+1.81000000000E+009 +3.17238658667E-001 -3.58292311430E-001 +4.64020185173E-002 +4.84109967947E-002 -2.42335281655E-005 -2.54053065873E-005 -1.77264902741E-002 -2.78943274170E-002 
+2.01000000000E+009 +2.98057049513E-001 -4.02145773172E-001 +5.12745156884E-002 -5.68240135908E-002 +2.20720539801E-005 -1.32007835418E-005 -2.32506915927E-002 -2.68273279071E-002 
+2.21000000000E+009 +2.66443043947E-001 -4.41310942173E-001 -5.96220307052E-002 -5.25656603277E-002 -5.48203570361E-006 +5.32250596734E-005 -2.88166515529E-002 -2.47014425695E-002 
+2.41000000000E+009 +2.28955149651E-001 -4.69610154629E-001 -5.27549050748E-002 +5.45176379383E-002 +4.04034835810E-006 +1.73536627699E-005 -3.54840084910E-002 -2.24032290280E-002 
+2.61000000000E+009 +1.94910332561E-001 -4.89029496908E-001 +4.07625138760E-002 +5.63336983323E-002 +7.05553611624E-005 +3.60254052794E-005 -4.08190824091E-002 -1.93847361952E-002 
+2.81000000000E+009 +1.63870483637E-001 -5.04869580269E-001 +5.91587163508E-002 -2.43015233427E-002 +3.00898573187E-005 +4.37653898189E-006 -4.47425581515E-002 -1.44969141111E-002 
+3.01000000000E+009 +1.34690195322E-001 -5.17994225025E-001 -7.73518066853E-003 -5.69034740329E-002 -1.32867808134E-005 -1.20727054309E-005 -4.86243478954E-002 -8.77420697361E-003 
+3.21000000000E+009 +1.07826910913E-001 -5.29108881950E-001 -4.79857511818E-002 -7.37822381780E-003 -1.42266972034E-005 +3.31399223796E-006 -5.25700524449E-002 -2.27113254368E-003 
+3.41000000000E+009 +8.22976753116E-002 -5.39671659470E-001 -1.78526137024E-002 +3.74352708459E-002 +2.23206607188E-005 -2.02656283363E-005 -5.55075034499E-002 +4.85591497272E-003 
+3.61000000000E+009 +5.76538555324E-002 -5.49828290939E-001 +2.60525252670E-002 +2.47731041163E-002 -3.20049957736E-006 -1.07894511530E-005 -5.73315769434E-002 +1.17747606710E-002 
+3.81000000000E+009 +3.35308313370E-002 -5.58603882790E-001 +2.56864242256E-002 -1.38143124059E-002 +5.47333320355E-006 -5.71778291487E-005 -5.71706742048E-002 +1.92590132356E-002 
+4.01000000000E+009 +1.03443646803E-002 -5.67259490490E-001 -3.84964584373E-003 -2.43947990239E-002 -6.54486211715E-006 +1.98820816877E-005 -5.61633966863E-002 +2.72143427283E-002 
+4.21000000000E+009 -1.28642804921E-002 -5.75131595135E-001 -2.15133745223E-002 -4.47310414165E-003 -1.66011795955E-005 +3.74007104256E-005 -5.42739182711E-002 +3.59131582081E-002 
+4.41000000000E+009 -3.53703573346E-002 -5.81820607185E-001 -9.41154826432E-003 +1.57795939595E-002 +6.78768356011E-006 +1.90622777154E-005 -5.11660464108E-002 +4.43349182606E-002 
+4.61000000000E+009 -5.73166273534E-002 -5.87865054607E-001 +9.13881883025E-003 +1.24904084951E-002 +1.38718714879E-005 +1.68253773154E-005 -4.69025038183E-002 +5.16102612019E-002 
+4.81000000000E+009 -7.93499201536E-002 -5.93211233616E-001 +1.37973641977E-002 -3.35091701709E-003 -2.16943280975E-005 +3.90187160519E-005 -4.02548387647E-002 +5.88791519403E-002 
+5.01000000000E+009 -1.00424438715E-001 -5.98001837730E-001 +1.25039077830E-003 -1.22693860903E-002 +3.96681798520E-006 -2.30992532124E-006 -3.36296036839E-002 +6.54954165220E-002 
+5.21000000000E+009 -1.20880313218E-001 -6.02299630642E-001 -9.21144057065E-003 -5.41051849723E-003 +3.17326048389E-005 -9.66468269326E-006 -2.62224748731E-002 +7.14956596494E-002 
+5.41000000000E+009 -1.41100347042E-001 -6.05469405651E-001 -7.98958074301E-003 +6.03567762300E-003 -5.13532029345E-007 +4.09829444834E-005 -1.73346102238E-002 +7.66779705882E-002 
+5.61000000000E+009 -1.61134362221E-001 -6.08301341534E-001 +2.56214500405E-003 +8.52832943201E-003 -4.72543297292E-006 +3.78525146516E-005 -7.52263935283E-003 +7.98459872603E-002 
+5.81000000000E+009 -1.80216148496E-001 -6.10182285309E-001 +7.81942810863E-003 +9.55427414738E-004 +3.04654149659E-005 -5.91655807511E-005 +3.01983836107E-003 +8.08059275150E-002 
+6.01000000000E+009 -1.98631107807E-001 -6.11300945282E-001 +3.65140172653E-003 -6.41029747203E-003 +2.10946673178E-005 -5.28994605702E-005 +1.42379039899E-002 +8.27165320516E-002 
+6.21000000000E+009 -2.16757640243E-001 -6.11805021763E-001 -4.22355439514E-003 -5.17896283418E-003 +1.29799527713E-005 -6.23259529675E-006 +2.50854268670E-002 +8.21677967906E-002 
+6.41000000000E+009 -2.33955577016E-001 -6.11929535866E-001 -5.72380283847E-003 +1.60781131126E-003 -1.54121562446E-006 +7.18151295587E-006 +3.66559550166E-002 +8.02173539996E-002 
+6.61000000000E+009 -2.51158624887E-001 -6.11641049385E-001 -7.21048214473E-004 +5.57737424970E-003 +3.49296578861E-006 -1.55817760970E-005 +4.78352196515E-002 +7.52762183547E-002 
+6.81000000000E+009 -2.67727464437E-001 -6.10883295536E-001 +4.51368885115E-003 +2.44429358281E-003 -1.31305059767E-005 +8.70353960636E-006 +5.87012842298E-002 +6.93869590759E-002 
+7.01000000000E+009 -2.83553630114E-001 -6.09817147255E-001 +3.63934040070E-003 -2.84070335329E-003 +3.26323497575E-005 +2.01279581233E-005 +6.87191560864E-002 +6.30664601922E-002 
+7.21000000000E+009 -2.99122422934E-001 -6.08320355415E-001 -1.08019623440E-003 -4.20304806903E-003 +2.26383581321E-005 -4.46078083769E-005 +7.78428912163E-002 +5.44731281698E-002 
+7.41000000000E+009 -3.13892543316E-001 -6.06787323952E-001 -4.02111513540E-003 -4.92207764182E-004 -2.18150744331E-005 +3.95121933252E-005 +8.70565250516E-002 +4.42722961307E-002 
+7.61000000000E+009 -3.27741324902E-001 -6.04645431042E-001 -1.88472343143E-003 +3.15871927887E-003 -4.73118270747E-005 -2.51229562309E-006 +9.34019237757E-002 +3.21819037199E-002 
+7.81000000000E+009 -3.42001557350E-001 -6.01942241192E-001 +2.04278482124E-003 +2.83298362046E-003 +1.29013669721E-005 +2.56401090155E-005 +9.89628806710E-002 +1.97967831045E-002 
+8.01000000000E+009 -3.55110645294E-001 -5.99142968655E-001 +3.13452165574E-003 -7.40082934499E-004 +6.98464418747E-006 -3.29978211084E-005 +1.02552846074E-001 +5.97154023126E-003 
+8.21000000000E+009 -3.68026971817E-001 -5.96059799194E-001 +4.85948636197E-004 -2.97628901899E-003 +1.84360815183E-005 -1.71784704435E-005 +1.04640670121E-001 -8.22911225259E-003 
+8.41000000000E+009 -3.80450457335E-001 -5.92611074448E-001 -2.36271973699E-003 -1.48676603567E-003 +1.31349061121E-005 +1.60922681971E-005 +1.04222416878E-001 -2.34270393848E-002 
+8.61000000000E+009 -3.92600595951E-001 -5.89417278767E-001 -2.16255150735E-003 +1.50907388888E-003 +8.13351834950E-006 +2.15079708141E-005 +1.00891105831E-001 -3.88826131821E-002 
+8.81000000000E+009 -4.04147386551E-001 -5.86085677147E-001 +5.18021523021E-004 +2.32663098723E-003 -2.71137105301E-005 +2.91929445666E-005 +9.54957306385E-002 -5.45237064362E-002 
+9.01000000000E+009 -4.15443420410E-001 -5.82434535027E-001 +2.27244198322E-003 +4.92977909744E-004 -1.71313149622E-005 -1.63118547789E-005 +8.86624008417E-002 -6.83696120977E-002 
+9.21000000000E+009 -4.26346302032E-001 -5.78808665276E-001 +1.25672097784E-003 -1.79223401938E-003 +7.33565821065E-006 +3.78943732358E-005 +7.87894427776E-002 -8.32516774535E-002 
+9.41000000000E+009 -4.36421662569E-001 -5.75295865536E-001 -1.07713567559E-003 -1.67759251781E-003 -4.40539088231E-006 +1.59266910487E-005 +6.62014111876E-002 -9.69076827168E-002 
+9.61000000000E+009 -4.46475058794E-001 -5.71245193481E-001 -1.93753594067E-003 +2.95082776574E-004 -2.70216405625E-005 +2.83911576844E-005 +5.09610921144E-002 -1.09046511352E-001 
+9.81000000000E+009 -4.55730825663E-001 -5.67998051643E-001 -4.49767801911E-004 +1.74794706982E-003 -3.73234179278E-005 +3.44090803992E-005 +3.57131175697E-002 -1.18436276913E-001 
+1.00100000000E+010 -4.65321898460E-001 -5.64103007317E-001 +1.38508982491E-003 +1.02661887649E-003 -6.95702283338E-006 +6.01472811468E-006 +1.87115818262E-002 -1.26283407211E-001 
+1.02100000000E+010 -4.74107533693E-001 -5.59920072556E-001 +1.35427888017E-003 -8.20118293632E-004 +7.84029543865E-006 +1.27241710288E-005 +4.58374037407E-004 -1.33148878813E-001 
+1.04100000000E+010 -4.82840299606E-001 -5.56250214577E-001 -1.80377202923E-004 -1.53282098472E-003 +1.87424739124E-005 -1.30203511617E-006 -2.02804747969E-002 -1.38533473015E-001 
+1.06100000000E+010 -4.91231739521E-001 -5.52293360233E-001 -1.34774879552E-003 -3.73945425963E-004 +1.98421075766E-005 +2.25914518523E-005 -4.19768579304E-002 -1.41134649515E-001 
+1.08100000000E+010 -4.98496800661E-001 -5.49130856991E-001 -8.67155729793E-004 +1.03933364153E-003 +4.95175800097E-006 -2.05350224860E-005 -6.37784004211E-002 -1.40639975667E-001 
+1.10100000000E+010 -5.06119847298E-001 -5.45341193676E-001 +6.00819534156E-004 +1.13707769196E-003 -2.28834524023E-005 -2.59978187387E-005 -8.58394876122E-002 -1.37034550309E-001 
+1.12100000000E+010 -5.13105154037E-001 -5.42438924313E-001 +1.25824916176E-003 -8.90517985681E-005 +4.92200233566E-005 -1.27637649712E-005 -1.09717726707E-001 -1.30540624261E-001 
+1.14100000000E+010 -5.20396351814E-001 -5.38734972477E-001 +3.85670748074E-004 -1.13486964256E-003 +1.67429254816E-006 -5.04942318003E-006 -1.32774010301E-001 -1.20394662023E-001 
+1.16100000000E+010 -5.26206672192E-001 -5.35393953323E-001 -8.28596937936E-004 -6.90420856699E-004 +7.99216104497E-006 +3.23838430631E-005 -1.54670476913E-001 -1.06921255589E-001 
+1.18100000000E+010 -5.32527029514E-001 -5.31971335411E-001 -9.64811071754E-004 +4.15305607021E-004 -1.04458140413E-005 -1.38822233566E-005 -1.74351915717E-001 -9.00571048260E-002 
+1.20100000000E+010 -5.38807809353E-001 -5.28339922428E-001 -3.31796654791E-005 +9.66291816439E-004 -2.30667064898E-005 -9.20209549804E-006 -1.91481471062E-001 -7.05121606588E-002 
+1.22100000000E+010 -5.45198142529E-001 -5.24284482002E-001 +9.10912698600E-004 +3.34541982738E-004 +2.38455959334E-006 -2.81032753264E-005 -2.08881497383E-001 -4.84956949949E-002 
+1.24100000000E+010 -5.50979971886E-001 -5.20722687244E-001 +6.35179982055E-004 -6.22088788077E-004 -4.63173364551E-006 +9.65386789176E-006 -2.23330363631E-001 -2.32350956649E-002 
+1.26100000000E+010 -5.56600332260E-001 -5.17161726952E-001 -2.67586845439E-004 -8.17975087557E-004 +1.71850479092E-005 -1.50260916598E-006 -2.33717679977E-001 +4.55345353112E-003 
+1.28100000000E+010 -5.62073171139E-001 -5.13459146023E-001 -8.45760456286E-004 -3.61196907761E-005 -3.38871432177E-005 -8.32153273223E-006 -2.39938497543E-001 +3.37866730988E-002 
+1.30100000000E+010 -5.67480921745E-001 -5.09142160416E-001 -3.44538275385E-004 +7.60059803724E-004 +1.46983720697E-005 -1.34966949190E-005 -2.43629768491E-001 +6.37459233403E-002 
+1.32100000000E+010 -5.72474241257E-001 -5.05326092243E-001 +4.97526780237E-004 +5.24498696905E-004 -3.95990282414E-005 -1.00705738078E-005 -2.43891358376E-001 +9.53970178962E-002 
+1.34100000000E+010 -5.77598810196E-001 -5.00779867172E-001 +6.72064546961E-004 -2.23325274419E-004 +5.70108113607E-006 -1.06837196654E-005 -2.40248113871E-001 +1.27156421542E-001 
+1.36100000000E+010 -5.80569863319E-001 -4.96874332428E-001 +3.80466080969E-005 -6.87147898134E-004 +4.63723472421E-006 -2.29213674174E-005 -2.32364118099E-001 +1.60034000874E-001 
+1.38100000000E+010 -5.85709333420E-001 -4.93679881096E-001 -5.31483034138E-004 -2.98054859741E-004 +3.38829486282E-005 +4.18577619712E-005 -2.19238862395E-001 +1.92165702581E-001 
+1.40100000000E+010 -5.90584039688E-001 -4.90124017000E-001 -5.10651443619E-004 +3.90294066165E-004 +2.02090232051E-005 +2.33471637330E-005 -2.02379941940E-001 +2.23333835602E-001 
+1.42100000000E+010 -5.95068395138E-001 -4.86754745245E-001 +1.45101497765E-004 +5.64890913665E-004 -5.24952993146E-005 -4.37894668721E-005 -1.81833446026E-001 +2.54534810781E-001 
+1.44100000000E+010 -5.99808037281E-001 -4.82669591904E-001 +5.63329434954E-004 +1.10208391561E-004 -2.01702205231E-005 +2.80180247501E-005 -1.56030237675E-001 +2.83229321241E-001 
+1.46100000000E+010 -6.03492319584E-001 -4.79190915823E-001 +3.03127744701E-004 -5.12259779498E-004 +2.10006346606E-005 +6.14241143921E-005 -1.25262632966E-001 +3.08731734753E-001 
+1.48100000000E+010 -6.07209324837E-001 -4.73278045654E-001 -2.91164993541E-004 -4.39607916633E-004 -1.91329454537E-005 -2.55699637819E-006 -9.22039449215E-002 +3.30756723881E-001 
+1.50100000000E+010 -6.08716189861E-001 -4.71767574549E-001 -4.83768963022E-004 +8.44056557980E-005 +2.40748086071E-005 +3.03703677673E-006 -5.64989820123E-002 +3.50081831217E-001 
+1.52100000000E+010 -6.11560523510E-001 -4.70607697964E-001 -8.63058085088E-005 +4.87273966428E-004 -4.28994571848E-005 +5.37893856745E-006 -1.75158306956E-002 +3.65068674088E-001 
+1.54100000000E+010 -6.15158617496E-001 -4.68033432961E-001 +4.09609900089E-004 +2.66808958258E-004 +8.54260815686E-006 -4.89168960485E-005 +2.48407498002E-002 +3.75001937151E-001 
+1.56100000000E+010 -6.19017660618E-001 -4.63990271091E-001 +4.16814844357E-004 -2.25658470299E-004 -7.90417198004E-006 +2.76042301266E-005 +6.88062980771E-002 +3.79316568375E-001 
+1.58100000000E+010 -6.20353043079E-001 -4.62593585253E-001 -4.16122638853E-005 -4.33859153418E-004 +3.57561802957E-005 -2.82284763671E-005 +1.12843625247E-001 +3.79588901997E-001 
+1.60100000000E+010 -6.22649073601E-001 -4.60727185011E-001 -4.05375554692E-004 -9.18677251320E-005 -1.86534562090E-005 +4.95989952469E-005 +1.58075153828E-001 +3.74512404203E-001 
+1.62100000000E+010 -6.24885201454E-001 -4.58610862494E-001 -2.13952516788E-004 +3.43095103744E-004 -3.65061823686E-005 -4.40877010988E-006 +2.05591782928E-001 +3.64109665155E-001 
+1.64100000000E+010 -6.26873791218E-001 -4.56510514021E-001 +1.86398639926E-004 +3.53187293513E-004 -1.94989697775E-005 +2.28922635870E-005 +2.52544909716E-001 +3.47869217396E-001 
+1.66100000000E+010 -6.30365848541E-001 -4.54324483871E-001 +3.26391658746E-004 -3.33224784299E-006 -1.70285202330E-005 +4.47747188446E-005 +2.96523153782E-001 +3.24144929647E-001 
+1.68100000000E+010 -6.33562743664E-001 -4.51412439346E-001 +1.07378975372E-004 -3.31299670506E-004 -3.32721938321E-005 -4.25050056947E-005 +3.39862823486E-001 +2.96593576670E-001 
+1.70100000000E+010 -6.35340392590E-001 -4.48763698339E-001 -2.46881885687E-004 -2.05361386179E-004 -4.73850705021E-005 -4.21786098741E-005 +3.79870921373E-001 +2.65117913485E-001 
+1.72100000000E+010 -6.37649774551E-001 -4.46209460497E-001 -2.56912549958E-004 +1.02717538539E-004 -1.11664339784E-005 +3.16633631883E-005 +4.17406767607E-001 +2.26503670216E-001 
+1.74100000000E+010 -6.40628576279E-001 -4.43692296743E-001 +1.12894977065E-005 +3.34175681928E-004 +2.36699270317E-005 +1.21007005873E-005 +4.50721532106E-001 +1.83601990342E-001 
+1.76100000000E+010 -6.43108367920E-001 -4.41066950560E-001 +2.67284864094E-004 +1.16379822430E-004 +7.48724232835E-006 -2.47756288445E-005 +4.78493392467E-001 +1.37390375137E-001 
+1.78100000000E+010 -6.46022975445E-001 -4.38530981541E-001 +2.29833458434E-004 -2.06870012335E-004 -3.81423087674E-005 -5.88701323068E-006 +5.02017378807E-001 +8.85204374790E-002 
+1.80100000000E+010 -6.48224592209E-001 -4.35766756535E-001 -1.53221772052E-004 -2.64247326413E-004 +1.40888305395E-005 -6.04396245762E-006 +5.21234154701E-001 +3.72952930629E-002 
+1.82100000000E+010 -6.50899589062E-001 -4.33480381966E-001 -3.06844187435E-004 -4.49802100775E-005 -6.85733321006E-005 +4.36472801084E-005 +5.33738195896E-001 -1.74579042941E-002 
+1.84100000000E+010 -6.53376281261E-001 -4.31542962790E-001 -1.01835808891E-004 +2.41758025368E-004 +4.53097527497E-005 +2.69880583801E-005 +5.39814293385E-001 -7.48127624393E-002 
+1.86100000000E+010 -6.56239032745E-001 -4.29050207138E-001 +1.67422665982E-004 +1.90381775610E-004 +1.16680921565E-005 -1.57287104230E-005 +5.39916276932E-001 -1.31573066115E-001 
+1.88100000000E+010 -6.58454060555E-001 -4.26428079605E-001 +2.63380265096E-004 -1.11296183604E-004 +1.02747571873E-005 -6.03414482612E-005 +5.33868074417E-001 -1.88297644258E-001 
+1.90100000000E+010 -6.60118460655E-001 -4.24287825823E-001 +2.67484756478E-005 -2.65224109171E-004 +2.97857172882E-006 -5.09698402311E-005 +5.22082328796E-001 -2.44570434093E-001 
+1.92100000000E+010 -6.62300705910E-001 -4.22882914543E-001 -1.66467638337E-004 -7.06904393155E-005 -5.12988917762E-005 +6.36640606899E-006 +5.03896296024E-001 -3.02161723375E-001 
+1.94100000000E+010 -6.64825379848E-001 -4.20413941145E-001 -1.80531002115E-004 +1.06147548649E-004 -5.07445110998E-005 -1.28426545416E-005 +4.78625088930E-001 -3.56935054064E-001 
+1.96100000000E+010 -6.65577411652E-001 -4.17947828770E-001 +1.24911937746E-004 +2.25223528105E-004 -9.98441009870E-006 -2.44046623266E-005 +4.47772413492E-001 -4.09145802259E-001 
+1.98100000000E+010 -6.64975762367E-001 -4.14756059647E-001 +1.98216934223E-004 +2.36908908846E-005 +5.75815101911E-005 -8.60464479047E-006 +4.12810444832E-001 -4.56665784121E-001 
+2.00100000000E+010 -6.64008021355E-001 -4.13691192865E-001 +9.08934816835E-005 -1.53421438881E-004 +5.89194223721E-006 +5.67992992728E-006 +3.70960861444E-001 -5.03095448017E-001 
