!;Filter: kein Filter
!auto
!3/21/2019 9:26:52 AM
!3/21/2019 9:27:07 AM
!SP-Measurements Prober G4
!SP-Measurements Prober G4
!01103_448C
!134
!233
!12
!50
!-20
!0.00199954
!1.75
!0.22129449
!0.22129449
# Hz S  RI   R 50
+1.00000000000E+007 +3.91718506813E-001 +8.64452216774E-003 +4.90974746644E-002 -2.00545191765E-002 +2.75138765574E-004 -2.48259544605E-004 +4.68146242201E-003 +8.26389295980E-004 
+2.10000000000E+008 +4.10042464733E-001 -3.75643931329E-002 -3.89138958417E-003 -4.94452267885E-002 -1.85948247236E-005 -3.13948730764E-005 +8.75748600811E-003 -4.48010396212E-003 
+4.10000000000E+008 +4.07749682665E-001 -8.18558186293E-002 -4.61930260062E-002 -1.27599574625E-002 +5.88052444073E-006 -2.88010360237E-005 +1.02226221934E-002 -7.20120454207E-003 
+6.10000000000E+008 +4.00613546371E-001 -1.24653704464E-001 -2.72859297693E-002 +3.77550274134E-002 +9.05984870769E-006 +1.44122204802E-005 +9.76626295596E-003 -1.15493824705E-002 
+8.10000000000E+008 +3.89372885227E-001 -1.65223956108E-001 +2.50249207020E-002 +3.85362431407E-002 -1.21630055219E-005 +1.86702454812E-005 +7.04973191023E-003 -1.53497736901E-002 
+1.01000000000E+009 +3.76899182796E-001 -2.04487413168E-001 +4.46870326996E-002 -1.07868053019E-002 -1.37693923534E-005 -7.74555155658E-006 +2.86364392377E-003 -1.90592091531E-002 
+1.21000000000E+009 +3.60168099403E-001 -2.41624832153E-001 +6.03060610592E-003 -4.36742380261E-002 +9.41870348470E-006 +1.03863456502E-007 -1.71144166961E-003 -2.12096106261E-002 
+1.41000000000E+009 +3.42084616423E-001 -2.76371955872E-001 -3.84000167251E-002 -2.17090714723E-002 -4.05191212849E-006 -2.30244586419E-005 -7.51028023660E-003 -2.45542004704E-002 
+1.61000000000E+009 +3.23589920998E-001 -3.10005873442E-001 -3.31529080868E-002 +2.90987826884E-002 +2.14878691622E-005 +5.16335103384E-006 -1.37636372820E-002 -2.68051214516E-002 
+1.81000000000E+009 +3.01728546619E-001 -3.40944677591E-001 +1.38488868251E-002 +4.02226820588E-002 -2.08563651540E-005 -2.77861763607E-005 -1.76713503897E-002 -2.78943870217E-002 
+2.01000000000E+009 +2.80302166939E-001 -3.69656831026E-001 +4.31489050388E-002 +2.11972557008E-003 +2.08176625165E-005 +4.06430626754E-006 -2.32332814485E-002 -2.68250852823E-002 
+2.21000000000E+009 +2.57608711720E-001 -3.97575914860E-001 +1.61563567817E-002 -4.01595011353E-002 -1.59965056810E-005 +3.47105851688E-005 -2.88140904158E-002 -2.46287565678E-002 
+2.41000000000E+009 +2.32945561409E-001 -4.22217994928E-001 -2.99805141985E-002 -2.94828508049E-002 -7.73903320805E-006 -1.51793537952E-005 -3.54309640825E-002 -2.23824009299E-002 
+2.61000000000E+009 +2.08907321095E-001 -4.44921970367E-001 -3.96303869784E-002 +1.73485558480E-002 -8.14519808046E-006 +1.29306990857E-005 -4.08265851438E-002 -1.93918403238E-002 
+2.81000000000E+009 +1.84060364962E-001 -4.66538637877E-001 +3.62686510198E-003 +4.32189069688E-002 -1.12840452857E-005 +6.90146634952E-006 -4.47472371161E-002 -1.44623499364E-002 
+3.01000000000E+009 +1.58397689462E-001 -4.85106050968E-001 +4.03614751995E-002 +1.32113192230E-002 -3.67481770809E-005 -9.01036582945E-006 -4.86313030124E-002 -8.73850099742E-003 
+3.21000000000E+009 +1.33514836431E-001 -5.02327919006E-001 +2.83851884305E-002 -3.41163277626E-002 -1.03418115032E-005 +7.65323238738E-006 -5.25447092950E-002 -2.20846594311E-003 
+3.41000000000E+009 +1.08531065285E-001 -5.18442213535E-001 -2.35500261188E-002 -3.77597846091E-002 +5.72094131712E-006 -1.49826541929E-006 -5.54735325277E-002 +4.83706407249E-003 
+3.61000000000E+009 +8.34853574634E-002 -5.32234787941E-001 -4.33981046081E-002 +6.74185110256E-003 +7.62429090173E-006 -1.40714855661E-005 -5.72930872440E-002 +1.18135744706E-002 
+3.81000000000E+009 +5.90498484671E-002 -5.44651567936E-001 -9.95285343379E-003 +4.55981642008E-002 +8.20821151137E-006 -1.05955032268E-005 -5.71010522544E-002 +1.92557070404E-002 
+4.01000000000E+009 +3.47962081432E-002 -5.56377947330E-001 +4.06167693436E-002 +2.34071202576E-002 +7.85771771916E-006 +1.82792646228E-005 -5.61098456383E-002 +2.72052921355E-002 
+4.21000000000E+009 +1.08677484095E-002 -5.65834105015E-001 +3.75424139202E-002 -2.80144941062E-002 -2.33125774685E-005 +1.46667916852E-005 -5.42206950486E-002 +3.58817316592E-002 
+4.41000000000E+009 -1.22209284455E-002 -5.74725747108E-001 -1.46322324872E-002 -4.84568402171E-002 +2.99607163470E-005 +1.84692362382E-005 -5.10794669390E-002 +4.42936085165E-002 
+4.61000000000E+009 -3.54572124779E-002 -5.82592844963E-001 -5.08096180856E-002 -8.47673945827E-005 -4.11167229686E-006 -2.58399049926E-005 -4.69218343496E-002 +5.16004599631E-002 
+4.81000000000E+009 -5.80335482955E-002 -5.88741958141E-001 -2.01009828597E-002 +4.73781861365E-002 -5.67972119825E-006 -2.41759116761E-005 -4.02812063694E-002 +5.88566884398E-002 
+5.01000000000E+009 -7.97494947910E-002 -5.95262527466E-001 +4.29083965719E-002 +3.68261262774E-002 +2.34200451814E-005 +6.29185842627E-006 -3.36383320391E-002 +6.54708594084E-002 
+5.21000000000E+009 -1.01598270237E-001 -6.00560963154E-001 +4.64091561735E-002 -3.09419017285E-002 +8.61759690451E-006 -8.13504266262E-006 -2.62120962143E-002 +7.14767798781E-002 
+5.41000000000E+009 -1.22253842652E-001 -6.04327380657E-001 -1.20595293120E-002 -5.65606765449E-002 +1.98781999643E-005 -9.03071486391E-006 -1.73533577472E-002 +7.66189247370E-002 
+5.61000000000E+009 -1.43514931202E-001 -6.08584940434E-001 -6.28095865250E-002 -2.15207855217E-003 +9.25816493691E-007 +2.00102931558E-005 -7.53181381151E-003 +7.98040404916E-002 
+5.81000000000E+009 -1.64007335901E-001 -6.10524475574E-001 -1.76815092564E-002 +5.71555607021E-002 -1.26141480905E-006 -1.04971777546E-005 +2.99567542970E-003 +8.07355269790E-002 
+6.01000000000E+009 -1.83111757040E-001 -6.12087428570E-001 +5.02038598061E-002 +3.71066667140E-002 +1.44977548189E-005 -1.89246384252E-006 +1.41953397542E-002 +8.26639682055E-002 
+6.21000000000E+009 -2.02921837568E-001 -6.12805902958E-001 +4.65735793114E-002 -4.33481708169E-002 -1.05815695406E-006 -2.27121672651E-005 +2.50221285969E-002 +8.21502283216E-002 
+6.41000000000E+009 -2.20908537507E-001 -6.12284183502E-001 -2.61530801654E-002 -5.18486462533E-002 -6.99280144545E-006 +1.53334058268E-005 +3.65897230804E-002 +8.01954120398E-002 
+6.61000000000E+009 -2.38746061921E-001 -6.11828744411E-001 -5.78822046518E-002 +1.05410721153E-002 -6.58778935758E-006 +7.37438722354E-006 +4.78036925197E-002 +7.51937776804E-002 
+6.81000000000E+009 -2.56096333265E-001 -6.10259592533E-001 -1.05763704050E-003 +5.42116314173E-002 -4.64709546577E-006 +2.30601381190E-005 +5.86627647281E-002 +6.93196430802E-002 
+7.01000000000E+009 -2.71853953600E-001 -6.08600020409E-001 +4.53478246927E-002 +1.64697151631E-002 -1.36605540320E-005 -7.49934679334E-006 +6.86660259962E-002 +6.30356445909E-002 
+7.21000000000E+009 -2.87558376789E-001 -6.06649398804E-001 +2.75271851569E-002 -3.74933630228E-002 +2.30622044910E-005 -9.71517420112E-006 +7.78144523501E-002 +5.44902458787E-002 
+7.41000000000E+009 -3.02153736353E-001 -6.04592323303E-001 -2.50641573220E-002 -3.20282392204E-002 -1.53234486788E-005 -7.66400535213E-006 +8.69789570570E-002 +4.42888922989E-002 
+7.61000000000E+009 -3.15820187330E-001 -6.02266848087E-001 -3.51282730699E-002 +1.11858649179E-002 -9.77881609288E-006 +8.54488098412E-006 +9.33805927634E-002 +3.21840047836E-002 
+7.81000000000E+009 -3.29930633307E-001 -5.99351942539E-001 +1.49994477397E-004 +3.42347957194E-002 +1.44155837916E-005 +1.61977386597E-005 +9.89018976688E-002 +1.98523793370E-002 
+8.01000000000E+009 -3.42724978924E-001 -5.96390545368E-001 +2.82489359379E-002 +9.66331735253E-003 +2.59837588601E-006 -2.88135834126E-006 +1.02458320558E-001 +6.06716843322E-003 
+8.21000000000E+009 -3.55429410934E-001 -5.93377172947E-001 +1.76360998303E-002 -2.09411717951E-002 -6.96204369888E-006 +1.67145371961E-005 +1.04609757662E-001 -8.19660536945E-003 
+8.41000000000E+009 -3.67648273706E-001 -5.89847028255E-001 -1.28227584064E-002 -2.14332863688E-002 -7.94551397121E-006 +1.74556942056E-006 +1.04166142642E-001 -2.33807452023E-002 
+8.61000000000E+009 -3.79598915577E-001 -5.86694240570E-001 -2.19956822693E-002 +3.60156456009E-003 +2.03153831535E-006 +5.00414785165E-007 +1.00860618055E-001 -3.88202704489E-002 
+8.81000000000E+009 -3.90986770391E-001 -5.83382606506E-001 -4.27593430504E-003 +2.03825794160E-002 -3.04944251184E-006 -1.56678834173E-005 +9.54650640488E-002 -5.44392243028E-002 
+9.01000000000E+009 -4.02033895254E-001 -5.79766631126E-001 +1.58433616161E-002 +9.97856445611E-003 -3.24942993757E-005 +1.74564120243E-005 +8.86254087090E-002 -6.82889968157E-002 
+9.21000000000E+009 -4.12737697363E-001 -5.76262474060E-001 +1.40369459987E-002 -9.90766286850E-003 +3.80216738449E-006 -5.33539775915E-007 +7.87938162684E-002 -8.31485167146E-002 
+9.41000000000E+009 -4.22699689865E-001 -5.72729110718E-001 -3.98615561426E-003 -1.55761772767E-002 -9.17116622645E-008 -2.16048574657E-005 +6.62002637982E-002 -9.68031585217E-002 
+9.61000000000E+009 -4.32514637709E-001 -5.68863987923E-001 -1.42842223868E-002 -1.79768516682E-003 +2.80057174677E-005 +4.17341925640E-006 +5.09763136506E-002 -1.09007775784E-001 
+9.81000000000E+009 -4.41622614861E-001 -5.65663218498E-001 -6.86893379316E-003 +1.15418555215E-002 -2.92614786304E-005 +6.39051677354E-006 +3.57418656349E-002 -1.18367753923E-001 
+1.00100000000E+010 -4.51079189777E-001 -5.61869859695E-001 +7.90545716882E-003 +9.90189984441E-003 +9.16755834623E-006 -3.11153526127E-005 +1.86643935740E-002 -1.26207277179E-001 
+1.02100000000E+010 -4.59634751081E-001 -5.57850122452E-001 +1.09489727765E-002 -3.19934287108E-003 +1.98041580006E-005 -1.22136989376E-005 +4.44413832156E-004 -1.33094891906E-001 
+1.04100000000E+010 -4.68235254288E-001 -5.54239869118E-001 +1.44413532689E-003 -1.07394000515E-002 +6.03733406024E-006 +1.64553930517E-005 -2.01936513186E-002 -1.38429924846E-001 
+1.06100000000E+010 -4.76555407047E-001 -5.50491511822E-001 -8.99129360914E-003 -4.80396905914E-003 -1.85199478437E-005 +1.53469918587E-005 -4.19144630432E-002 -1.41026228666E-001 
+1.08100000000E+010 -4.83689397573E-001 -5.47526061535E-001 -7.15463934466E-003 +5.75800798833E-003 +1.15957413982E-006 +8.33504236653E-006 -6.37056529522E-002 -1.40615060925E-001 
+1.10100000000E+010 -4.91273701191E-001 -5.43837726116E-001 +2.30505410582E-003 +8.54856986552E-003 -4.75292790725E-006 +1.08095400719E-005 -8.57652649283E-002 -1.36985749006E-001 
+1.12100000000E+010 -4.98159676790E-001 -5.41026949883E-001 +8.27409606427E-003 +7.74275918957E-004 -4.34213325207E-006 -2.15433610720E-005 -1.09600670636E-001 -1.30524918437E-001 
+1.14100000000E+010 -5.05327522755E-001 -5.37391006947E-001 +3.64597886801E-003 -6.55699986964E-003 -1.47336891132E-006 +4.02968817070E-006 -1.32680296898E-001 -1.20386756957E-001 
+1.16100000000E+010 -5.10999202728E-001 -5.34167528152E-001 -4.42541809753E-003 -5.87579468265E-003 +2.80567237496E-005 -6.28425777904E-006 -1.54572412372E-001 -1.06922186911E-001 
+1.18100000000E+010 -5.17119824886E-001 -5.30867218971E-001 -6.62464322522E-003 +1.95253035054E-003 +1.81101750059E-005 -2.39299297391E-005 -1.74242824316E-001 -9.00234356523E-002 
+1.20100000000E+010 -5.23335099220E-001 -5.27239739895E-001 -8.24949587695E-004 +6.24891277403E-003 -1.12715979412E-005 +1.56995902216E-005 -1.91365540028E-001 -7.04697966576E-002 
+1.22100000000E+010 -5.29578328133E-001 -5.23368060589E-001 +5.27532305568E-003 +3.18614253774E-003 -2.48653850576E-005 -1.83491883945E-005 -2.08729594946E-001 -4.85580153763E-002 
+1.24100000000E+010 -5.35200774670E-001 -5.19906103611E-001 +4.51195891947E-003 -3.54479160160E-003 -1.76725041001E-006 -5.28218606632E-006 -2.23234429955E-001 -2.32623107731E-002 
+1.26100000000E+010 -5.40662229061E-001 -5.16414523125E-001 -1.23530300334E-003 -5.11530507356E-003 +2.00903068617E-005 -1.00507377283E-005 -2.33650982380E-001 +4.45773219690E-003 
+1.28100000000E+010 -5.45905232430E-001 -5.12669146061E-001 -5.11436723173E-003 -9.13334835786E-004 +7.37786513128E-006 +1.16394294309E-005 -2.39849895239E-001 +3.36151421070E-002 
+1.30100000000E+010 -5.51050484180E-001 -5.08573114872E-001 -2.47819209471E-003 +4.16606478393E-003 -2.51175843005E-005 -1.83983120223E-005 -2.43557557464E-001 +6.36316761374E-002 
+1.32100000000E+010 -5.55755376816E-001 -5.04736363888E-001 +2.52063060179E-003 +3.67713114247E-003 -4.63890955871E-006 -6.68542543281E-006 -2.43836566806E-001 +9.52584668994E-002 
+1.34100000000E+010 -5.60569584370E-001 -5.00409424305E-001 +4.36229351908E-003 -8.52669181768E-004 -2.06399618037E-005 +5.22762711626E-005 -2.40233510733E-001 +1.27079501748E-001 
+1.36100000000E+010 -5.63493609428E-001 -4.96803641319E-001 +6.96646864526E-004 -4.07102471218E-003 -5.03252294948E-006 -2.21992395382E-005 -2.32353687286E-001 +1.59957543015E-001 
+1.38100000000E+010 -5.68227350712E-001 -4.93642508984E-001 -3.12449783087E-003 -2.18704761937E-003 +1.03473721538E-005 +3.24539178109E-005 -2.19211965799E-001 +1.92002624273E-001 
+1.40100000000E+010 -5.72912931442E-001 -4.90152478218E-001 -3.25853587128E-003 +2.04905541614E-003 +2.67995824288E-006 +8.97978770809E-006 -2.02490791678E-001 +2.23211467266E-001 
+1.42100000000E+010 -5.77097594738E-001 -4.86986339092E-001 +6.97420735378E-004 +3.47516918555E-003 -4.97569317304E-007 +4.40255644207E-006 -1.81915253401E-001 +2.54452079535E-001 
+1.44100000000E+010 -5.81511914730E-001 -4.83162820339E-001 +3.18740727380E-003 +8.16306623165E-004 -1.45627682286E-005 +2.98424274661E-005 -1.56116142869E-001 +2.83110171556E-001 
+1.46100000000E+010 -5.84810972214E-001 -4.79891389608E-001 +2.02817493118E-003 -2.61393119581E-003 -2.26436914090E-005 +4.27195891461E-006 -1.25370323658E-001 +3.08589637280E-001 
+1.48100000000E+010 -5.88074028492E-001 -4.74448949099E-001 -1.62522820756E-003 -2.60216183960E-003 -1.88594203792E-005 -1.79294111149E-005 -9.23132970929E-002 +3.30679237843E-001 
+1.50100000000E+010 -5.89471757412E-001 -4.73319470882E-001 -2.85370647907E-003 +2.98688508337E-004 +8.02425438451E-006 -1.91652452486E-005 -5.65672926605E-002 +3.50058913231E-001 
+1.52100000000E+010 -5.92003881931E-001 -4.72545713186E-001 -8.18165077362E-004 +2.73459078744E-003 +1.26353927499E-006 -2.13580051422E-007 -1.76262147725E-002 +3.65029066801E-001 
+1.54100000000E+010 -5.95368802547E-001 -4.70389932394E-001 +2.07657972351E-003 +1.62483355962E-003 -7.78153844294E-006 -1.39968085477E-006 +2.46878117323E-002 +3.74982982874E-001 
+1.56100000000E+010 -5.98769009113E-001 -4.66845154762E-001 +2.23152618855E-003 -1.09527353197E-003 -1.34426836667E-005 +1.70906478161E-005 +6.86722770333E-002 +3.79207968712E-001 
+1.58100000000E+010 -6.00042283535E-001 -4.66126769781E-001 -1.47763450514E-004 -2.51917913556E-003 -2.40725821641E-005 -1.38015029734E-005 +1.12676188350E-001 +3.79610955715E-001 
+1.60100000000E+010 -6.02215886116E-001 -4.64638411999E-001 -2.19336920418E-003 -6.86246668920E-004 -7.96354186150E-007 +1.23364397950E-005 +1.57920762897E-001 +3.74566823244E-001 
+1.62100000000E+010 -6.04453206062E-001 -4.63114619255E-001 -1.53125205543E-003 +1.58832594752E-003 +4.01539091399E-006 +3.20925064443E-005 +2.05469608307E-001 +3.64169389009E-001 
+1.64100000000E+010 -6.06348693371E-001 -4.61626291275E-001 +8.83135595359E-004 +2.01546540484E-003 +1.38951400004E-005 -9.76919363893E-006 +2.52362936735E-001 +3.47919553518E-001 
+1.66100000000E+010 -6.09851300716E-001 -4.60105329752E-001 +2.02404730953E-003 -3.81048885174E-005 +8.16637384560E-006 +3.05552885038E-006 +2.96403259039E-001 +3.24214905500E-001 
+1.68100000000E+010 -6.13122105598E-001 -4.57682549953E-001 +7.80330097768E-004 -1.77494215313E-003 +2.05369851756E-005 -7.49715763959E-006 +3.39771628380E-001 +2.96698242426E-001 
+1.70100000000E+010 -6.15031778812E-001 -4.55628603697E-001 -1.30774488207E-003 -1.38873059768E-003 -3.50659029209E-005 -7.51401103116E-006 +3.79846215248E-001 +2.65235394239E-001 
+1.72100000000E+010 -6.17419242859E-001 -4.53529983759E-001 -1.67397211771E-003 +6.76417839713E-004 +3.29087961290E-005 -8.79809067555E-006 +4.17327105999E-001 +2.26560398936E-001 
+1.74100000000E+010 -6.20551943779E-001 -4.51701343060E-001 -1.32487941300E-004 +1.74815813079E-003 +4.84191878058E-006 -1.68576534634E-005 +4.50753450394E-001 +1.83728933334E-001 
+1.76100000000E+010 -6.23353123665E-001 -4.49625909328E-001 +1.58226036001E-003 +7.42898730095E-004 +5.06194410264E-005 +2.05975593417E-005 +4.78544801474E-001 +1.37569278479E-001 
+1.78100000000E+010 -6.26477837563E-001 -4.47451084852E-001 +1.17757916451E-003 -1.03599240538E-003 -5.73837314732E-006 -3.68194960174E-005 +5.02041876316E-001 +8.86523127556E-002 
+1.80100000000E+010 -6.29019200802E-001 -4.45180624723E-001 -4.27418592153E-004 -1.45090010483E-003 -1.47437629039E-006 +1.60921663337E-005 +5.21286189556E-001 +3.74296084046E-002 
+1.82100000000E+010 -6.32008075714E-001 -4.43392992020E-001 -1.48992601316E-003 -1.54648863827E-004 +1.71303381649E-005 +3.82063590223E-005 +5.33810436726E-001 -1.73028763384E-002 
+1.84100000000E+010 -6.34917974472E-001 -4.41685736179E-001 -6.45940133836E-004 +1.21614907403E-003 -2.58543605014E-005 +1.45030544445E-005 +5.39902806282E-001 -7.46531262994E-002 
+1.86100000000E+010 -6.38033688068E-001 -4.39621627331E-001 +7.73579522502E-004 +1.09984236769E-003 +1.12522466225E-005 -6.17427576799E-006 +5.40006518364E-001 -1.31404012442E-001 
+1.88100000000E+010 -6.40698969364E-001 -4.37246978283E-001 +1.34840782266E-003 -3.23138723616E-004 +7.86772670835E-006 -1.47299342643E-005 +5.34009218216E-001 -1.88168093562E-001 
+1.90100000000E+010 -6.42584145069E-001 -4.35346633196E-001 +1.54120716616E-004 -1.27234624233E-003 -1.06121742647E-005 -7.44828685129E-006 +5.22259354591E-001 -2.44458168745E-001 
+1.92100000000E+010 -6.45142674446E-001 -4.34319943190E-001 -1.02955417242E-003 -6.70781824738E-004 -1.04481032395E-005 +1.07332816697E-005 +5.04154384136E-001 -3.02012503147E-001 
+1.94100000000E+010 -6.47977769375E-001 -4.32182341814E-001 -9.90910106339E-004 +6.43457344268E-004 -3.01006766676E-005 -1.71844949364E-005 +4.78813946247E-001 -3.56920182705E-001 
+1.96100000000E+010 -6.49178683758E-001 -4.29962426424E-001 +2.32112681260E-004 +1.09064287972E-003 +1.67451835296E-005 -2.10150465136E-005 +4.47970092297E-001 -4.09148663282E-001 
+1.98100000000E+010 -6.49133205414E-001 -4.27172362804E-001 +1.03224127088E-003 +3.07544833049E-004 -1.74510987563E-005 -4.71067796752E-005 +4.13052260876E-001 -4.56628382206E-001 
+2.00100000000E+010 -6.48898839951E-001 -4.25741553307E-001 +6.44800195005E-004 -8.18199478090E-004 +1.30660637296E-005 -1.93820324057E-005 +3.71204972267E-001 -5.03127694130E-001 
