!;Filter: kein Filter
!auto
!3/21/2019 9:26:39 AM
!3/21/2019 9:26:51 AM
!SP-Measurements Prober G4
!SP-Measurements Prober G4
!01103_448C
!134
!237
!12
!50
!-20
!0.00099996
!1.65
!0.05816927
!0.05816927
# Hz S  RI   R 50
+1.00000000000E+007 +3.90437245369E-001 +4.78660920635E-003 +4.12202887237E-002 -1.86234489083E-002 -2.56273779087E-004 +3.61562677426E-004 +5.36815309897E-003 +1.25797442161E-003 
+2.10000000000E+008 +3.81438672543E-001 -5.79928904772E-002 -7.96373374760E-003 -4.30689677596E-002 -6.66578780510E-005 -2.30387176998E-005 +8.77565797418E-003 -4.47950232774E-003 
+4.10000000000E+008 +3.66452455521E-001 -1.00560560822E-001 -4.36955355108E-002 -2.00188532472E-003 +8.56417409523E-006 +1.02716519905E-004 +1.02383438498E-002 -7.20845861360E-003 
+6.10000000000E+008 +3.54533880949E-001 -1.40025258064E-001 -1.12428441644E-002 +4.30345870554E-002 -2.45963801717E-005 +2.75141046586E-005 +9.79772955179E-003 -1.15006314591E-002 
+8.10000000000E+008 +3.35893869400E-001 -1.78022563457E-001 +3.79018932581E-002 +2.39866822958E-002 -4.09253198086E-006 -2.15035943256E-005 +7.03728338704E-003 -1.53397768736E-002 
+1.01000000000E+009 +3.25570166111E-001 -2.13635697961E-001 +3.37579399347E-002 -3.82033511996E-002 +3.70606139768E-005 +2.59986009041E-005 +2.88394466043E-003 -1.91188994795E-002 
+1.21000000000E+009 +3.12502503395E-001 -2.60595798492E-001 -4.19227518141E-002 -3.20322513580E-002 +4.22003686253E-005 -4.07525330957E-005 -1.70760788023E-003 -2.12090201676E-002 
+1.41000000000E+009 +2.85240024328E-001 -3.03078383207E-001 -2.91778687388E-002 +4.13293242455E-002 +3.48107496393E-005 -2.13859784708E-005 -7.49205052853E-003 -2.46113631874E-002 
+1.61000000000E+009 +2.53049492836E-001 -3.34922045469E-001 +3.73210012913E-002 +2.72011570632E-002 +1.33054290927E-005 -2.10103808058E-005 -1.37477694079E-002 -2.68362686038E-002 
+1.81000000000E+009 +2.22573339939E-001 -3.58318924904E-001 +2.75472905487E-002 -3.01655568182E-002 +1.01684972833E-005 -1.05055305539E-005 -1.76572240889E-002 -2.78830099851E-002 
+2.01000000000E+009 +1.97144150734E-001 -3.77958446741E-001 -1.96379534900E-002 -2.93394476175E-002 +1.61887455761E-005 -1.72710736024E-006 -2.32424251735E-002 -2.68376991153E-002 
+2.21000000000E+009 +1.73497051001E-001 -3.96840751171E-001 -2.94926874340E-002 +8.97363014519E-003 -3.59962832590E-005 -3.18865531881E-005 -2.88535095751E-002 -2.46704816818E-002 
+2.41000000000E+009 +1.50571331382E-001 -4.14232760668E-001 -9.32455586735E-004 +2.61955093592E-002 +3.27326924889E-005 -2.04732805287E-006 -3.54817695916E-002 -2.24647279829E-002 
+2.61000000000E+009 +1.28304511309E-001 -4.31020885706E-001 +2.05549523234E-002 +8.60296376050E-003 -1.34522570079E-005 -1.40891188494E-005 -4.08205389977E-002 -1.94057691842E-002 
+2.81000000000E+009 +1.05887919664E-001 -4.46978867054E-001 +1.32919466123E-002 -1.42477238551E-002 -8.40433222038E-006 -1.92265288206E-005 -4.47264946997E-002 -1.44319636747E-002 
+3.01000000000E+009 +8.32840576768E-002 -4.61647450924E-001 -7.79454503208E-003 -1.51614109054E-002 -6.07188439972E-006 +8.01695387054E-006 -4.86164726317E-002 -8.76780971885E-003 
+3.21000000000E+009 +6.09509237111E-002 -4.75346446037E-001 -1.47825581953E-002 +1.98163581081E-003 +1.67102134583E-005 -3.19610535371E-006 -5.25403395295E-002 -2.25432240404E-003 
+3.41000000000E+009 +3.90307120979E-002 -4.87970679998E-001 -2.78130453080E-003 +1.27746229991E-002 -1.18046739317E-006 +1.01232262750E-005 -5.55044710636E-002 +4.84792422503E-003 
+3.61000000000E+009 +1.72354038805E-002 -4.99688953161E-001 +9.58648417145E-003 +6.25969097018E-003 +1.97954686882E-005 -1.27483854158E-005 -5.73345348239E-002 +1.18397325277E-002 
+3.81000000000E+009 -4.64353011921E-003 -5.10069489479E-001 +8.09539947659E-003 -5.91741735116E-003 -5.40957535122E-006 -2.20760884986E-005 -5.71467392147E-002 +1.92733742297E-002 
+4.01000000000E+009 -2.58259661496E-002 -5.19690990448E-001 -2.18898127787E-003 -8.51238798350E-003 +2.17892775254E-005 -9.72390262177E-006 -5.61313517392E-002 +2.72295437753E-002 
+4.21000000000E+009 -4.69559840858E-002 -5.28249442577E-001 -7.74604827166E-003 -1.01404357702E-003 +4.95142012369E-005 -1.34010642796E-005 -5.42480610311E-002 +3.59006375074E-002 
+4.41000000000E+009 -6.76565840840E-002 -5.35808026791E-001 -3.35491262376E-003 +6.04740576819E-003 +3.42684579664E-005 -1.40016582009E-005 -5.11414445937E-002 +4.42674718797E-002 
+4.61000000000E+009 -8.79419893026E-002 -5.42508184910E-001 +3.88286844827E-003 +4.75248135626E-003 +3.99729287892E-006 +3.38458521583E-005 -4.68924194574E-002 +5.15756420791E-002 
+4.81000000000E+009 -1.08079485595E-001 -5.48446238041E-001 +5.31093403697E-003 -1.57490780111E-003 +1.24454381876E-005 -5.92296828472E-007 -4.03112731874E-002 +5.88943921030E-002 
+5.01000000000E+009 -1.27435281873E-001 -5.53858995438E-001 +4.97653963976E-004 -4.95800795034E-003 +5.56306667931E-006 -1.12298948807E-005 -3.36302965879E-002 +6.54773563147E-002 
+5.21000000000E+009 -1.46410241723E-001 -5.58799564838E-001 -3.93349118531E-003 -2.09407811053E-003 +1.25366541397E-005 -3.30532348016E-005 -2.62428764254E-002 +7.15432241559E-002 
+5.41000000000E+009 -1.64997979999E-001 -5.62575876713E-001 -3.13873286359E-003 +2.55213724449E-003 +8.54742665979E-006 +2.29028751164E-006 -1.73275452107E-002 +7.66619369388E-002 
+5.61000000000E+009 -1.83615684509E-001 -5.66080927849E-001 +1.05827732477E-003 +3.53103573434E-003 +3.97852636524E-006 +8.73927547218E-006 -7.51522555947E-003 +7.98122435808E-002 
+5.81000000000E+009 -2.01234608889E-001 -5.68624615669E-001 +3.34933353588E-003 +3.29720700392E-004 +9.57250631473E-006 +1.57123758981E-005 +3.03219887428E-003 +8.07431265712E-002 
+6.01000000000E+009 -2.18301326036E-001 -5.70455551147E-001 +1.46299821790E-003 -2.67993076704E-003 -2.03280469577E-005 -1.80804199772E-005 +1.42526151612E-002 +8.27061831951E-002 
+6.21000000000E+009 -2.35188528895E-001 -5.71698546410E-001 -1.81444059126E-003 -2.19999905676E-003 +6.50172478345E-006 -2.45168357651E-005 +2.50559505075E-002 +8.21650847793E-002 
+6.41000000000E+009 -2.51223832369E-001 -5.72643399239E-001 -2.50957161188E-003 +7.10905063897E-004 -2.06336085284E-006 +2.22959188250E-005 +3.66264656186E-002 +8.02860930562E-002 
+6.61000000000E+009 -2.67269849777E-001 -5.73107779026E-001 -3.11175535899E-004 +2.43983790278E-003 +1.57861304615E-005 -1.34138081194E-005 +4.78307753801E-002 +7.52258375287E-002 
+6.81000000000E+009 -2.82783091068E-001 -5.73113501072E-001 +1.91128568258E-003 +1.12148700282E-003 +1.51591129907E-005 -1.86356112408E-006 +5.87063990533E-002 +6.93656206131E-002 
+7.01000000000E+009 -2.97590136528E-001 -5.72859287262E-001 +1.64742267225E-003 -1.21404184029E-003 -6.99893280398E-006 -1.29216205096E-005 +6.86676651239E-002 +6.30836561322E-002 
+7.21000000000E+009 -3.12194287777E-001 -5.72088122368E-001 -4.79856913444E-004 -1.85934815090E-003 +3.32078343490E-005 +7.37176742405E-006 +7.78496339917E-002 +5.45065551996E-002 
+7.41000000000E+009 -3.26019465923E-001 -5.71364581585E-001 -1.77302595694E-003 -2.63303198153E-004 -1.87048080988E-005 -2.61878212768E-005 +8.70579481125E-002 +4.42657433450E-002 
+7.61000000000E+009 -3.39152872562E-001 -5.69987952709E-001 -8.53785313666E-004 +1.44640216604E-003 -3.20798017128E-006 +2.89655381494E-005 +9.34344530106E-002 +3.21883149445E-002 
+7.81000000000E+009 -3.52538883686E-001 -5.68063318729E-001 +8.76688689459E-004 +1.28526240587E-003 -5.15198153153E-005 +2.47551561188E-005 +9.89092439413E-002 +1.97732057422E-002 
+8.01000000000E+009 -3.64950835705E-001 -5.66051602364E-001 +1.42409990076E-003 -3.10444505885E-004 +1.90949212993E-005 -6.71874840918E-006 +1.02467246354E-001 +6.00930955261E-003 
+8.21000000000E+009 -3.77119630575E-001 -5.63693165779E-001 +2.65268725343E-004 -1.38865865301E-003 -9.79523247224E-006 +9.84289636108E-006 +1.04676894844E-001 -8.22252314538E-003 
+8.41000000000E+009 -3.88944059610E-001 -5.61037182808E-001 -1.06155255344E-003 -6.90847751684E-004 +2.24546893151E-005 -1.69996983459E-005 +1.04243271053E-001 -2.34011504799E-002 
+8.61000000000E+009 -4.00547891855E-001 -5.58587253094E-001 -1.02023023646E-003 +6.54859060887E-004 +1.78783320735E-005 -7.16852127880E-006 +1.00891962647E-001 -3.88946011662E-002 
+8.81000000000E+009 -4.11577075720E-001 -5.55983603001E-001 +2.08262674278E-004 +1.10948318616E-003 +1.42899534694E-005 +1.61015123012E-005 +9.54865291715E-002 -5.45064024627E-002 
+9.01000000000E+009 -4.22314345837E-001 -5.53076505661E-001 +1.06610218063E-003 +2.49535631156E-004 +2.43005142693E-005 +3.32036470354E-005 +8.86759981513E-002 -6.83318302035E-002 
+9.21000000000E+009 -4.32705491781E-001 -5.50193190575E-001 +5.78074133955E-004 -8.37765110191E-004 +8.72180680744E-006 +4.79876416648E-006 +7.87642076612E-002 -8.32549557090E-002 
+9.41000000000E+009 -4.42397981882E-001 -5.47374308109E-001 -5.26644929778E-004 -8.10400233604E-004 -1.39480771395E-005 +2.33955943258E-005 +6.61551952362E-002 -9.69059318304E-002 
+9.61000000000E+009 -4.52085673809E-001 -5.44069111347E-001 -8.79695988260E-004 +1.59385104780E-004 -3.44514810422E-005 -3.31789269694E-005 +5.09157516062E-002 -1.09085999429E-001 
+9.81000000000E+009 -4.60980981588E-001 -5.41583418846E-001 -2.23865485168E-004 +8.22602829430E-004 +5.43775677215E-005 +2.35345469264E-005 +3.57082448900E-002 -1.18406049907E-001 
+1.00100000000E+010 -4.70203965902E-001 -5.38307130337E-001 +6.12579518929E-004 +5.25529147126E-004 -4.11928012909E-005 -1.91027465917E-005 +1.86792165041E-002 -1.26258641481E-001 
+1.02100000000E+010 -4.78808999062E-001 -5.34785330296E-001 +6.34666124824E-004 -3.62828839570E-004 +5.28987538928E-006 +2.15882791963E-005 +3.79862874979E-004 -1.33207425475E-001 
+1.04100000000E+010 -4.87332969904E-001 -5.31646430492E-001 -8.53450474096E-005 -7.29963532649E-004 +1.47443615788E-005 -1.59855480888E-005 -2.02449820936E-002 -1.38560697436E-001 
+1.06100000000E+010 -4.95444417000E-001 -5.28330743313E-001 -6.33251387626E-004 -1.80794057087E-004 -2.17660053750E-005 +3.13254095090E-005 -4.19388897717E-002 -1.41116335988E-001 
+1.08100000000E+010 -5.02540051937E-001 -5.25740146637E-001 -4.46142978035E-004 +5.16051484738E-004 -2.66320353148E-006 -2.32769634749E-005 -6.38196691871E-002 -1.40620708466E-001 
+1.10100000000E+010 -5.09968042374E-001 -5.22500276566E-001 +3.00508603686E-004 +5.59177482501E-004 +2.49695112871E-005 +3.74113710677E-006 -8.58842208982E-002 -1.37059092522E-001 
+1.12100000000E+010 -5.16815900803E-001 -5.20157158375E-001 +5.79221348744E-004 -3.26549707097E-005 +1.12983752842E-005 +7.08926108928E-006 -1.09707385302E-001 -1.30554303527E-001 
+1.14100000000E+010 -5.23935735226E-001 -5.16981184483E-001 +2.00916489121E-004 -5.41627930943E-004 -1.73820353666E-005 +4.94349988003E-005 -1.32792949677E-001 -1.20403751731E-001 
+1.16100000000E+010 -5.29630780220E-001 -5.14158964157E-001 -4.46243735496E-004 -3.89449065551E-004 -7.73009287514E-006 -8.40171742311E-006 -1.54639065266E-001 -1.06953054667E-001 
+1.18100000000E+010 -5.35766363144E-001 -5.11275529861E-001 -4.54429653473E-004 +1.85425989912E-004 -1.20117556435E-005 -6.94038135407E-006 -1.74287304282E-001 -9.00703519583E-002 
+1.20100000000E+010 -5.42053580284E-001 -5.07960200310E-001 -3.78019576601E-005 +4.80368762510E-004 +4.28276543971E-005 -5.60909029446E-006 -1.91425248981E-001 -7.04842209816E-002 
+1.22100000000E+010 -5.48349380493E-001 -5.04409611225E-001 +4.20293188654E-004 +2.07281496841E-004 -1.39838175528E-005 -9.57431893767E-006 -2.08836451173E-001 -4.85319755971E-002 
+1.24100000000E+010 -5.54085254669E-001 -5.01329720020E-001 +3.46714543412E-004 -3.25976172462E-004 +3.14943827107E-005 -7.81513062975E-006 -2.23392710090E-001 -2.32155770063E-002 
+1.26100000000E+010 -5.59715092182E-001 -4.98269855976E-001 -1.67403573869E-004 -4.17435629060E-004 -1.00649194792E-005 +2.03654781217E-005 -2.33698233962E-001 +4.56059118733E-003 
+1.28100000000E+010 -5.65151929855E-001 -4.95012789965E-001 -4.01236669859E-004 -1.98238831217E-005 -3.42365310644E-005 +1.81569412234E-005 -2.39929988980E-001 +3.37023623288E-002 
+1.30100000000E+010 -5.70589423180E-001 -4.91166979074E-001 -1.68982049217E-004 +3.37981909979E-004 +8.59945157572E-006 -1.11569761430E-005 -2.43557348847E-001 +6.36971667409E-002 
+1.32100000000E+010 -5.75594425201E-001 -4.87652510405E-001 +2.32365768170E-004 +3.27054265654E-004 -3.51304151991E-005 -2.06562817766E-005 -2.43869081140E-001 +9.52955111861E-002 
+1.34100000000E+010 -5.80724298954E-001 -4.83585238457E-001 +3.57428682037E-004 -1.17759380373E-004 -3.08207818307E-005 +1.70225466718E-005 -2.40261837840E-001 +1.27175152302E-001 
+1.36100000000E+010 -5.83715260029E-001 -4.80062335730E-001 +5.03279443365E-005 -3.43718769727E-004 -1.55242742039E-005 +4.42628079327E-005 -2.32406988740E-001 +1.59981086850E-001 
+1.38100000000E+010 -5.88730335236E-001 -4.77213650942E-001 -2.68635136308E-004 -1.21355718875E-004 -1.16325836643E-005 +5.74467158003E-005 -2.19195961952E-001 +1.92112371325E-001 
+1.40100000000E+010 -5.93737661839E-001 -4.73982363939E-001 -3.05375753669E-004 +1.93561092601E-004 -4.04308084399E-005 -7.11087022864E-006 -2.02411219478E-001 +2.23277032375E-001 
+1.42100000000E+010 -5.98348200321E-001 -4.70951408148E-001 +8.06659591035E-006 +2.92755721603E-004 +1.96367873286E-005 -5.09780738867E-006 -1.81832417846E-001 +2.54554361105E-001 
+1.44100000000E+010 -6.03130280972E-001 -4.67217296362E-001 +2.55107646808E-004 +8.08023614809E-005 +1.89182555914E-005 -3.69124900317E-005 -1.56039968133E-001 +2.83174574375E-001 
+1.46100000000E+010 -6.06848716736E-001 -4.64026629925E-001 +1.41182259540E-004 -2.28735792916E-004 +3.55747542926E-005 +5.88569355386E-006 -1.25233381987E-001 +3.08662205935E-001 
+1.48100000000E+010 -6.10675036907E-001 -4.58461880684E-001 -1.32177825435E-004 -1.86903707800E-004 -7.71978193370E-006 -1.73922780959E-005 -9.22060385346E-002 +3.30664396286E-001 
+1.50100000000E+010 -6.12278521061E-001 -4.57267612219E-001 -2.92498851195E-004 -2.95260470011E-005 -1.87770638149E-005 -4.40494113718E-006 -5.64738027751E-002 +3.50041896105E-001 
+1.52100000000E+010 -6.15262389183E-001 -4.56343829632E-001 -5.65384289075E-005 +2.19333276618E-004 -9.71360441326E-006 -4.06561593991E-006 -1.75892673433E-002 +3.65012615919E-001 
+1.54100000000E+010 -6.18999421597E-001 -4.54056143761E-001 +1.68681581272E-004 +1.19810450997E-004 -5.08218363393E-006 -3.67724692296E-006 +2.48074550182E-002 +3.74981254339E-001 
+1.56100000000E+010 -6.22941732407E-001 -4.50177401304E-001 +2.17932509258E-004 -9.15732962312E-005 +1.53082946781E-005 +2.62554967776E-005 +6.88234791160E-002 +3.79248291254E-001 
+1.58100000000E+010 -6.24257683754E-001 -4.49007093906E-001 -7.72315070208E-006 -2.22826871322E-004 -5.29253547654E-008 -1.94658914552E-005 +1.12812303007E-001 +3.79548609257E-001 
+1.60100000000E+010 -6.26732945442E-001 -4.47235614061E-001 -1.23927762615E-004 -2.87795683107E-005 +2.74964622804E-005 -1.70576186065E-005 +1.58049449325E-001 +3.74456435442E-001 
+1.62100000000E+010 -6.29054009914E-001 -4.45364415646E-001 -1.31270906422E-004 +1.55727320816E-004 +4.08712476201E-005 -4.27124032285E-005 +2.05613479018E-001 +3.64082574844E-001 
+1.64100000000E+010 -6.31155371666E-001 -4.43419098854E-001 +9.32249895413E-005 +1.30741536850E-004 +2.30621735682E-005 +1.16507408165E-005 +2.52524852753E-001 +3.47776919603E-001 
+1.66100000000E+010 -6.34634017944E-001 -4.41395759583E-001 +2.35766943661E-004 -2.56727944361E-005 +4.97023538628E-005 -8.48401487019E-006 +2.96421289444E-001 +3.24062466621E-001 
+1.68100000000E+010 -6.37873291969E-001 -4.38543111086E-001 +4.05100254284E-005 -1.34758520289E-004 +1.28987021526E-005 -5.31986952410E-005 +3.39796751738E-001 +2.96562999487E-001 
+1.70100000000E+010 -6.39648199081E-001 -4.36124920845E-001 -1.35443784529E-004 -1.04756349174E-004 -1.94947824639E-005 -7.63098159950E-006 +3.79844993353E-001 +2.65153259039E-001 
+1.72100000000E+010 -6.42062544823E-001 -4.33478772640E-001 -1.53819011757E-004 +5.83023647778E-005 -2.05761580219E-006 +3.59859841410E-005 +4.17343080044E-001 +2.26489529014E-001 
+1.74100000000E+010 -6.45093560219E-001 -4.31221663952E-001 -2.73162440863E-005 +1.74281172804E-004 -2.73806144833E-005 +4.34984140156E-005 +4.50663059950E-001 +1.83497682214E-001 
+1.76100000000E+010 -6.47629618645E-001 -4.28725361824E-001 +1.64237178979E-004 +6.96188071743E-005 -4.47872916993E-005 -1.73465941771E-005 +4.78492677212E-001 +1.37428134680E-001 
+1.78100000000E+010 -6.50622427464E-001 -4.26184833050E-001 +7.87371973274E-005 -8.11749778222E-005 -2.98576578643E-005 -4.56934048998E-006 +5.01911699772E-001 +8.85604545474E-002 
+1.80100000000E+010 -6.52934670448E-001 -4.23556774855E-001 -5.76912789256E-005 -1.40697025927E-004 -4.76382592751E-005 -8.33328704175E-006 +5.21110534668E-001 +3.73041741550E-002 
+1.82100000000E+010 -6.55473768711E-001 -4.21301633120E-001 -1.09119719127E-004 +3.75069407710E-006 +4.38038114225E-005 +3.40413571394E-005 +5.33691644669E-001 -1.74479540437E-002 
+1.84100000000E+010 -6.58151447773E-001 -4.19467240572E-001 -1.00688877865E-004 +1.31101158331E-004 +1.90516111616E-005 -1.03646534626E-005 +5.39743244648E-001 -7.47282579541E-002 
+1.86100000000E+010 -6.61025345325E-001 -4.17123645544E-001 +6.87486462994E-005 +1.30000451463E-004 +3.44604522979E-005 -3.75140589313E-005 +5.39910495281E-001 -1.31447389722E-001 
+1.88100000000E+010 -6.63376152515E-001 -4.14410144091E-001 +7.80459449743E-005 -4.03313824791E-005 -3.53834293492E-005 +4.29603869634E-006 +5.33869326115E-001 -1.88232243061E-001 
+1.90100000000E+010 -6.64879679680E-001 -4.12310153246E-001 +9.27827113628E-006 -9.69942266238E-005 -2.28306962526E-005 -3.19135651807E-005 +5.22054195404E-001 -2.44549468160E-001 
+1.92100000000E+010 -6.67152345181E-001 -4.11065667868E-001 -1.29924461362E-004 -5.87158756389E-005 -5.08304765390E-005 -2.75362781395E-005 +5.03915131092E-001 -3.02160322666E-001 
+1.94100000000E+010 -6.69786751270E-001 -4.08640623093E-001 -7.17136645108E-005 +5.48049029021E-005 -1.53560119998E-006 -1.26521981656E-005 +4.78579849005E-001 -3.56945127249E-001 
+1.96100000000E+010 -6.70548856258E-001 -4.05905842781E-001 +3.18229467666E-005 +8.08246477391E-005 +4.07763263865E-006 +9.99652183964E-006 +4.47738736868E-001 -4.09062832594E-001 
+1.98100000000E+010 -6.69837534428E-001 -4.02513444424E-001 +7.29873281671E-005 +7.82307506597E-006 -2.49513186645E-006 +4.14328769693E-006 +4.12855952978E-001 -4.56520140171E-001 
+2.00100000000E+010 -6.68356895447E-001 -4.01770293713E-001 +9.21992759686E-005 -8.45978793222E-005 +1.30715079649E-005 +4.70412942377E-006 +3.70960086584E-001 -5.02930581570E-001 
