!;Filter: kein Filter
!auto
!3/21/2019 9:27:07 AM
!3/21/2019 9:27:22 AM
!SP-Measurements Prober G4
!SP-Measurements Prober G4
!01103_448C
!134
!235
!12
!50
!-20
!0.00299959
!1.83
!0.38139174
!0.38139174
# Hz S  RI   R 50
+1.00000000000E+007 +2.66602516174E-001 +9.49905067682E-003 +5.45480921865E-002 -2.26551406085E-002 -1.49349953062E-005 -2.95056001050E-004 +5.18122222275E-003 +3.85135965189E-004 
+2.10000000000E+008 +2.86578923464E-001 -3.00667788833E-002 -1.99668714777E-003 -5.69020323455E-002 -9.61018013186E-005 -5.89069168200E-005 +8.74489638954E-003 -4.51427884400E-003 
+4.10000000000E+008 +2.85818010569E-001 -6.64731860161E-002 -5.36128878593E-002 -1.84987876564E-002 -2.04847565328E-005 -1.17767085612E-005 +1.02592175826E-002 -7.23300501704E-003 
+6.10000000000E+008 +2.81588852406E-001 -1.02204933763E-001 -3.52554395795E-002 +4.33137565851E-002 -1.48699227793E-005 +4.44130546384E-006 +9.71918087453E-003 -1.15198912099E-002 
+8.10000000000E+008 +2.73761957884E-001 -1.37012720108E-001 +2.76373419911E-002 +4.85108792782E-002 -5.78082381253E-006 -1.72257969098E-005 +6.99501717463E-003 -1.53050227091E-002 
+1.01000000000E+009 +2.64082223177E-001 -1.69821649790E-001 +5.59540875256E-002 -8.86882841587E-003 -7.87242356637E-007 -3.82319421988E-006 +2.86236987449E-003 -1.90526414663E-002 
+1.21000000000E+009 +2.52179086208E-001 -2.01808959246E-001 +1.11355846748E-002 -5.52526339889E-002 -1.68391379702E-005 +8.80016978044E-006 -1.67392473668E-003 -2.12054178119E-002 
+1.41000000000E+009 +2.38668620586E-001 -2.32917293906E-001 -4.79888208210E-002 -2.94434558600E-002 +1.59421142598E-005 -1.12676762001E-005 -7.51421973109E-003 -2.45123263448E-002 
+1.61000000000E+009 +2.24365204573E-001 -2.62598842382E-001 -4.42504025996E-002 +3.56605239213E-002 -1.45720450746E-005 -3.16836826642E-006 -1.37116229162E-002 -2.67945248634E-002 
+1.81000000000E+009 +2.07222774625E-001 -2.90688633919E-001 +1.78338792175E-002 +5.29702976346E-002 +1.20453760246E-005 -4.49446861239E-006 -1.76542289555E-002 -2.78525482863E-002 
+2.01000000000E+009 +1.89573422074E-001 -3.17373961210E-001 +5.49457855523E-002 +1.74136098940E-003 -5.53200879949E-006 -4.55349390904E-006 -2.32020840049E-002 -2.67638619989E-002 
+2.21000000000E+009 +1.70446902514E-001 -3.42405259609E-001 +2.08498518914E-002 -5.02751655877E-002 -4.03939520766E-006 +8.32342993817E-006 -2.88121588528E-002 -2.46124397963E-002 
+2.41000000000E+009 +1.50177881122E-001 -3.65108042955E-001 -3.86991985142E-002 -3.67568768561E-002 +1.67438847711E-005 -2.20097463171E-005 -3.54491807520E-002 -2.23368499428E-002 
+2.61000000000E+009 +1.29697605968E-001 -3.86065840721E-001 -4.82406280935E-002 +2.19802893698E-002 +1.10372172912E-006 -2.56920047832E-005 -4.07736413181E-002 -1.93931758404E-002 
+2.81000000000E+009 +1.08844049275E-001 -4.05376940966E-001 +2.82158749178E-003 +5.34450970590E-002 +1.10484479592E-005 +4.43146655016E-006 -4.47112657130E-002 -1.44729008898E-002 
+3.01000000000E+009 +8.74669924378E-002 -4.23012018204E-001 +5.04318736494E-002 +1.64983104914E-002 -2.97687824968E-006 +1.50873047460E-005 -4.85951714218E-002 -8.74389987439E-003 
+3.21000000000E+009 +6.62395879626E-002 -4.39131647348E-001 +3.48528884351E-002 -4.09877039492E-002 -1.90378177649E-005 +7.92840091890E-006 -5.25082200766E-002 -2.18796799891E-003 
+3.41000000000E+009 +4.54652868211E-002 -4.54182595015E-001 -2.68613416702E-002 -4.85013425350E-002 +1.76804824150E-005 -1.58900093084E-005 -5.54607212543E-002 +4.87295724452E-003 
+3.61000000000E+009 +2.42688488215E-002 -4.67901080847E-001 -5.48009723425E-002 +7.80734512955E-003 -7.08162542651E-006 +1.35050004246E-005 -5.72682134807E-002 +1.18298362941E-002 
+3.81000000000E+009 +3.27331828885E-003 -4.80090647936E-001 -1.34769435972E-002 +5.56848198175E-002 -3.83970909752E-005 +1.68057031260E-005 -5.70690594614E-002 +1.92508827895E-002 
+4.01000000000E+009 -1.71316172928E-002 -4.91634577513E-001 +4.98019419611E-002 +3.30694988370E-002 +1.22368282973E-005 +2.22204434976E-005 -5.60858733952E-002 +2.71673202515E-002 
+4.21000000000E+009 -3.79371084273E-002 -5.01666486263E-001 +4.82622981071E-002 -3.54959703982E-002 -2.50745379162E-005 -6.33729678157E-006 -5.42277656496E-002 +3.58586050570E-002 
+4.41000000000E+009 -5.79733662307E-002 -5.10668337345E-001 -1.61872357130E-002 -6.05229400098E-002 +1.95948559849E-005 +4.46755184385E-005 -5.10398969054E-002 +4.42417785525E-002 
+4.61000000000E+009 -7.77855738997E-002 -5.19137918949E-001 -6.63135573268E-002 -3.63688217476E-003 +1.81283630809E-005 -1.17240488180E-005 -4.68545220792E-002 +5.15731237829E-002 
+4.81000000000E+009 -9.78714451194E-002 -5.26274740696E-001 -2.53763198853E-002 +6.13032355905E-002 -1.91798358173E-006 +1.76268640644E-005 -4.02651689947E-002 +5.87700270116E-002 
+5.01000000000E+009 -1.16830997169E-001 -5.33165931702E-001 +5.20106740296E-002 +4.77782450616E-002 +1.90331502381E-005 -1.46828801917E-006 -3.36357839406E-002 +6.54217302799E-002 
+5.21000000000E+009 -1.35940581560E-001 -5.39780080318E-001 +6.35033771396E-002 -3.96191589534E-002 -2.62687694885E-006 +2.98169220514E-006 -2.62024141848E-002 +7.13949576020E-002 
+5.41000000000E+009 -1.54818013310E-001 -5.44401228428E-001 -1.72631125897E-002 -7.17738568783E-002 +1.08086533146E-005 -1.85960252566E-005 -1.73605065793E-002 +7.65950605273E-002 
+5.61000000000E+009 -1.73377007246E-001 -5.49195408821E-001 -7.88658186793E-002 -6.44033029675E-003 +3.44315812981E-005 -3.53628383891E-005 -7.51949707046E-003 +7.97320976853E-002 
+5.81000000000E+009 -1.91985070705E-001 -5.52918493748E-001 -2.36905962229E-002 +7.80349597335E-002 +1.12907082439E-005 -1.88335088751E-005 +3.02312034182E-003 +8.07008519769E-002 
+6.01000000000E+009 -2.09421053529E-001 -5.54967522621E-001 +6.47884756327E-002 +4.47710826993E-002 -1.65297558397E-006 -1.63418990269E-005 +1.42040979117E-002 +8.25868993998E-002 
+6.21000000000E+009 -2.27016687393E-001 -5.56998252869E-001 +6.14729225636E-002 -5.54728321731E-002 -2.03596209758E-005 -1.75154382305E-005 +2.49927043915E-002 +8.21013823152E-002 
+6.41000000000E+009 -2.43839144707E-001 -5.57573258877E-001 -3.97450700402E-002 -6.63909390569E-002 -6.14143027633E-006 -8.24443486636E-006 +3.65554802120E-002 +8.01854506135E-002 
+6.61000000000E+009 -2.59875327349E-001 -5.57677447796E-001 -6.85892477632E-002 +1.90206393600E-002 -8.25707411423E-006 +1.76592166099E-005 +4.77345474064E-002 +7.51723870635E-002 
+6.81000000000E+009 -2.75192260742E-001 -5.57581722736E-001 -2.21834029071E-003 +6.46932348609E-002 +3.79172115572E-006 +1.29382469822E-005 +5.85805401206E-002 +6.93365260959E-002 
+7.01000000000E+009 -2.89841264486E-001 -5.56966066360E-001 +5.59941083193E-002 +1.68572980911E-002 +1.82010098797E-005 -2.38083848672E-005 +6.85578584671E-002 +6.30390122533E-002 
+7.21000000000E+009 -3.03795009851E-001 -5.56314229965E-001 +3.29827144742E-002 -4.02331165969E-002 -6.29498754279E-006 -1.06517554741E-005 +7.77442976832E-002 +5.44898808002E-002 
+7.41000000000E+009 -3.17508757114E-001 -5.55640161037E-001 -2.97386609018E-002 -4.29479032755E-002 -2.22739581659E-005 -1.44237685618E-006 +8.69081020355E-002 +4.42552529275E-002 
+7.61000000000E+009 -3.30110460520E-001 -5.54273128510E-001 -4.34108152986E-002 +1.40095409006E-002 -1.86872111954E-005 +3.94899507228E-006 +9.32934880257E-002 +3.21885086596E-002 
+7.81000000000E+009 -3.42978358269E-001 -5.52597045898E-001 -2.25855177268E-003 +4.16654571891E-002 -2.21638365474E-005 +6.11813720752E-006 +9.87859666348E-002 +1.98423173279E-002 
+8.01000000000E+009 -3.54965746403E-001 -5.50861537457E-001 +3.63195054233E-002 +1.39252552763E-002 -1.30691951199E-005 -5.88306784266E-006 +1.02372847497E-001 +6.08983309940E-003 
+8.21000000000E+009 -3.66680353880E-001 -5.48876404762E-001 +2.17878147960E-002 -2.62126605958E-002 -1.49976058310E-005 -1.39638450491E-005 +1.04551248252E-001 -8.15904326737E-003 
+8.41000000000E+009 -3.78066092730E-001 -5.46587586403E-001 -1.43835376948E-002 -2.74893306196E-002 +1.39561725518E-005 +1.59132252975E-006 +1.04109883308E-001 -2.33067870140E-002 
+8.61000000000E+009 -3.89351457357E-001 -5.44473767281E-001 -2.88367364556E-002 +4.21497505158E-003 -1.39675194077E-005 -1.08448739411E-005 +1.00780792534E-001 -3.87596674263E-002 
+8.81000000000E+009 -4.00012522936E-001 -5.42276084423E-001 -5.27886813506E-003 +2.51569151878E-002 -1.52090397023E-005 -1.98558473130E-006 +9.54006090760E-002 -5.43852560222E-002 
+9.01000000000E+009 -4.10451084375E-001 -5.39780139923E-001 +1.93526055664E-002 +1.35919852182E-002 +2.95574081974E-005 +1.42258659253E-005 +8.85929763317E-002 -6.81746155024E-002 
+9.21000000000E+009 -4.20596063137E-001 -5.37222683430E-001 +1.83423869312E-002 -1.27182379365E-002 +2.35071479437E-006 -1.96289875021E-006 +7.87182524800E-002 -8.30751582980E-002 
+9.41000000000E+009 -4.30009663105E-001 -5.34826815128E-001 -4.75047947839E-003 -1.93450078368E-002 +6.76932904753E-006 -1.29399868456E-005 +6.61803409457E-002 -9.66963618994E-002 
+9.61000000000E+009 -4.39452201128E-001 -5.31958162785E-001 -1.81664302945E-002 -3.11290542595E-003 -9.46777072386E-006 +4.13314501202E-006 +5.09431622922E-002 -1.08889676630E-001 
+9.81000000000E+009 -4.48235481977E-001 -5.29835164547E-001 -8.91316402704E-003 +1.50179881603E-002 -4.32669621659E-005 +1.42160715768E-005 +3.57139483094E-002 -1.18227563798E-001 
+1.00100000000E+010 -4.57344323397E-001 -5.27012407780E-001 +9.58440545946E-003 +1.24416351318E-002 -2.83078725261E-006 -8.98301186680E-006 +1.87251064926E-002 -1.26107513905E-001 
+1.02100000000E+010 -4.65688288212E-001 -5.23859620094E-001 +1.42467021942E-002 -3.56137542985E-003 +5.56232907911E-006 +1.24974656046E-006 +5.22577436641E-004 -1.32999718189E-001 
+1.04100000000E+010 -4.74015772343E-001 -5.21056592464E-001 +1.79140327964E-003 -1.38255553320E-002 +2.41383622779E-005 -1.03125321402E-005 -2.01283209026E-002 -1.38350039721E-001 
+1.06100000000E+010 -4.82064843178E-001 -5.18129825592E-001 -1.11011434346E-002 -6.14173384383E-003 -2.19159301196E-005 -1.38429340950E-005 -4.17812652886E-002 -1.40935674310E-001 
+1.08100000000E+010 -4.89001780748E-001 -5.16020476818E-001 -9.50577668846E-003 +7.17010488734E-003 -9.95590926323E-006 +2.55449845099E-006 -6.36348947883E-002 -1.40562593937E-001 
+1.10100000000E+010 -4.96352583170E-001 -5.13156354427E-001 +2.97614745796E-003 +1.09454588965E-002 +3.68551059182E-006 +1.80668248504E-005 -8.56943428516E-002 -1.36911585927E-001 
+1.12100000000E+010 -5.03109931946E-001 -5.11121392250E-001 +1.03126419708E-002 +1.21346046217E-003 -1.42401959238E-005 -3.24999064105E-006 -1.09505616128E-001 -1.30418956280E-001 
+1.14100000000E+010 -5.10259389877E-001 -5.08296489716E-001 +4.99529531226E-003 -8.41043237597E-003 -1.41202663144E-005 +5.79181744342E-007 -1.32561296225E-001 -1.20295517147E-001 
+1.16100000000E+010 -5.15888154507E-001 -5.05790650845E-001 -5.68859325722E-003 -7.47291091830E-003 -3.01306045003E-006 +3.39876828548E-006 -1.54446005821E-001 -1.06905944645E-001 
+1.18100000000E+010 -5.21997094154E-001 -5.03222644329E-001 -8.32185801119E-003 +2.26006912999E-003 +2.48779883805E-006 +2.23768911383E-005 -1.74100875854E-001 -9.00024771690E-002 
+1.20100000000E+010 -5.28123080730E-001 -5.00333607197E-001 -1.28799106460E-003 +8.02217237651E-003 -4.96528127769E-006 -2.63348611043E-005 -1.91246837378E-001 -7.05061703920E-002 
+1.22100000000E+010 -5.34383594990E-001 -4.97098743916E-001 +6.71003758907E-003 +4.06109169126E-003 -1.82136363946E-006 -7.06718765286E-006 -2.08624377847E-001 -4.86074462533E-002 
+1.24100000000E+010 -5.40001928806E-001 -4.94309514761E-001 +5.80410286784E-003 -4.32928185910E-003 -9.48144315771E-006 +1.86590150406E-005 -2.23093628883E-001 -2.33344621956E-002 
+1.26100000000E+010 -5.45596182346E-001 -4.91493135691E-001 -1.45574798808E-003 -6.71927956864E-003 +4.77412731925E-006 +5.53682048121E-006 -2.33460709453E-001 +4.38887672499E-003 
+1.28100000000E+010 -5.50990521908E-001 -4.88494575024E-001 -6.52499822900E-003 -1.16042396985E-003 +2.45918035944E-005 +9.00835038919E-006 -2.39714533091E-001 +3.35429310799E-002 
+1.30100000000E+010 -5.56337773800E-001 -4.84895080328E-001 -3.29060619697E-003 +5.16079273075E-003 +1.03055435829E-006 -3.67245447705E-005 -2.43415117264E-001 +6.35021105409E-002 
+1.32100000000E+010 -5.61247110367E-001 -4.81661081314E-001 +3.16864368506E-003 +4.89277951419E-003 -9.12820360099E-006 +3.00316223729E-005 -2.43732124567E-001 +9.50896665454E-002 
+1.34100000000E+010 -5.66335856915E-001 -4.77847367525E-001 +5.57537330315E-003 -1.08512584120E-003 -2.92598506348E-005 +2.48009819188E-005 -2.40142554045E-001 +1.26887366176E-001 
+1.36100000000E+010 -5.69340527058E-001 -4.74563181400E-001 +1.03760638740E-003 -5.15586230904E-003 +2.10511188925E-005 +1.31054630401E-005 -2.32305958867E-001 +1.59767404199E-001 
+1.38100000000E+010 -5.74431002140E-001 -4.71981465816E-001 -4.07004775479E-003 -2.95459362678E-003 +4.61781473859E-006 -2.55513459706E-005 -2.19161108136E-001 +1.91813200712E-001 
+1.40100000000E+010 -5.79338371754E-001 -4.68929260969E-001 -4.15571453050E-003 +2.52364343032E-003 +3.51965427399E-005 +4.38747301814E-005 -2.02403217554E-001 +2.22993344069E-001 
+1.42100000000E+010 -5.83839118481E-001 -4.66130852699E-001 +7.18037772458E-004 +4.52578812838E-003 +6.26901601208E-006 +2.69413430942E-005 -1.81916832924E-001 +2.54178613424E-001 
+1.44100000000E+010 -5.88611185551E-001 -4.62646305561E-001 +4.18321695179E-003 +1.13881495781E-003 -4.36165976225E-007 -3.71513647224E-006 -1.56187698245E-001 +2.82865971327E-001 
+1.46100000000E+010 -5.92320382595E-001 -4.59615498781E-001 +2.57991999388E-003 -3.34776309319E-003 +1.73358039319E-005 +9.68838776316E-006 -1.25451400876E-001 +3.08376252651E-001 
+1.48100000000E+010 -5.96014201641E-001 -4.54366683960E-001 -1.96613045409E-003 -3.45198111609E-003 +9.55350969889E-006 +4.55776125818E-006 -9.24643427134E-002 +3.30425113440E-001 
+1.50100000000E+010 -5.97656905651E-001 -4.53335732222E-001 -3.78821906634E-003 +3.25193163007E-004 -3.34086980729E-005 -1.78140890057E-005 -5.67137822509E-002 +3.49873751402E-001 
+1.52100000000E+010 -6.00554585457E-001 -4.52647358179E-001 -1.08185270801E-003 +3.51829058491E-003 +6.84615679347E-006 -1.96861697077E-006 -1.78084131330E-002 +3.64820450544E-001 
+1.54100000000E+010 -6.04241788387E-001 -4.50569629669E-001 +2.67995474860E-003 +2.24023289047E-003 -2.52960967373E-006 -5.28389273313E-006 +2.45118588209E-002 +3.74802887440E-001 
+1.56100000000E+010 -6.08120083809E-001 -4.46984887123E-001 +3.02039925009E-003 -1.44421914592E-003 +1.04244036265E-005 +1.89812809026E-007 +6.84434473515E-002 +3.79084467888E-001 
+1.58100000000E+010 -6.09534382820E-001 -4.46058422327E-001 -1.91896280739E-004 -3.22931376286E-003 -8.74466968526E-006 -4.99861198477E-006 +1.12413480878E-001 +3.79509091377E-001 
+1.60100000000E+010 -6.11975252628E-001 -4.44515705109E-001 -2.86898226477E-003 -9.80946118943E-004 -3.93331756641E-005 +1.11666404337E-005 +1.57654240727E-001 +3.74529838562E-001 
+1.62100000000E+010 -6.14334166050E-001 -4.42770987749E-001 -2.03645578586E-003 +2.11670785211E-003 +1.74860797415E-005 +1.01865189208E-005 +2.05186724663E-001 +3.64125221968E-001 
+1.64100000000E+010 -6.16400420666E-001 -4.41069364548E-001 +1.11107726116E-003 +2.60578724556E-003 +6.30208296570E-006 +3.68739347323E-005 +2.52094328403E-001 +3.47939491272E-001 
+1.66100000000E+010 -6.19937002659E-001 -4.39334928989E-001 +2.68694548868E-003 -5.39672182640E-005 -2.09450463444E-005 +5.23771486769E-005 +2.96166270971E-001 +3.24264943600E-001 
+1.68100000000E+010 -6.23113512993E-001 -4.36767429113E-001 +1.05053710286E-003 -2.34701717272E-003 -2.06021195481E-005 +6.99130896464E-006 +3.39492410421E-001 +2.96802252531E-001 
+1.70100000000E+010 -6.25145137310E-001 -4.34480249882E-001 -1.74664705992E-003 -1.83345202822E-003 +1.45105022966E-005 +2.21140144276E-005 +3.79554748535E-001 +2.65400350094E-001 
+1.72100000000E+010 -6.27474129200E-001 -4.32102620602E-001 -2.21828767098E-003 +8.46790557262E-004 +9.73728583631E-006 -4.42375203420E-005 +4.17109906673E-001 +2.26805895567E-001 
+1.74100000000E+010 -6.30446493626E-001 -4.30040150881E-001 -1.43504556036E-004 +2.28417082690E-003 +1.10065786885E-006 +1.85564113053E-005 +4.50479507446E-001 +1.83941021562E-001 
+1.76100000000E+010 -6.33117139339E-001 -4.27771508694E-001 +2.05466733314E-003 +9.76489915047E-004 -1.50943496919E-005 +1.88991652976E-005 +4.78278279305E-001 +1.37859255075E-001 
+1.78100000000E+010 -6.36026799679E-001 -4.25534307957E-001 +1.59642682411E-003 -1.37384922709E-003 -1.88259637071E-005 -3.69203880837E-005 +5.01830220222E-001 +8.89683291316E-002 
+1.80100000000E+010 -6.38336300850E-001 -4.23108905554E-001 -5.98325161263E-004 -1.91196997184E-003 +1.92692768906E-005 -6.85747181706E-006 +5.21152138710E-001 +3.76878008246E-002 
+1.82100000000E+010 -6.40965878963E-001 -4.21199351549E-001 -1.96376838721E-003 -2.07249919185E-004 +1.97007830138E-005 +5.15176070621E-005 +5.33760786057E-001 -1.69998332858E-002 
+1.84100000000E+010 -6.43656730652E-001 -4.19466048479E-001 -8.95807694178E-004 +1.67172821239E-003 +4.28348357673E-005 -1.16925320981E-006 +5.39878785610E-001 -7.44015648961E-002 
+1.86100000000E+010 -6.46634578705E-001 -4.17421370745E-001 +1.09553488437E-003 +1.46032881457E-003 +1.74847136805E-005 -3.45290754922E-005 +5.39955079556E-001 -1.31093561649E-001 
+1.88100000000E+010 -6.48936033249E-001 -4.14851397276E-001 +1.70451879967E-003 -3.95453942474E-004 +1.40713473229E-005 -1.00507913885E-005 +5.34096777439E-001 -1.87809303403E-001 
+1.90100000000E+010 -6.50652050972E-001 -4.12974983454E-001 +2.32758553466E-004 -1.64917623624E-003 +9.10976723389E-006 -4.53110660601E-005 +5.22377371788E-001 -2.44126290083E-001 
+1.92100000000E+010 -6.52813017368E-001 -4.11928981543E-001 -1.35368574411E-003 -8.75495781656E-004 -1.78090485861E-005 -1.29819563881E-005 +5.04234552383E-001 -3.01743090153E-001 
+1.94100000000E+010 -6.55502617359E-001 -4.09750491381E-001 -1.35155662429E-003 +8.85805289727E-004 -7.74257932790E-006 -6.46760736345E-006 +4.78971123695E-001 -3.56607437134E-001 
+1.96100000000E+010 -6.56374335289E-001 -4.07559096813E-001 +2.69505108008E-004 +1.46896508522E-003 +4.04506909035E-006 +1.62634369190E-005 +4.48145121336E-001 -4.08841937780E-001 
+1.98100000000E+010 -6.55887603760E-001 -4.04598742723E-001 +1.38535292353E-003 +3.54586896719E-004 -8.74430315889E-006 -3.93022783101E-005 +4.13243472576E-001 -4.56382602453E-001 
+2.00100000000E+010 -6.55116796494E-001 -4.03754323721E-001 +8.76734324265E-004 -1.13179895561E-003 -1.00600527730E-005 -7.32639091439E-005 +3.71414959431E-001 -5.02880394459E-001 
