!;Filter: kein Filter
!auto
!3/21/2019 9:26:52 AM
!3/21/2019 9:27:07 AM
!SP-Measurements Prober G4
!SP-Measurements Prober G4
!01103_448C
!134
!235
!12
!50
!-20
!0.00199954
!1.75
!0.22129449
!0.22129449
# Hz S  RI   R 50
+1.00000000000E+007 +3.28897535801E-001 +9.66341700405E-003 +5.33521547914E-002 -2.21683457494E-002 -2.34558989177E-004 -8.21460329462E-004 +5.41598489508E-003 +8.59674531966E-004 
+2.10000000000E+008 +3.45076620579E-001 -3.56732122600E-002 -3.46105452627E-003 -5.53383901715E-002 -1.51574122356E-005 -1.92596380657E-005 +8.78759007901E-003 -4.54525277019E-003 
+4.10000000000E+008 +3.43256235123E-001 -7.54241645336E-002 -5.28664141893E-002 -1.51508785784E-002 -1.74180913746E-005 +5.15635838383E-005 +1.01731605828E-002 -7.21190636978E-003 
+6.10000000000E+008 +3.38169604540E-001 -1.15529499948E-001 -3.02831400186E-002 +4.39082607627E-002 -3.67576212739E-005 +1.43268689499E-005 +9.74966865033E-003 -1.15050571039E-002 
+8.10000000000E+008 +3.28038454056E-001 -1.54327645898E-001 +3.00640352070E-002 +4.26511019468E-002 -2.95519676001E-005 -2.12081158679E-005 +7.01250741258E-003 -1.53660699725E-002 
+1.01000000000E+009 +3.15991491079E-001 -1.91364005208E-001 +4.95002977550E-002 -1.39944264665E-002 -2.69197680609E-005 +3.12126212521E-005 +2.89309583604E-003 -1.90491043031E-002 
+1.21000000000E+009 +3.00064921379E-001 -2.26727962494E-001 +4.41216444597E-003 -4.87350635231E-002 +6.77892558087E-006 -1.59726787388E-005 -1.68584613129E-003 -2.11799144745E-002 
+1.41000000000E+009 +2.82673686743E-001 -2.59171754122E-001 -4.31609451771E-002 -2.22211703658E-002 -4.96257916893E-006 -1.66023783095E-005 -7.50124687329E-003 -2.45393998921E-002 
+1.61000000000E+009 +2.65277206898E-001 -2.90162146091E-001 -3.57431024313E-002 +3.29231359065E-002 +3.00163737847E-005 -2.42104533754E-006 -1.37461870909E-002 -2.67959125340E-002 
+1.81000000000E+009 +2.44965717196E-001 -3.19135367870E-001 +1.68227944523E-002 +4.41090427339E-002 -1.12527286547E-005 -2.52346799243E-005 -1.76572073251E-002 -2.78793182224E-002 
+2.01000000000E+009 +2.25009799004E-001 -3.45573663712E-001 +4.78862747550E-002 +1.26578740310E-003 -8.72737746249E-006 +5.24725692230E-006 -2.32004225254E-002 -2.67828386277E-002 
+2.21000000000E+009 +2.04295918345E-001 -3.71287286282E-001 +1.78570337594E-002 -4.54462803900E-002 -1.22454948723E-005 +1.13813121061E-005 -2.88550779223E-002 -2.46240496635E-002 
+2.41000000000E+009 +1.81704476476E-001 -3.94504547119E-001 -3.49161177874E-002 -3.28601412475E-002 -9.21705577639E-006 +4.69983859830E-007 -3.54757979512E-002 -2.23576873541E-002 
+2.61000000000E+009 +1.59696146846E-001 -4.15710389614E-001 -4.50756810606E-002 +2.08405759186E-002 -1.31176711875E-005 -3.42014100170E-005 -4.07951846719E-002 -1.93999130279E-002 
+2.81000000000E+009 +1.37293800712E-001 -4.35898005962E-001 +4.93699917570E-003 +5.09950891137E-002 -3.69721710740E-005 -4.54480414191E-006 -4.47134859860E-002 -1.44785856828E-002 
+3.01000000000E+009 +1.13655328751E-001 -4.53792750835E-001 +4.84600737691E-002 +1.40575850382E-002 +1.27430457724E-005 -2.68104145107E-006 -4.86062727869E-002 -8.75546038151E-003 
+3.21000000000E+009 +9.10882055759E-002 -4.70079272985E-001 +3.27135808766E-002 -4.19591702521E-002 +2.49770364462E-005 +5.80815367357E-006 -5.25280833244E-002 -2.23412597552E-003 
+3.41000000000E+009 +6.86626061797E-002 -4.85715717077E-001 -3.10542155057E-002 -4.66370061040E-002 +3.06033180095E-005 +3.89668144862E-007 -5.54498434067E-002 +4.84119821340E-003 
+3.61000000000E+009 +4.55136746168E-002 -4.99338001013E-001 -5.43260015547E-002 +1.19995130226E-002 +1.58600159921E-005 -7.74378440838E-006 -5.72760067880E-002 +1.18118925020E-002 
+3.81000000000E+009 +2.33013126999E-002 -5.11614978313E-001 -8.88632237911E-003 +5.97948133945E-002 -1.99823480216E-005 -2.03503986995E-005 -5.71161098778E-002 +1.92355345935E-002 
+4.01000000000E+009 +1.24108709861E-003 -5.23929774761E-001 +5.86933344603E-002 +2.66679022461E-002 -9.28399276745E-006 -1.09740276457E-005 -5.61257041991E-002 +2.71667167544E-002 
+4.21000000000E+009 -2.13203877211E-002 -5.33716917038E-001 +4.54903878272E-002 -4.57692556083E-002 -3.42642329088E-006 +2.56833827734E-005 -5.41899316013E-002 +3.58725264668E-002 
+4.41000000000E+009 -4.26142401993E-002 -5.43313324451E-001 -3.25524285436E-002 -6.41410052776E-002 -6.44155761620E-006 +1.84712662303E-005 -5.11127635837E-002 +4.42783869803E-002 
+4.61000000000E+009 -6.48673325777E-002 -5.52343547344E-001 -7.36572295427E-002 +1.93584877998E-002 +1.21928842418E-005 -3.40188053087E-005 -4.68884445727E-002 +5.15911094844E-002 
+4.81000000000E+009 -8.67579951882E-002 -5.58943927288E-001 -5.40588283911E-003 +7.58630111814E-002 +1.72375548573E-005 -2.82173095911E-005 -4.02986556292E-002 +5.88211938739E-002 
+5.01000000000E+009 -1.08262360096E-001 -5.66375315189E-001 +8.06205794215E-002 +2.41344124079E-002 +1.80990009540E-005 -8.31966644910E-006 -3.36746498942E-002 +6.54527619481E-002 
+5.21000000000E+009 -1.30633965135E-001 -5.71591198444E-001 +3.47535088658E-002 -7.37114250660E-002 -6.78040396451E-006 -1.12198767965E-005 -2.62158568949E-002 +7.14455768466E-002 
+5.41000000000E+009 -1.50906160474E-001 -5.74873983860E-001 -5.83071373403E-002 -5.32696023583E-002 +3.34787756628E-007 +8.05990111985E-006 -1.73443704844E-002 +7.66193494201E-002 
+5.61000000000E+009 -1.72044962645E-001 -5.77819228172E-001 -6.21021166444E-002 +4.81082685292E-002 +2.64968639385E-005 +3.26231493091E-005 -7.55230383947E-003 +7.97765925527E-002 
+5.81000000000E+009 -1.91264227033E-001 -5.78438043594E-001 +3.08864768595E-002 +6.06651417911E-002 +3.71046917280E-006 +4.23225401391E-006 +3.00344638526E-003 +8.07213708758E-002 
+6.01000000000E+009 -2.08680808544E-001 -5.79244434834E-001 +6.21767789125E-002 -8.33021476865E-003 +3.08423477691E-005 -8.69745576892E-007 +1.42121417448E-002 +8.26348140836E-002 
+6.21000000000E+009 -2.26264595985E-001 -5.79336285591E-001 +4.56381915137E-003 -5.77128604054E-002 +6.47553861199E-006 -3.51057065018E-006 +2.50081531703E-002 +8.21396708488E-002 
+6.41000000000E+009 -2.42097049952E-001 -5.78965306282E-001 -4.46738526225E-002 -1.70397385955E-002 +7.65296044847E-006 -1.64768414379E-006 +3.65769974887E-002 +8.02472010255E-002 
+6.61000000000E+009 -2.58007347584E-001 -5.78988194466E-001 -2.92449053377E-002 +3.24280299246E-002 -5.08242101205E-006 +8.70098847372E-006 +4.77968044579E-002 +7.51967430115E-002 
+6.81000000000E+009 -2.73492127657E-001 -5.78411877155E-001 +2.08725389093E-002 +3.34601998329E-002 +2.77233607449E-006 -2.97086944556E-006 +5.86592033505E-002 +6.93166777492E-002 
+7.01000000000E+009 -2.88041770458E-001 -5.77701508999E-001 +3.23990136385E-002 -7.00788991526E-003 -1.89713464351E-005 +4.06549861509E-006 +6.86540827155E-002 +6.30423203111E-002 
+7.21000000000E+009 -3.02546381950E-001 -5.76812207699E-001 +5.30968885869E-003 -2.99777723849E-002 -6.64134540784E-006 -1.02682124634E-005 +7.78058692813E-002 +5.44666722417E-002 
+7.41000000000E+009 -3.16334456205E-001 -5.75791418552E-001 -2.43155676872E-002 -1.31666837260E-002 +1.97962708626E-006 -2.69748420578E-006 +8.69618803263E-002 +4.42629456520E-002 
+7.61000000000E+009 -3.29283833504E-001 -5.74305474758E-001 -1.81713886559E-002 +1.54995359480E-002 -2.07863886317E-005 -1.37682282002E-005 +9.33652743697E-002 +3.22008021176E-002 
+7.81000000000E+009 -3.42714339495E-001 -5.72364091873E-001 +6.63892831653E-003 +2.10485402495E-002 -1.04402006400E-005 +5.78685421715E-006 +9.89070087671E-002 +1.98174323887E-002 
+8.01000000000E+009 -3.55091482401E-001 -5.70211887360E-001 +2.02799774706E-002 +7.88143021055E-004 -3.36032076120E-006 -8.16242391011E-006 +1.02433428168E-001 +6.06395071372E-003 
+8.21000000000E+009 -3.67223918438E-001 -5.67874252796E-001 +7.27993156761E-003 -1.62731688470E-002 +1.78614009201E-005 -2.21232585318E-005 +1.04594677687E-001 -8.18673521280E-003 
+8.41000000000E+009 -3.79104286432E-001 -5.65143465996E-001 -1.12440157682E-002 -1.22048687190E-002 +5.83010660193E-006 -1.66388053913E-005 +1.04163870215E-001 -2.33501084149E-002 
+8.61000000000E+009 -3.90678852797E-001 -5.62698066235E-001 -1.43467001617E-002 +5.76413841918E-003 +1.38077803058E-006 -9.21035905321E-008 +1.00859351456E-001 -3.88391576707E-002 
+8.81000000000E+009 -4.01742905378E-001 -5.60070693493E-001 +3.04400600726E-006 +1.38078415766E-002 -9.14152678888E-007 +8.91392846825E-006 +9.54425632954E-002 -5.44424876571E-002 
+9.01000000000E+009 -4.12492752075E-001 -5.57112336159E-001 +1.17933871225E-002 +5.17754582688E-003 -8.73373846844E-006 -2.78515035461E-005 +8.86512994766E-002 -6.82695358992E-002 
+9.21000000000E+009 -4.22973662615E-001 -5.54177045822E-001 +8.51967837662E-003 -8.57648346573E-003 +2.51133387792E-005 +7.60694547353E-006 +7.87337571383E-002 -8.31674560905E-002 
+9.41000000000E+009 -4.32668715715E-001 -5.51255583763E-001 -4.27507609129E-003 -1.00473584607E-002 -3.50380378222E-006 -9.98724226520E-006 +6.61931186914E-002 -9.67821925879E-002 
+9.61000000000E+009 -4.42365109921E-001 -5.47963321209E-001 -1.02037405595E-002 -1.69738981640E-004 -1.48877334141E-005 -3.40220321959E-005 +5.09528480470E-002 -1.08951918781E-001 
+9.81000000000E+009 -4.51339334249E-001 -5.45374453068E-001 -3.72761557810E-003 +8.93077719957E-003 +8.22095046260E-007 +1.05433882709E-005 +3.57471369207E-002 -1.18359804153E-001 
+1.00100000000E+010 -4.60619390011E-001 -5.42119503021E-001 +6.27632532269E-003 +6.23024115339E-003 -1.30339067255E-005 +1.52534867084E-005 +1.86564493924E-002 -1.26194134355E-001 
+1.02100000000E+010 -4.69186872244E-001 -5.38556575775E-001 +7.73501070216E-003 -2.97110434622E-003 -3.55936899723E-005 +2.11619885704E-006 +4.64391283458E-004 -1.33064061403E-001 
+1.04100000000E+010 -4.77687507868E-001 -5.35412728786E-001 +1.46102276631E-004 -7.90092349052E-003 -1.28285237224E-005 +1.07251089503E-005 -2.01816391200E-002 -1.38409912586E-001 
+1.06100000000E+010 -4.85864043236E-001 -5.32083988190E-001 -6.63205934688E-003 -2.85460031591E-003 +1.50999203470E-005 -4.58605700260E-006 -4.18779067695E-002 -1.41013801098E-001 
+1.08100000000E+010 -4.92888480425E-001 -5.29518544674E-001 -5.02252066508E-003 +4.61524631828E-003 -3.07184745907E-005 +1.39425101224E-005 -6.37176334858E-002 -1.40573367476E-001 
+1.10100000000E+010 -5.00399351120E-001 -5.26271939278E-001 +2.30735773221E-003 +6.15194858983E-003 +1.59755581990E-005 +3.00288975268E-005 -8.57928618789E-002 -1.36971101165E-001 
+1.12100000000E+010 -5.07240414619E-001 -5.23904681206E-001 +6.03925483301E-003 +1.85577635420E-004 +3.68223809346E-005 -1.30218631966E-005 -1.09634876251E-001 -1.30510970950E-001 
+1.14100000000E+010 -5.14511644840E-001 -5.20699620247E-001 +2.50175385736E-003 -5.09386137128E-003 -7.31336129434E-008 -1.21921602840E-005 -1.32711321115E-001 -1.20368890464E-001 
+1.16100000000E+010 -5.20162582397E-001 -5.17865121365E-001 -3.65667790174E-003 -4.08832868561E-003 +2.23324677791E-005 -1.66569282101E-006 -1.54554069042E-001 -1.06915399432E-001 
+1.18100000000E+010 -5.26339471340E-001 -5.14919102192E-001 -4.81087062508E-003 +1.67350366246E-003 -2.99487351185E-006 -5.80918413107E-006 -1.74227327108E-001 -9.00433361530E-002 
+1.20100000000E+010 -5.32525122166E-001 -5.11655151844E-001 -4.20334981754E-004 +4.77367825806E-003 -8.94382355909E-006 +7.95186588221E-006 -1.91343918443E-001 -7.05065280199E-002 
+1.22100000000E+010 -5.38863897324E-001 -5.08118689060E-001 +4.14203759283E-003 +2.09406670183E-003 +4.98914414493E-006 -1.87056321010E-005 -2.08719477057E-001 -4.85063269734E-002 
+1.24100000000E+010 -5.44523656368E-001 -5.05049347878E-001 +3.30996606499E-003 -2.78443214484E-003 +5.03235751239E-005 -1.07442938315E-005 -2.23203212023E-001 -2.32939869165E-002 
+1.26100000000E+010 -5.50198256969E-001 -5.01953840256E-001 -1.12422415987E-003 -3.90127627179E-003 +3.41485319950E-005 -3.77355422643E-006 -2.33549699187E-001 +4.48075728491E-003 
+1.28100000000E+010 -5.55548250675E-001 -4.98636424541E-001 -3.91406845301E-003 -4.47898200946E-004 +4.03568674301E-006 -2.31167700804E-006 -2.39828422666E-001 +3.36438491940E-002 
+1.30100000000E+010 -5.60968518257E-001 -4.94723260403E-001 -1.76755315624E-003 +3.24667245150E-003 -1.27681391859E-006 -2.74262201856E-005 -2.43526265025E-001 +6.36317282915E-002 
+1.32100000000E+010 -5.65954685211E-001 -4.91239577532E-001 +2.07612267695E-003 +2.81758606434E-003 +1.26251043184E-005 -2.07903103728E-005 -2.43760183454E-001 +9.52266678214E-002 
+1.34100000000E+010 -5.71030080318E-001 -4.87171858549E-001 +3.31443594769E-003 -8.34171776660E-004 -2.85356090899E-005 -2.97171800412E-006 -2.40171328187E-001 +1.27015098929E-001 
+1.36100000000E+010 -5.74065923691E-001 -4.83614027500E-001 +4.37802780652E-004 -3.14176036045E-003 +1.22382789414E-005 +1.14920503620E-005 -2.32351005077E-001 +1.59887552261E-001 
+1.38100000000E+010 -5.79087436199E-001 -4.80740606785E-001 -2.55533540621E-003 -1.63686228916E-003 +9.58073201218E-007 +3.84394697903E-005 -2.19180315733E-001 +1.91956296563E-001 
+1.40100000000E+010 -5.83996236324E-001 -4.77508753538E-001 -2.43217428215E-003 +1.69435224961E-003 -2.67763080046E-005 +1.29633190227E-005 -2.02394589782E-001 +2.23154202104E-001 
+1.42100000000E+010 -5.88504672050E-001 -4.74480211735E-001 +6.04841799941E-004 +2.69031804055E-003 -9.29970701691E-006 +2.16783173528E-005 -1.81873962283E-001 +2.54422992468E-001 
+1.44100000000E+010 -5.93273401260E-001 -4.70746785402E-001 +2.54367059097E-003 +5.82100125030E-004 -2.37586154981E-005 -2.24160739890E-005 -1.56080305576E-001 +2.83052444458E-001 
+1.46100000000E+010 -5.96935451031E-001 -4.67533409595E-001 +1.47808098700E-003 -2.08698818460E-003 +3.98800102630E-006 +1.62343767443E-005 -1.25313147902E-001 +3.08504372835E-001 
+1.48100000000E+010 -6.00669682026E-001 -4.61996644735E-001 -1.30842998624E-003 -2.00811633840E-003 +2.19472458411E-005 -4.75619754070E-006 -9.23267230392E-002 +3.30612659454E-001 
+1.50100000000E+010 -6.02287590504E-001 -4.60795849562E-001 -2.25782068446E-003 +3.04387445794E-004 -1.36152061714E-006 +2.70673135674E-005 -5.65682388842E-002 +3.49967539310E-001 
+1.52100000000E+010 -6.05153918266E-001 -4.59918767214E-001 -6.11320429016E-004 +2.13929498568E-003 +1.68353562913E-006 -9.14224074222E-006 -1.76553651690E-002 +3.64945441484E-001 
+1.54100000000E+010 -6.08883857727E-001 -4.57665264606E-001 +1.67472206522E-003 +1.25960400328E-003 -1.28521296574E-005 -1.88962039829E-005 +2.46663149446E-002 +3.74901592731E-001 
+1.56100000000E+010 -6.12685143948E-001 -4.53871399164E-001 +1.77763029933E-003 -9.45873325691E-004 -2.04760726774E-005 +1.85299668374E-005 +6.86613172293E-002 +3.79189461470E-001 
+1.58100000000E+010 -6.14033579826E-001 -4.52750176191E-001 -1.70171508216E-004 -1.95282150526E-003 -7.97189022705E-006 +1.46800648508E-005 +1.12659357488E-001 +3.79550665617E-001 
+1.60100000000E+010 -6.16429567337E-001 -4.51038241386E-001 -1.76398688927E-003 -5.28090284206E-004 +8.69409450388E-006 +3.14156386594E-005 +1.57899871469E-001 +3.74511301517E-001 
+1.62100000000E+010 -6.18714213371E-001 -4.49168652296E-001 -1.17270078044E-003 +1.28287391271E-003 -1.22391811601E-005 -1.96157748178E-006 +2.05406188965E-001 +3.64077270031E-001 
+1.64100000000E+010 -6.20767056942E-001 -4.47342574596E-001 +7.36377842259E-004 +1.57365633640E-003 -1.78709922238E-006 -7.64890864957E-006 +2.52284646034E-001 +3.47856253386E-001 
+1.66100000000E+010 -6.24275207520E-001 -4.45404648781E-001 +1.62109080702E-003 -8.62407614477E-005 -3.30154944095E-005 -1.48852759594E-005 +2.96351462603E-001 +3.24207365513E-001 
+1.68100000000E+010 -6.27511799335E-001 -4.42669391632E-001 +6.04824454058E-004 -1.44832406659E-003 -1.36049829962E-005 -1.83806514542E-005 +3.39670509100E-001 +2.96667397022E-001 
+1.70100000000E+010 -6.29395306110E-001 -4.40251022577E-001 -1.08405714855E-003 -1.08285597526E-003 -4.99614498040E-006 +8.66347022566E-007 +3.79748851061E-001 +2.65200078487E-001 
+1.72100000000E+010 -6.31693959236E-001 -4.37746196985E-001 -1.32703897543E-003 +5.42812573258E-004 +3.87604495700E-006 +1.06561428765E-005 +4.17275398970E-001 +2.26563557982E-001 
+1.74100000000E+010 -6.34608566761E-001 -4.35525894165E-001 -7.38425806048E-005 +1.40634656418E-003 -4.07002880820E-006 -2.57220926869E-005 +4.50644642115E-001 +1.83652609587E-001 
+1.76100000000E+010 -6.37211918831E-001 -4.33125853539E-001 +1.22803810518E-003 +5.82887500059E-004 +4.22003358835E-006 -1.76183384610E-005 +4.78416413069E-001 +1.37491062284E-001 
+1.78100000000E+010 -6.40090882778E-001 -4.30709481239E-001 +9.57052863669E-004 -8.68189672474E-004 -2.16747321247E-005 +3.40505403074E-006 +5.01923799515E-001 +8.86840894818E-002 
+1.80100000000E+010 -6.42429828644E-001 -4.28143739700E-001 -4.00315388106E-004 -1.19107763749E-003 +2.16558983084E-005 +2.79468480358E-007 +5.21125018597E-001 +3.74607220292E-002 
+1.82100000000E+010 -6.45003616810E-001 -4.26079422235E-001 -1.19256076869E-003 -1.06171617517E-004 +1.45662006616E-005 +3.16520549859E-006 +5.33740520477E-001 -1.72936040908E-002 
+1.84100000000E+010 -6.47653520107E-001 -4.24335092306E-001 -5.29108801857E-004 +9.88608691841E-004 +4.44823490398E-005 +2.93534922093E-005 +5.39798796177E-001 -7.46942833066E-002 
+1.86100000000E+010 -6.50524377823E-001 -4.22104954720E-001 +6.40911923256E-004 +8.97567602806E-004 +4.00146109314E-006 -1.31076731122E-005 +5.39949238300E-001 -1.31357446313E-001 
+1.88100000000E+010 -6.52924180031E-001 -4.19445455074E-001 +1.02406134829E-003 -2.41672620177E-004 -8.88868089532E-006 -3.85826723459E-007 +5.33929169178E-001 -1.88123881817E-001 
+1.90100000000E+010 -6.54516637325E-001 -4.17422294617E-001 +1.61744334036E-004 -1.00465433206E-003 +2.29405359278E-005 +1.52691936819E-005 +5.22193312645E-001 -2.44412019849E-001 
+1.92100000000E+010 -6.56735360622E-001 -4.16318058968E-001 -8.09575780295E-004 -5.56423328817E-004 +3.08619419229E-005 -1.80041133717E-005 +5.04055380821E-001 -3.01982343197E-001 
+1.94100000000E+010 -6.59292280674E-001 -4.14048045874E-001 -8.04114039056E-004 +5.52403158508E-004 +2.68453204626E-005 -2.49435215665E-005 +4.78757828474E-001 -3.56855809689E-001 
+1.96100000000E+010 -6.60223722458E-001 -4.11732316017E-001 +1.80777278729E-004 +9.47987602558E-004 -8.68703409651E-006 -3.26287627104E-005 +4.47918146849E-001 -4.09021675587E-001 
+1.98100000000E+010 -6.59677624702E-001 -4.08668488264E-001 +8.29030992463E-004 +2.33471015235E-004 +2.10965481529E-005 -8.05771833257E-006 +4.13040488958E-001 -4.56539690495E-001 
+2.00100000000E+010 -6.58753752708E-001 -4.07706737518E-001 +5.54878497496E-004 -7.22391938325E-004 -1.95675761461E-006 +4.86958924739E-006 +3.71188700199E-001 -5.02983212471E-001 
