!;Filter: kein Filter
!auto
!3/21/2019 9:27:54 AM
!3/21/2019 9:28:10 AM
!SP-Measurements Prober G4
!SP-Measurements Prober G4
!01103_448C
!134
!233
!12
!50
!-20
!0.00599970
!2.02
!0.74959551
!0.74959551
# Hz S  RI   R 50
+1.00000000000E+007 +2.00926244259E-001 +5.04289567471E-003 +4.01943996549E-002 -1.41452485695E-002 +3.95331240725E-004 -6.80644181557E-004 +5.00045297667E-003 +9.07789333723E-004 
+2.10000000000E+008 +2.12837666273E-001 -2.17799283564E-002 -1.83296611067E-003 -4.05015386641E-002 +5.98836004428E-006 -7.85458905739E-006 +8.78872163594E-003 -4.47303475812E-003 
+4.10000000000E+008 +2.15414628386E-001 -4.97820489109E-002 -3.77895683050E-002 -1.21097723022E-002 -1.22678738990E-005 +3.82275684387E-005 +1.01933851838E-002 -7.25694419816E-003 
+6.10000000000E+008 +2.15547233820E-001 -7.89997354150E-002 -2.39260010421E-002 +3.00501976162E-002 -4.56614679933E-006 +2.79351224890E-005 +9.76225920022E-003 -1.15259028971E-002 
+8.10000000000E+008 +2.12478786707E-001 -1.09031870961E-001 +2.02119238675E-002 +3.30967530608E-002 -1.62933265528E-005 -7.47018202674E-006 +6.96706166491E-003 -1.53293199837E-002 
+1.01000000000E+009 +2.06679791212E-001 -1.38612151146E-001 +3.87207046151E-002 -6.65348861367E-003 +2.96110392810E-005 -8.05004310678E-006 +2.82873911783E-003 -1.90254747868E-002 
+1.21000000000E+009 +1.99066281319E-001 -1.66873902082E-001 +7.29055656120E-003 -3.67714799941E-002 -1.12134794108E-005 -1.75063382812E-006 -1.75867904909E-003 -2.11666896939E-002 
+1.41000000000E+009 +1.89626470208E-001 -1.95089876652E-001 -3.19033600390E-002 -2.06948183477E-002 -1.30504477056E-005 -4.33741433881E-006 -7.53671070561E-003 -2.44947392493E-002 
+1.61000000000E+009 +1.78873509169E-001 -2.22262501717E-001 -3.03384158760E-002 +2.33065839857E-002 +1.20646427604E-006 -1.25794667838E-005 -1.37620549649E-002 -2.67235226929E-002 
+1.81000000000E+009 +1.66286006570E-001 -2.48184680939E-001 +1.01471114904E-002 +3.54722291231E-002 +4.23870869781E-006 -4.04266165788E-006 -1.77023224533E-002 -2.78122685850E-002 
+2.01000000000E+009 +1.53040021658E-001 -2.73166447878E-001 +3.75530906022E-002 +3.50025668740E-003 -3.03068702578E-007 -3.69968802261E-006 -2.32364181429E-002 -2.67416015267E-002 
+2.21000000000E+009 +1.38223603368E-001 -2.97150254250E-001 +1.54961412773E-002 -3.40431183577E-002 -3.02223952531E-006 +2.16771677515E-005 -2.88190431893E-002 -2.45402585715E-002 
+2.41000000000E+009 +1.22156821191E-001 -3.19451034069E-001 -2.52084061503E-002 -2.63294540346E-002 +2.83895660687E-005 -2.39394211121E-007 -3.54286395013E-002 -2.23186481744E-002 
+2.61000000000E+009 +1.05604447424E-001 -3.40574741364E-001 -3.41086871922E-002 +1.42441922799E-002 -3.19053397106E-005 -7.53124322728E-006 -4.07429486513E-002 -1.93487834185E-002 
+2.81000000000E+009 +8.80352482200E-002 -3.60272079706E-001 +2.07823025994E-003 +3.63773964345E-002 +4.90477623316E-006 +7.55836754252E-006 -4.47466634214E-002 -1.44169805571E-002 
+3.01000000000E+009 +6.99007958174E-002 -3.78420948982E-001 +3.38737256825E-002 +1.13500757143E-002 +8.74650049809E-006 +1.35135151140E-005 -4.85591925681E-002 -8.67037754506E-003 
+3.21000000000E+009 +5.14643043280E-002 -3.95457834005E-001 +2.28896886110E-002 -2.79309600592E-002 +1.40642559927E-005 +7.68686277297E-006 -5.24777323008E-002 -2.16405489482E-003 
+3.41000000000E+009 +3.29517163336E-002 -4.11085158587E-001 -1.81381795555E-002 -3.04093323648E-002 +1.77595975401E-005 +1.43705710798E-005 -5.54046481848E-002 +4.88976109773E-003 
+3.61000000000E+009 +1.42282200977E-002 -4.25599277020E-001 -3.44501137733E-002 +5.38511108607E-003 +2.04718089662E-005 -4.19648531533E-005 -5.71872442961E-002 +1.18199158460E-002 
+3.81000000000E+009 -4.85361926258E-003 -4.38671380281E-001 -7.20622064546E-003 +3.44743579626E-002 -2.15230847971E-005 -1.38540572152E-005 -5.70427812636E-002 +1.92578490824E-002 
+4.01000000000E+009 -2.35128868371E-002 -4.50843393803E-001 +2.93024256825E-002 +1.82452406734E-002 +3.99966556870E-005 -1.52051579789E-005 -5.60244396329E-002 +2.71357800812E-002 
+4.21000000000E+009 -4.22526150942E-002 -4.61724966764E-001 +2.75331139565E-002 -2.01024077833E-002 +2.93385128316E-005 -4.12968511228E-005 -5.41099570692E-002 +3.58155854046E-002 
+4.41000000000E+009 -6.08184374869E-002 -4.71551358700E-001 -9.21771954745E-003 -3.32272537053E-002 +1.94881504285E-005 -1.84868622455E-005 -5.09974509478E-002 +4.42477986217E-002 
+4.61000000000E+009 -7.91064873338E-002 -4.80349957943E-001 -3.36434841156E-002 -2.82248412259E-003 +1.92007082660E-005 +1.74364089389E-007 -4.68163006008E-002 +5.15589751303E-002 
+4.81000000000E+009 -9.73634123802E-002 -4.88364070654E-001 -1.51361217722E-002 +2.99241151661E-002 +1.37294080105E-006 +2.00821050385E-005 -4.02314066887E-002 +5.87714985013E-002 
+5.01000000000E+009 -1.15132689476E-001 -4.95893299580E-001 +2.31141578406E-002 +2.48571820557E-002 -1.41390300996E-005 -1.76564117282E-006 -3.35572622716E-002 +6.53762370348E-002 
+5.21000000000E+009 -1.32588043809E-001 -5.02703189850E-001 +3.06197013706E-002 -1.25613091514E-002 +1.67782181961E-005 +3.03102988255E-005 -2.61682942510E-002 +7.13477879763E-002 
+5.41000000000E+009 -1.49697706103E-001 -5.08226394653E-001 -1.66227066074E-004 -3.32460626960E-002 +1.28994633997E-005 -1.59329210874E-005 -1.72940231860E-002 +7.65072852373E-002 
+5.61000000000E+009 -1.66915968060E-001 -5.13605713844E-001 -3.17463465035E-002 -1.12346764654E-002 -1.57698559633E-005 +2.20589463424E-005 -7.52732809633E-003 +7.97067508101E-002 
+5.81000000000E+009 -1.83381110430E-001 -5.17922818661E-001 -2.12642215192E-002 +2.51126885414E-002 -1.35135842356E-005 +3.48271423718E-005 +2.97865248285E-003 +8.05919766426E-002 
+6.01000000000E+009 -1.99346601963E-001 -5.21370291710E-001 +1.58165507019E-002 +2.93528735638E-002 -5.09685787620E-006 -2.18480545300E-005 +1.41863599420E-002 +8.25420096517E-002 
+6.21000000000E+009 -2.15251058340E-001 -5.24302184582E-001 +3.32073830068E-002 -5.36120031029E-003 -2.66471852228E-005 +1.28749661599E-005 +2.50036362559E-002 +8.20067003369E-002 
+6.41000000000E+009 -2.30388343334E-001 -5.26766359806E-001 +6.56114984304E-003 -3.21368686855E-002 -2.26226275117E-005 +1.40453539643E-005 +3.65216657519E-002 +8.01270008087E-002 
+6.61000000000E+009 -2.45566815138E-001 -5.28730154037E-001 -2.80930567533E-002 -1.79987978190E-002 +9.59392764344E-007 -1.78522604983E-005 +4.77186553180E-002 +7.50808268785E-002 
+6.81000000000E+009 -2.60372519493E-001 -5.30207455158E-001 -2.60425340384E-002 +2.07444634289E-002 +1.94180011022E-005 +3.19039463648E-006 +5.85689879954E-002 +6.92257732153E-002 
+7.01000000000E+009 -2.74544537067E-001 -5.31296968460E-001 +9.75438393652E-003 +3.11374720186E-002 -3.54320445695E-006 +6.05880404692E-006 +6.85197860003E-002 +6.29423558712E-002 
+7.21000000000E+009 -2.88475602865E-001 -5.31796634197E-001 +3.36006470025E-002 +1.57401338220E-003 -1.60627296282E-005 +2.57963238255E-005 +7.76832848787E-002 +5.44559769332E-002 
+7.41000000000E+009 -3.01790833473E-001 -5.32353103161E-001 +1.16036888212E-002 -3.10794934630E-002 -1.89034490177E-005 +7.28317399989E-006 +8.68234559894E-002 +4.42454330623E-002 
+7.61000000000E+009 -3.14345240593E-001 -5.32189249992E-001 -2.44348403066E-002 -2.15895064175E-002 -3.30120587932E-006 -1.22849280615E-006 +9.31977927685E-002 +3.21684442461E-002 
+7.81000000000E+009 -3.27264666557E-001 -5.31419754028E-001 -2.88896225393E-002 +1.67278312147E-002 -1.49784191308E-005 +2.14082410821E-005 +9.87339764833E-002 +1.98471602052E-002 
+8.01000000000E+009 -3.39244544506E-001 -5.30545949936E-001 +6.98434468359E-003 +3.12126092613E-002 -7.62838362789E-006 -1.09802649604E-005 +1.02297253907E-001 +6.05226308107E-003 
+8.21000000000E+009 -3.51035714149E-001 -5.29311001301E-001 +3.10741718858E-002 +4.49082255363E-003 +2.81718148472E-005 -3.13088276016E-005 +1.04465022683E-001 -8.13215877861E-003 
+8.41000000000E+009 -3.62484276295E-001 -5.27652442455E-001 +1.35581847280E-002 -2.83241439611E-002 +5.65837012800E-007 -3.03002962028E-005 +1.03999860585E-001 -2.33295783401E-002 
+8.61000000000E+009 -3.73685419559E-001 -5.26219606400E-001 -2.11555417627E-002 -2.03976593912E-002 +2.14967576539E-006 -3.66124731954E-006 +1.00677929819E-001 -3.87309230864E-002 
+8.81000000000E+009 -3.84308248758E-001 -5.24490535259E-001 -2.59829517454E-002 +1.25010181218E-002 -1.60938907356E-005 +1.33970834213E-005 +9.53009128571E-002 -5.43108694255E-002 
+9.01000000000E+009 -3.94721865654E-001 -5.22490501404E-001 +4.30816505104E-003 +2.75612510741E-002 -1.39114190461E-005 +2.46837298619E-005 +8.85160714388E-002 -6.81554675102E-002 
+9.21000000000E+009 -4.04773145914E-001 -5.20460844040E-001 +2.51319874078E-002 +4.78941109031E-003 -1.04312857729E-006 -3.22210553350E-006 +7.86740407348E-002 -8.29854086041E-002 
+9.41000000000E+009 -4.14140105247E-001 -5.18524587154E-001 +1.28610581160E-002 -2.12590899318E-002 +1.21829907584E-005 +1.05803178485E-006 +6.61276355386E-002 -9.65691506863E-002 
+9.61000000000E+009 -4.23485904932E-001 -5.16076207161E-001 -1.53408329934E-002 -1.75308603793E-002 +1.84519223012E-007 -2.62912562903E-005 +5.08937314153E-002 -1.08767099679E-001 
+9.81000000000E+009 -4.32158440351E-001 -5.14306068420E-001 -2.01431401074E-002 +7.12559651583E-003 -6.49155981591E-006 +2.38469920077E-006 +3.56917083263E-002 -1.18173383176E-001 
+1.00100000000E+010 -4.41123694181E-001 -5.11901557446E-001 -4.82693605591E-004 +2.07980610430E-002 -3.18203055940E-005 -7.94298375695E-006 +1.86897087842E-002 -1.25968411565E-001 
+1.02100000000E+010 -4.49207514524E-001 -5.09065210819E-001 +1.82677004486E-002 +6.65670400485E-003 +3.37405763275E-005 +7.51305560698E-006 +4.69010556117E-004 -1.32862150669E-001 
+1.04100000000E+010 -4.57491129637E-001 -5.06812572479E-001 +1.21145909652E-002 -1.32577335462E-002 -2.44046077569E-005 +1.33597814056E-005 -2.01035328209E-002 -1.38230279088E-001 
+1.06100000000E+010 -4.65378820896E-001 -5.04312396049E-001 -8.00008792430E-003 -1.56841203570E-002 -1.94104268303E-006 -4.05792852689E-005 -4.17570546269E-002 -1.40841558576E-001 
+1.08100000000E+010 -4.72265750170E-001 -5.02494215965E-001 -1.60678569227E-002 +2.20265449025E-003 -1.97393783310E-005 +3.57852712796E-007 -6.35440424085E-002 -1.40426248312E-001 
+1.10100000000E+010 -4.79526191950E-001 -5.00026524067E-001 -3.92554001883E-003 +1.47587629035E-002 +1.03580932773E-005 +6.53828647046E-006 -8.56193602085E-002 -1.36797517538E-001 
+1.12100000000E+010 -4.86194550991E-001 -4.98376071453E-001 +1.21047943830E-002 +8.32388177514E-003 -2.20802394324E-006 -1.02353378679E-005 -1.09443388879E-001 -1.30360201001E-001 
+1.14100000000E+010 -4.93187457323E-001 -4.95857596397E-001 +1.09015237540E-002 -7.59223196656E-003 -2.17665783566E-005 +8.76654121384E-006 -1.32465139031E-001 -1.20250120759E-001 
+1.16100000000E+010 -4.98636871576E-001 -4.93708848953E-001 -2.40049394779E-003 -1.23565103859E-002 -8.79369781615E-006 +1.62305241247E-005 -1.54332011938E-001 -1.06818564236E-001 
+1.18100000000E+010 -5.04634678364E-001 -4.91429537535E-001 -1.20056048036E-002 -2.02619796619E-003 -1.50172909343E-005 -4.20185915573E-006 -1.73981964588E-001 -8.99621993303E-002 
+1.20100000000E+010 -5.10585248470E-001 -4.88800227642E-001 -5.71870850399E-003 +9.52438823879E-003 -3.40380138368E-005 +1.87127534446E-005 -1.91073775291E-001 -7.04625472426E-002 
+1.22100000000E+010 -5.16657710075E-001 -4.85892176628E-001 +6.28718594089E-003 +8.94124619663E-003 +2.70217442448E-005 -1.01435816759E-005 -2.08463326097E-001 -4.85591366887E-002 
+1.24100000000E+010 -5.22138237953E-001 -4.83410388231E-001 +9.98092349619E-003 -3.09000303969E-003 -2.96269317914E-005 -2.56877756328E-005 -2.22944408655E-001 -2.32975762337E-002 
+1.26100000000E+010 -5.27470648289E-001 -4.80802685022E-001 +8.40927881654E-004 -9.57191456109E-003 +8.46833518153E-006 +1.29333702716E-005 -2.33307763934E-001 +4.36708005145E-003 
+1.28100000000E+010 -5.32683908939E-001 -4.78059738874E-001 -7.92587921023E-003 -4.00256831199E-003 -1.26361019284E-005 +4.78641140944E-006 -2.39554390311E-001 +3.35057750344E-002 
+1.30100000000E+010 -5.37723481655E-001 -4.74710553885E-001 -6.31223386154E-003 +5.60390530154E-003 +1.40047541208E-005 +2.66096249106E-005 -2.43327155709E-001 +6.34491294622E-002 
+1.32100000000E+010 -5.42337298393E-001 -4.71807539463E-001 +2.43127928115E-003 +7.22562614828E-003 +1.44693703987E-005 -3.56576606464E-006 -2.43580088019E-001 +9.50341522694E-002 
+1.34100000000E+010 -5.47072589397E-001 -4.68317866325E-001 +7.44227552786E-003 +7.74209678639E-004 -2.20198944589E-006 +7.11766406312E-005 -2.40054249763E-001 +1.26816093922E-001 
+1.36100000000E+010 -5.49964010715E-001 -4.65421617031E-001 +3.12059489079E-003 -6.40458054841E-003 +2.81241336779E-005 -2.48750420724E-005 -2.32188582420E-001 +1.59650415182E-001 
+1.38100000000E+010 -5.54753363132E-001 -4.63155448437E-001 -4.20890282840E-003 -4.95937885717E-003 -2.85309979517E-005 +4.22505181632E-005 -2.19126194715E-001 +1.91683113575E-001 
+1.40100000000E+010 -5.59450328350E-001 -4.60478305817E-001 -6.10017031431E-003 +1.91315670963E-003 +4.03726517106E-006 -5.80682426516E-005 -2.02364057302E-001 +2.22847104073E-001 
+1.42100000000E+010 -5.63557505608E-001 -4.57996785641E-001 -3.47523804521E-004 +5.90976933017E-003 -6.32484625385E-006 -7.80894697527E-006 -1.81886464357E-001 +2.54084885120E-001 
+1.44100000000E+010 -5.67985951900E-001 -4.54852521420E-001 +4.83809318393E-003 +2.61949864216E-003 +2.01133625524E-005 +1.81560408237E-005 -1.56155019999E-001 +2.82724499702E-001 
+1.46100000000E+010 -5.71323275566E-001 -4.52308744192E-001 +4.19862195849E-003 -3.37407435291E-003 +1.18512361951E-005 +2.83409076474E-006 -1.25469490886E-001 +3.08240115643E-001 
+1.48100000000E+010 -5.74614822865E-001 -4.47615325451E-001 -1.53583427891E-003 -4.87973820418E-003 +3.86618239645E-006 +2.35447587329E-005 -9.24964472651E-002 +3.30260276794E-001 
+1.50100000000E+010 -5.76167106628E-001 -4.47160929441E-001 -4.72860364243E-003 -5.65057271160E-004 -8.27261374070E-006 +4.72598094348E-006 -5.68068362772E-002 +3.49717587233E-001 
+1.52100000000E+010 -5.78824758530E-001 -4.46935236454E-001 -2.32452456839E-003 +4.01355745271E-003 +1.26901786643E-005 +1.08496487883E-006 -1.79442744702E-002 +3.64724844694E-001 
+1.54100000000E+010 -5.82207202911E-001 -4.45409297943E-001 +2.74244509637E-003 +3.43145336956E-003 +1.37677689054E-005 +8.49572188599E-006 +2.43629403412E-002 +3.74678105116E-001 
+1.56100000000E+010 -5.85751593113E-001 -4.42527562380E-001 +4.04478888959E-003 -1.02958770003E-003 +4.47243883173E-006 +1.15581769933E-005 +6.82852193713E-002 +3.78971368074E-001 
+1.58100000000E+010 -5.87083280087E-001 -4.42207962275E-001 +6.42691680696E-004 -4.04993398115E-003 +8.19903652882E-006 +9.89730779111E-007 +1.12263977528E-001 +3.79412204027E-001 
+1.60100000000E+010 -5.89432954788E-001 -4.41338241100E-001 -3.30993859097E-003 -1.89876894001E-003 +2.13034236367E-005 +2.47140815191E-005 +1.57485559583E-001 +3.74468535185E-001 
+1.62100000000E+010 -5.91693520546E-001 -4.40262973309E-001 -2.98773846589E-003 +2.09196284413E-003 -1.85288063221E-005 -2.25177573157E-005 +2.05004677176E-001 +3.64104866982E-001 
+1.64100000000E+010 -5.93717813492E-001 -4.39307063818E-001 +8.19054781459E-004 +3.46477166750E-003 -2.24258164963E-005 -3.43395049640E-006 +2.51932531595E-001 +3.47905278206E-001 
+1.66100000000E+010 -5.97271621227E-001 -4.38241451979E-001 +3.27181885950E-003 +5.05483592860E-004 +3.75222293769E-006 -7.83033374319E-006 +2.95965194702E-001 +3.24281543493E-001 
+1.68100000000E+010 -6.00607454777E-001 -4.36318010092E-001 +1.75969139673E-003 -2.61773727834E-003 +1.03506226878E-005 +9.32003331400E-006 +3.39336901903E-001 +2.96858370304E-001 
+1.70100000000E+010 -6.02632462978E-001 -4.34724420309E-001 -1.69457227457E-003 -2.57610087283E-003 +2.14195529225E-006 +4.43398894276E-005 +3.79391252995E-001 +2.65449881554E-001 
+1.72100000000E+010 -6.05113923550E-001 -4.33038115501E-001 -2.83879996277E-003 +5.79570652917E-004 -2.45037044806E-005 +1.48410508700E-005 +4.16983515024E-001 +2.26824641228E-001 
+1.74100000000E+010 -6.08320057392E-001 -4.31577026844E-001 -7.30787578505E-004 +2.66559305601E-003 -2.07709545066E-005 +2.86054419121E-005 +4.50351476669E-001 +1.84016406536E-001 
+1.76100000000E+010 -6.11167669296E-001 -4.29929077625E-001 +2.18003732152E-003 +1.65672774892E-003 -1.07765217763E-005 -1.32637678689E-005 +4.78229671717E-001 +1.37960836291E-001 
+1.78100000000E+010 -6.14389777184E-001 -4.28278595209E-001 +2.25492776372E-003 -1.28655612934E-003 -3.67170141544E-005 -6.90485376253E-006 +5.01758873463E-001 +8.90915989876E-002 
+1.80100000000E+010 -6.17053091526E-001 -4.26417917013E-001 -2.01212649699E-004 -2.49238917604E-003 -2.23438019020E-006 -4.20450924139E-005 +5.21112740040E-001 +3.78623381257E-002 
+1.82100000000E+010 -6.20062351227E-001 -4.24979746342E-001 -2.33893538825E-003 -6.98657822795E-004 +1.63956283359E-005 +2.53411362792E-005 +5.33726155758E-001 -1.68035700917E-002 
+1.84100000000E+010 -6.23016297817E-001 -4.23693060875E-001 -1.46444444545E-003 +1.71932426747E-003 -1.03027350633E-005 +6.01175497650E-006 +5.39888918400E-001 -7.41870552301E-002 
+1.86100000000E+010 -6.26332581043E-001 -4.22008365393E-001 +9.87254665233E-004 +2.11615161970E-003 -8.93892138265E-006 -2.03460367629E-005 +5.40042579174E-001 -1.30899578333E-001 
+1.88100000000E+010 -6.29090070724E-001 -4.19936060905E-001 +2.21656891517E-003 -1.86418372323E-004 +8.87199075805E-006 -1.45869971675E-005 +5.34129798412E-001 -1.87674790621E-001 
+1.90100000000E+010 -6.31057798862E-001 -4.18396174908E-001 +6.02123560384E-004 -1.96356535889E-003 +1.76960347744E-005 +9.62125227488E-007 +5.22433340549E-001 -2.43941679597E-001 
+1.92100000000E+010 -6.33662939072E-001 -4.17686194181E-001 -1.46733364090E-003 -1.35260238312E-003 -1.72703930730E-005 -9.75391412794E-006 +5.04402697086E-001 -3.01546782255E-001 
+1.94100000000E+010 -6.36584103107E-001 -4.15909767151E-001 -1.78298028186E-003 +8.87133530341E-004 +6.03356147622E-006 -1.60515373864E-005 +4.79166597128E-001 -3.56459587812E-001 
+1.96100000000E+010 -6.37859582901E-001 -4.14124965668E-001 +3.00483861793E-005 +1.83766882401E-003 +1.83973315870E-005 -2.28408352996E-005 +4.48389649391E-001 -4.08717393875E-001 
+1.98100000000E+010 -6.38012766838E-001 -4.11589413881E-001 +1.64908578154E-003 +7.06475810148E-004 +1.61978987308E-005 -1.34340452860E-005 +4.13516849279E-001 -4.56344515085E-001 
+2.00100000000E+010 -6.37855947018E-001 -4.10517692566E-001 +1.19382911362E-003 -1.22773274779E-003 -5.42976704310E-006 +2.09999456047E-007 +3.71669322252E-001 -5.02819716930E-001 
