!;Filter: kein Filter
!auto
!3/21/2019 9:25:24 AM
!3/21/2019 9:25:40 AM
!SP-Measurements Prober G4
!SP-Measurements Prober G4
!01103_448C
!134
!237
!12
!50
!-20
!0.00399976
!1.88
!0.54220246
!0.54220246
# Hz S  RI   R 50
+1.00000000000E+007 +1.49347528815E-001 +1.07883838937E-002 +6.73236027360E-002 -2.76614502072E-002 -5.76902471948E-004 +2.63570225798E-004 +5.32887410372E-003 +9.66123538092E-004 
+2.10000000000E+008 +1.70259922743E-001 -2.39986069500E-002 -2.66793859191E-003 -6.92231059074E-002 +9.63191268966E-006 -5.30885517946E-005 +8.77627916634E-003 -4.47639124468E-003 
+4.10000000000E+008 +1.70380756259E-001 -5.47997355461E-002 -6.48854672909E-002 -2.20957156271E-002 +4.62959433207E-005 -6.84447650201E-006 +1.02172801271E-002 -7.31256091967E-003 
+6.10000000000E+008 +1.67258694768E-001 -8.48029404879E-002 -4.30590845644E-002 +5.30207455158E-002 -2.74746926152E-005 -1.29960881168E-005 +9.78689361364E-003 -1.15017723292E-002 
+8.10000000000E+008 +1.61152571440E-001 -1.13929927349E-001 +3.34598682821E-002 +5.82840144634E-002 -1.44126861414E-005 -8.65261881700E-006 +6.96885585785E-003 -1.52994394302E-002 
+1.01000000000E+009 +1.54132932425E-001 -1.41617998481E-001 +6.77682533860E-002 -1.04165850207E-002 +3.13498526339E-006 +2.32577185670E-005 +2.81634577550E-003 -1.90652366728E-002 
+1.21000000000E+009 +1.44494697452E-001 -1.68850347400E-001 +1.36220594868E-002 -6.50764182210E-002 -1.05660701593E-005 -1.67185971804E-005 -1.74438860267E-003 -2.11624726653E-002 
+1.41000000000E+009 +1.33746296167E-001 -1.94990187883E-001 -5.56174889207E-002 -3.67140844464E-002 -1.11447352538E-005 +1.82026633411E-005 -7.50305503607E-003 -2.44940724224E-002 
+1.61000000000E+009 +1.22467152774E-001 -2.20661506057E-001 -5.42902164161E-002 +4.00514081120E-002 +1.07360710899E-005 -1.17038389362E-005 -1.37279108167E-002 -2.67842821777E-002 
+1.81000000000E+009 +1.08717054129E-001 -2.44358941913E-001 +1.70300602913E-002 +6.38671368361E-002 +1.11733822905E-006 -4.87314628117E-006 -1.76417175680E-002 -2.78248582035E-002 
+2.01000000000E+009 +9.51550155878E-002 -2.67123848200E-001 +6.64040222764E-002 +7.88137596101E-003 -1.26820859805E-005 +1.00566139736E-005 -2.31967717409E-002 -2.67552230507E-002 
+2.21000000000E+009 +8.01634043455E-002 -2.89022892714E-001 +3.06519102305E-002 -6.03017397225E-002 +1.78947975655E-005 -1.63120182606E-006 -2.88107786328E-002 -2.45921704918E-002 
+2.41000000000E+009 +6.41173049808E-002 -3.08947116137E-001 -4.42764572799E-002 -5.02588860691E-002 +1.59605951922E-005 +8.48840045364E-006 -3.54656502604E-002 -2.23418381065E-002 
+2.61000000000E+009 +4.80940826237E-002 -3.27684342861E-001 -6.45581632853E-002 +2.31091566384E-002 +1.31446031446E-005 -1.85552980838E-005 -4.07616645098E-002 -1.93505994976E-002 
+2.81000000000E+009 +3.14724482596E-002 -3.45395743847E-001 -1.15212715173E-004 +6.96836635470E-002 -6.20713262833E-006 -1.88432259165E-005 -4.46844324470E-002 -1.44566744566E-002 
+3.01000000000E+009 +1.41720073298E-002 -3.61538410187E-001 +6.46872818470E-002 +2.58369930089E-002 +7.93147421518E-007 -2.20647125388E-005 -4.85365949571E-002 -8.73083528131E-003 
+3.21000000000E+009 -2.90575157851E-003 -3.76707077026E-001 +4.92681264877E-002 -5.28420768678E-002 +1.54147965077E-005 +1.94215845113E-005 -5.24571500719E-002 -2.20855209045E-003 
+3.41000000000E+009 -2.00578104705E-002 -3.91120582819E-001 -3.43599617481E-002 -6.48664534092E-002 -2.39053115365E-005 +4.65009998152E-006 -5.53603805602E-002 +4.85927565023E-003 
+3.61000000000E+009 -3.75610888004E-002 -4.04104888439E-001 -7.33060389757E-002 +8.41600447893E-003 +5.66567678106E-006 +4.48450464319E-006 -5.72163201869E-002 +1.17990868166E-002 
+3.81000000000E+009 -5.49158342183E-002 -4.16086494923E-001 -1.86062809080E-002 +7.47072026134E-002 -1.30615826492E-005 -1.02133872133E-005 -5.70424273610E-002 +1.92063804716E-002 
+4.01000000000E+009 -7.22462832928E-002 -4.27499413490E-001 +6.51587396860E-002 +4.26082871854E-002 +4.32813749285E-006 +2.38753855228E-005 -5.60559332371E-002 +2.71332655102E-002 
+4.21000000000E+009 -8.95195826888E-002 -4.37412232161E-001 +6.44728466868E-002 -4.59894947708E-002 +8.27622443467E-006 -2.82911264549E-006 -5.41565939784E-002 +3.58010232449E-002 
+4.41000000000E+009 -1.06487333775E-001 -4.46752578020E-001 -2.25086212158E-002 -8.07176008821E-002 -6.04591241427E-006 -2.51909496001E-005 -5.10663576424E-002 +4.41992878914E-002 
+4.61000000000E+009 -1.23524121940E-001 -4.55274879932E-001 -8.58607962728E-002 -4.40352782607E-003 +3.19828927786E-006 +6.55691201246E-006 -4.68406006694E-002 +5.14833182096E-002 
+4.81000000000E+009 -1.40381306410E-001 -4.62978303432E-001 -3.50691974163E-002 +8.22163820267E-002 +1.45190988405E-005 -1.02798867374E-006 -4.02388833463E-002 +5.87108768523E-002 
+5.01000000000E+009 -1.56914293766E-001 -4.70692634583E-001 +7.26721212268E-002 +6.25923499465E-002 -1.74182387127E-005 +4.31522676081E-005 -3.36137339473E-002 +6.53496310115E-002 
+5.21000000000E+009 -1.73614487052E-001 -4.77591574192E-001 +8.21126401424E-002 -5.34372739494E-002 +1.28538831632E-005 +1.35959580803E-005 -2.61858869344E-002 +7.13623762131E-002 
+5.41000000000E+009 -1.89906507730E-001 -4.83294904232E-001 -2.66588255763E-002 -9.79173257947E-002 -9.95170012175E-006 -2.57230094576E-005 -1.73757467419E-002 +7.65053853393E-002 
+5.61000000000E+009 -2.06810727715E-001 -4.88922923803E-001 -1.06739372015E-001 +1.34947185870E-003 +1.18222415040E-005 -4.21471759182E-006 -7.55094503984E-003 +7.96284377575E-002 
+5.81000000000E+009 -2.23061144352E-001 -4.92916524410E-001 -2.53916513175E-002 +1.01938016713E-001 +3.76722964575E-005 +3.02300159092E-005 +2.96283699572E-003 +8.06302651763E-002 
+6.01000000000E+009 -2.38683313131E-001 -4.96072590351E-001 +9.18573439121E-002 +5.16462512314E-002 -1.66650243045E-005 +7.75391254138E-006 +1.41520109028E-002 +8.25435966253E-002 
+6.21000000000E+009 -2.54517644644E-001 -4.98434245586E-001 +6.91836848855E-002 -7.73170590401E-002 -1.32722161652E-005 +7.91091042629E-006 +2.49527618289E-002 +8.20202901959E-002 
+6.41000000000E+009 -2.69018143415E-001 -4.99888062477E-001 -5.28703965247E-002 -8.03435370326E-002 -9.72297857516E-006 +2.98866802950E-006 +3.64826135337E-002 +8.01172032952E-002 
+6.61000000000E+009 -2.83372789621E-001 -5.00993013382E-001 -8.57687518001E-002 +2.80465669930E-002 -1.28379761009E-005 -3.26558438246E-006 +4.76809144020E-002 +7.51257762313E-002 
+6.81000000000E+009 -2.97127068043E-001 -5.01594305038E-001 +4.80218231678E-003 +8.22640955448E-002 +4.70915892947E-006 +7.63264051784E-006 +5.84870874882E-002 +6.92761614919E-002 
+7.01000000000E+009 -3.09921979904E-001 -5.02100586891E-001 +7.19672217965E-002 +1.80859323591E-002 +2.99095609080E-005 +1.09429975055E-005 +6.84704110026E-002 +6.29990026355E-002 
+7.21000000000E+009 -3.22554916143E-001 -5.02243518829E-001 +3.52902412415E-002 -5.74133135378E-002 +1.52914599312E-005 -2.83580156974E-005 +7.76472389698E-002 +5.44300861657E-002 
+7.41000000000E+009 -3.34482043982E-001 -5.02507030964E-001 -3.93472202122E-002 -4.60309870541E-002 +2.35762654484E-005 +1.52783759404E-005 +8.68182256818E-002 +4.42692898214E-002 
+7.61000000000E+009 -3.45727920532E-001 -5.02358555794E-001 -5.08774854243E-002 +1.98706574738E-002 +1.06854722617E-005 +1.09325819722E-005 +9.31559503078E-002 +3.21787782013E-002 
+7.81000000000E+009 -3.57319414616E-001 -5.01701235771E-001 +2.02786922455E-003 +4.91578094661E-002 +1.21410712381E-005 +8.34293928165E-007 +9.87087264657E-002 +1.98748223484E-002 
+8.01000000000E+009 -3.68025869131E-001 -5.00993907452E-001 +4.22601811588E-002 +1.30611639470E-002 +4.14318856201E-006 +1.90823411685E-005 +1.02279245853E-001 +6.10073050484E-003 
+8.21000000000E+009 -3.78628283739E-001 -5.00120341778E-001 +2.44538877159E-002 -3.09101492167E-002 +3.48562862200E-005 -3.42069542967E-005 +1.04439318180E-001 -8.07587988675E-003 
+8.41000000000E+009 -3.89043122530E-001 -4.98861759901E-001 -1.80283766240E-002 -3.07848211378E-002 +1.99600691531E-007 -2.29225970543E-005 +1.04002572596E-001 -2.32024155557E-002 
+8.61000000000E+009 -3.99285644293E-001 -4.97896105051E-001 -3.24079133570E-002 +5.01865334809E-003 +1.67160469573E-005 -1.05485414679E-005 +1.00706376135E-001 -3.86647991836E-002 
+8.81000000000E+009 -4.09100443125E-001 -4.96736198664E-001 -6.33485289291E-003 +2.94948089868E-002 -3.24399661622E-006 +1.81936832178E-006 +9.53364744782E-002 -5.42728155851E-002 
+9.01000000000E+009 -4.18707996607E-001 -4.95203882456E-001 +2.27020401508E-002 +1.52992475778E-002 -1.39518533615E-005 +8.77725597093E-006 +8.85263830423E-002 -6.80752694607E-002 
+9.21000000000E+009 -4.28039669991E-001 -4.93750989437E-001 +2.11119893938E-002 -1.41314649954E-002 +1.30970274768E-005 -9.01056955627E-006 +7.87001550198E-002 -8.29198360443E-002 
+9.41000000000E+009 -4.36801135540E-001 -4.92398947477E-001 -5.15728443861E-003 -2.28448621929E-002 +4.22898119723E-006 +1.70708481164E-005 +6.61400407553E-002 -9.65651571751E-002 
+9.61000000000E+009 -4.45594131947E-001 -4.90557253361E-001 -2.10439823568E-002 -3.76125890762E-003 -9.70464679995E-006 -5.07042313984E-005 +5.09071424603E-002 -1.08725160360E-001 
+9.81000000000E+009 -4.53791230917E-001 -4.89424079657E-001 -1.10023086891E-002 +1.68785210699E-002 -2.97667902487E-005 +1.15858338177E-005 +3.57638709247E-002 -1.18058174849E-001 
+1.00100000000E+010 -4.62252229452E-001 -4.87457960844E-001 +1.08408089727E-002 +1.52294924483E-002 +1.83575848496E-005 +6.51560469578E-007 +1.87746193260E-002 -1.25945553184E-001 
+1.02100000000E+010 -4.70160990953E-001 -4.85271096230E-001 +1.69540885836E-002 -3.53941763751E-003 -3.16774867315E-006 +2.01505226869E-005 +6.00200728513E-004 -1.32858693600E-001 
+1.04100000000E+010 -4.78099256754E-001 -4.83456671238E-001 +2.93710920960E-003 -1.62127614021E-002 +4.60706502281E-007 +1.34947913466E-006 -2.00471952558E-002 -1.38216823339E-001 
+1.06100000000E+010 -4.85713720322E-001 -4.81346935034E-001 -1.29865789786E-002 -8.27895291150E-003 -7.21491687727E-006 -1.07236037366E-005 -4.16675023735E-002 -1.40806525946E-001 
+1.08100000000E+010 -4.92257058620E-001 -4.79986548424E-001 -1.19136814028E-002 +8.27659200877E-003 -6.61188380491E-007 -3.61379934475E-005 -6.34840056300E-002 -1.40421003103E-001 
+1.10100000000E+010 -4.99243229628E-001 -4.77979034185E-001 +2.90588126518E-003 +1.34931234643E-002 +1.99509059939E-007 +1.81260293175E-006 -8.55576694012E-002 -1.36808395386E-001 
+1.12100000000E+010 -5.05660533905E-001 -4.76739406586E-001 +1.27597684041E-002 +2.20500654541E-003 +9.46236650634E-006 -1.14125141408E-005 -1.09376728535E-001 -1.30364298820E-001 
+1.14100000000E+010 -5.12451171875E-001 -4.74734961987E-001 +6.57775113359E-003 -1.01785017177E-002 +2.15463242057E-005 +1.35878854053E-005 -1.32392123342E-001 -1.20281979442E-001 
+1.16100000000E+010 -5.17870664597E-001 -4.73007351160E-001 -6.51598721743E-003 -9.55790560693E-003 +1.19235337479E-005 +1.96029523067E-005 -1.54247224331E-001 -1.06842055917E-001 
+1.18100000000E+010 -5.23742318153E-001 -4.71148103476E-001 -1.06201991439E-002 +2.40593287162E-003 -5.51601260668E-006 +1.03723129996E-006 -1.73929706216E-001 -9.00725126266E-002 
+1.20100000000E+010 -5.29751777649E-001 -4.68906313181E-001 -1.87077093869E-003 +1.00008128211E-002 +2.00489012059E-005 +6.75003821016E-006 -1.91027387977E-001 -7.05768018961E-002 
+1.22100000000E+010 -5.35662770271E-001 -4.66399192810E-001 +8.08038655668E-003 +5.37629285827E-003 +4.19079660787E-005 -1.98387078854E-005 -2.08396509290E-001 -4.86605465412E-002 
+1.24100000000E+010 -5.41157841682E-001 -4.64349359274E-001 +7.58214574307E-003 -5.27102313936E-003 -1.64588018379E-005 +8.54813777096E-007 -2.22904279828E-001 -2.34105233103E-002 
+1.26100000000E+010 -5.46602845192E-001 -4.62163060904E-001 -1.65907072369E-003 -8.40557832271E-003 -9.47959597397E-006 +7.26323776234E-007 -2.33276203275E-001 +4.28895466030E-003 
+1.28100000000E+010 -5.51871418953E-001 -4.59840863943E-001 -8.11077654362E-003 -1.71786127612E-003 -1.38916775541E-005 -1.42698181662E-005 -2.39538297057E-001 +3.34288068116E-002 
+1.30100000000E+010 -5.57080805302E-001 -4.56873536110E-001 -4.35219192877E-003 +6.50658924133E-003 +4.19957450504E-006 -5.86200803809E-006 -2.43246331811E-001 +6.33666217327E-002 
+1.32100000000E+010 -5.61990916729E-001 -4.54394996166E-001 +3.89580684714E-003 +6.19630515575E-003 +9.42932911130E-006 +1.80577762876E-006 -2.43578135967E-001 +9.49070006609E-002 
+1.34100000000E+010 -5.66972672939E-001 -4.51113700867E-001 +7.03633250669E-003 -1.15313730203E-003 +6.85499344399E-006 -3.23424028466E-005 -2.40056946874E-001 +1.26678973436E-001 
+1.36100000000E+010 -5.69911479950E-001 -4.48448091745E-001 +1.44840031862E-003 -6.51716673747E-003 +3.02446496789E-005 -8.16466763354E-006 -2.32292383909E-001 +1.59536883235E-001 
+1.38100000000E+010 -5.74888765812E-001 -4.46369737387E-001 -5.08095417172E-003 -3.77481780015E-003 -6.20607534074E-006 +1.25917849800E-005 -2.19147756696E-001 +1.91606476903E-001 
+1.40100000000E+010 -5.79766571522E-001 -4.43916469812E-001 -5.27833914384E-003 +3.07553540915E-003 +8.69546875037E-006 -2.19616254071E-006 -2.02431231737E-001 +2.22744852304E-001 
+1.42100000000E+010 -5.84308862686E-001 -4.41645950079E-001 +8.26528004836E-004 +5.67850936204E-003 -1.06376028270E-005 -2.63069910034E-006 -1.81950390339E-001 +2.54007875919E-001 
+1.44100000000E+010 -5.89093685150E-001 -4.38711285591E-001 +5.27132814750E-003 +1.52709090617E-003 -1.18155467135E-005 +2.66144925263E-005 -1.56192898750E-001 +2.82625287771E-001 
+1.46100000000E+010 -5.92793941498E-001 -4.36292618513E-001 +3.35431983694E-003 -4.14690608159E-003 -1.68346305145E-005 +2.30300847761E-005 -1.25476047397E-001 +3.08157980442E-001 
+1.48100000000E+010 -5.96596896648E-001 -4.31510537863E-001 -2.45539913885E-003 -4.36544604599E-003 -2.02647479455E-005 -5.79526249567E-006 -9.25162434578E-002 +3.30138891935E-001 
+1.50100000000E+010 -5.98325252533E-001 -4.30939853191E-001 -4.70631849021E-003 +3.80862271413E-004 +1.38235873237E-006 -1.90924129129E-005 -5.68598024547E-002 +3.49602729082E-001 
+1.52100000000E+010 -6.01325035095E-001 -4.30661201477E-001 -1.45592214540E-003 +4.38467273489E-003 +4.46045078206E-006 -1.14794574984E-005 -1.80114898831E-002 +3.64636152983E-001 
+1.54100000000E+010 -6.05118155479E-001 -4.28922146559E-001 +3.28738172539E-003 +2.83041526563E-003 -2.57817318925E-005 +1.01326177173E-005 +2.42676325142E-002 +3.74664574862E-001 
+1.56100000000E+010 -6.09084010124E-001 -4.25705760717E-001 +3.77156003378E-003 -1.77567580249E-003 -7.23188804841E-006 -8.77640923136E-006 +6.82186558843E-002 +3.78961533308E-001 
+1.58100000000E+010 -6.10506534576E-001 -4.25115615129E-001 -1.52853477630E-004 -4.06138319522E-003 +1.23522440845E-005 +5.29055796505E-005 +1.12190000713E-001 +3.79411756992E-001 
+1.60100000000E+010 -6.12989187241E-001 -4.23954308033E-001 -3.57760582119E-003 -1.32720929105E-003 -9.14800330065E-006 +1.10639675768E-005 +1.57437846065E-001 +3.74421685934E-001 
+1.62100000000E+010 -6.15417301655E-001 -4.22639369965E-001 -2.59124627337E-003 +2.58126249537E-003 -8.13293172541E-006 +2.09323079616E-005 +2.04918816686E-001 +3.64068895578E-001 
+1.64100000000E+010 -6.17646753788E-001 -4.21216726303E-001 +1.38812221121E-003 +3.33794788457E-003 +3.64406696463E-006 -1.71212468558E-005 +2.51834899187E-001 +3.47906470299E-001 
+1.66100000000E+010 -6.21233820915E-001 -4.19647932053E-001 +3.41912521981E-003 +1.46734928421E-005 -3.47157288161E-006 +2.14866791026E-008 +2.95794159174E-001 +3.24287563562E-001 
+1.68100000000E+010 -6.24476194382E-001 -4.17264044285E-001 +1.38008152135E-003 -2.93051009066E-003 -1.19253963931E-005 -2.63953370450E-005 +3.39174032211E-001 +2.96866118908E-001 
+1.70100000000E+010 -6.26329004765E-001 -4.15381371975E-001 -2.12383363396E-003 -2.30479333550E-003 -1.27906523630E-005 +3.97376279579E-005 +3.79276931286E-001 +2.65559941530E-001 
+1.72100000000E+010 -6.28771424294E-001 -4.13326174021E-001 -2.79844296165E-003 +9.96037619188E-004 -1.41710797834E-005 -1.16648352559E-005 +4.16815131903E-001 +2.26946398616E-001 
+1.74100000000E+010 -6.31886661053E-001 -4.11462426186E-001 -2.15280000702E-004 +2.81479698606E-003 -1.94712411030E-005 +3.52096758434E-005 +4.50238645077E-001 +1.84077605605E-001 
+1.76100000000E+010 -6.34590029716E-001 -4.09377276897E-001 +2.44661723264E-003 +1.29912723787E-003 +1.83153933904E-005 -3.46346587321E-006 +4.78087186813E-001 +1.37980446219E-001 
+1.78100000000E+010 -6.37503385544E-001 -4.07351613045E-001 +2.04459880479E-003 -1.63153128233E-003 +3.87759828300E-005 -3.82241705665E-005 +5.01673042774E-001 +8.91925618052E-002 
+1.80100000000E+010 -6.39924228191E-001 -4.05133426189E-001 -6.47008535452E-004 -2.46990867890E-003 -2.00986778509E-005 +6.75112460158E-006 +5.20943999290E-001 +3.79841700196E-002 
+1.82100000000E+010 -6.42646908760E-001 -4.03353840113E-001 -2.46848398820E-003 -3.43769206665E-004 +4.02255936933E-005 -5.83593100600E-006 +5.33603191376E-001 -1.66984181851E-002 
+1.84100000000E+010 -6.45335316658E-001 -4.01843488216E-001 -1.23322312720E-003 +2.04921932891E-003 +2.13902821997E-005 +3.54419262294E-006 +5.39772808552E-001 -7.40400478244E-002 
+1.86100000000E+010 -6.48326992989E-001 -3.99920880795E-001 +1.27144588623E-003 +1.89986778423E-003 -2.10912148759E-005 -2.17014348891E-005 +5.39986729622E-001 -1.30735695362E-001 
+1.88100000000E+010 -6.50664269924E-001 -3.97676438093E-001 +2.22384231165E-003 -4.89423284307E-004 -1.20095037346E-005 +8.66824848345E-006 +5.34144341946E-001 -1.87483504415E-001 
+1.90100000000E+010 -6.52446329594E-001 -3.96055638790E-001 +4.13157715229E-004 -2.05907970667E-003 -3.06326764985E-005 +3.43767205777E-005 +5.22485435009E-001 -2.43801191449E-001 
+1.92100000000E+010 -6.54802680016E-001 -3.95117878914E-001 -1.67554104701E-003 -1.21653405949E-003 +2.62015255430E-005 +2.63236233877E-006 +5.04411697388E-001 -3.01454842091E-001 
+1.94100000000E+010 -6.57576799393E-001 -3.92966985703E-001 -1.68161815964E-003 +1.07519561425E-003 +1.41683922266E-005 +3.52881829713E-006 +4.79089468718E-001 -3.56337040663E-001 
+1.96100000000E+010 -6.58459544182E-001 -3.90657365322E-001 +2.91909906082E-004 +1.87702791300E-003 +4.19985008193E-005 -2.39264081756E-005 +4.48350369930E-001 -4.08483177423E-001 
+1.98100000000E+010 -6.57770812511E-001 -3.87631863356E-001 +1.79115019273E-003 +4.85096708871E-004 +3.51215603587E-005 -4.23193014285E-005 +4.13512706757E-001 -4.56090927124E-001 
+2.00100000000E+010 -6.56440377235E-001 -3.87334555387E-001 +1.09814992175E-003 -1.40966637991E-003 +4.59528791907E-006 +2.22588710130E-006 +3.71730715036E-001 -5.02588987350E-001 
