!;Filter: kein Filter
!auto
!3/21/2019 9:25:24 AM
!3/21/2019 9:25:40 AM
!SP-Measurements Prober G4
!SP-Measurements Prober G4
!01103_448C
!134
!235
!12
!50
!-20
!0.00399976
!1.88
!0.54220246
!0.54220246
# Hz S  RI   R 50
+1.00000000000E+007 +2.18904212117E-001 +7.10132718086E-003 +5.51869273186E-002 -2.32340004295E-002 +6.84874656145E-004 -1.06695173599E-004 +5.04263304174E-003 +9.09761642106E-004 
+2.10000000000E+008 +2.40022435784E-001 -2.49214936048E-002 -2.27853213437E-003 -5.71942441165E-002 -6.49786888971E-005 +5.51288303541E-006 +8.73941462487E-003 -4.44952817634E-003 
+4.10000000000E+008 +2.41243436933E-001 -5.90046048164E-002 -5.37898540497E-002 -1.78973823786E-002 +2.68076128123E-005 +1.03742895590E-005 +1.02031221613E-002 -7.19917099923E-003 
+6.10000000000E+008 +2.38264039159E-001 -9.23833027482E-002 -3.47868949175E-002 +4.32367771864E-002 -2.83822046185E-005 -1.73400610493E-006 +9.74327139556E-003 -1.15153901279E-002 
+8.10000000000E+008 +2.31778293848E-001 -1.25002130866E-001 +2.76118516922E-002 +4.77289929986E-002 +8.29180498840E-006 +1.91893541341E-005 +6.98639359325E-003 -1.53059018776E-002 
+1.01000000000E+009 +2.23353952169E-001 -1.56107917428E-001 +5.47289624810E-002 -9.07261949033E-003 -1.80246263426E-006 -6.08486016063E-006 +2.82045267522E-003 -1.90259106457E-002 
+1.21000000000E+009 +2.12889358401E-001 -1.86324402690E-001 +1.06565495953E-002 -5.31020574272E-002 +6.31098328085E-006 -9.57521297096E-006 -1.72448065132E-003 -2.11461596191E-002 
+1.41000000000E+009 +2.00547650456E-001 -2.15490162373E-001 -4.55196015537E-002 -2.94217001647E-002 -1.50263331307E-005 -1.25694532471E-005 -7.50588718802E-003 -2.44969446212E-002 
+1.61000000000E+009 +1.87504380941E-001 -2.43336603045E-001 -4.39149923623E-002 +3.25478464365E-002 -5.78043500354E-006 -2.22972412303E-005 -1.37446876615E-002 -2.67564859241E-002 
+1.81000000000E+009 +1.72159045935E-001 -2.69614815712E-001 +1.46656101570E-002 +5.21695651114E-002 -2.68750318355E-005 +1.58637362802E-006 -1.76513064653E-002 -2.78190523386E-002 
+2.01000000000E+009 +1.56636938453E-001 -2.94715315104E-001 +5.40920086205E-002 +4.79527330026E-003 -1.54561530508E-005 -2.96063626593E-005 -2.32077594846E-002 -2.67588049173E-002 
+2.21000000000E+009 +1.39692381024E-001 -3.18673372269E-001 +2.31417175382E-002 -4.90056164563E-002 +3.07134905597E-005 -8.87009719008E-006 -2.88046430796E-002 -2.46123522520E-002 
+2.41000000000E+009 +1.21475726366E-001 -3.40631842613E-001 -3.69346886873E-002 -3.87500375509E-002 +2.30211608141E-005 +8.68564711709E-007 -3.54465022683E-002 -2.23674606532E-002 
+2.61000000000E+009 +1.02897480130E-001 -3.61139684916E-001 -4.91899400949E-002 +2.04918589443E-002 +5.29899625690E-006 +6.11039286014E-006 -4.07542623580E-002 -1.93530600518E-002 
+2.81000000000E+009 +8.37914943695E-002 -3.80206495523E-001 +1.67942524422E-003 +5.32692559063E-002 +1.24689449876E-005 -1.21215398394E-005 -4.46940734982E-002 -1.44332740456E-002 
+3.01000000000E+009 +6.40781298280E-002 -3.97451132536E-001 +4.97539043427E-002 +1.74659639597E-002 +2.24493051064E-005 +5.74432624489E-006 -4.85388785601E-002 -8.70677828789E-003 
+3.21000000000E+009 +4.44776341319E-002 -4.13578778505E-001 +3.46894823015E-002 -4.02995422482E-002 -1.39043040690E-005 +1.26314462250E-005 -5.24845570326E-002 -2.22026021220E-003 
+3.41000000000E+009 +2.49450225383E-002 -4.28450495005E-001 -2.57352776825E-002 -4.69826869667E-002 +9.18184741749E-006 -1.89009697351E-005 -5.53846172988E-002 +4.85303485766E-003 
+3.61000000000E+009 +5.24278590456E-003 -4.42052125931E-001 -5.25974631310E-002 +7.11039174348E-003 +1.20215772768E-005 +2.91705346172E-005 -5.72250075638E-002 +1.18339406326E-002 
+3.81000000000E+009 -1.45402140915E-002 -4.54279929399E-001 -1.25214504078E-002 +5.24268746376E-002 -9.55926134338E-006 -8.19505930849E-006 -5.70251457393E-002 +1.92043352872E-002 
+4.01000000000E+009 -3.38177680969E-002 -4.65716123581E-001 +4.47401553392E-002 +3.00717521459E-002 -1.28076760575E-006 +1.03922939161E-005 -5.60949593782E-002 +2.71315909922E-002 
+4.21000000000E+009 -5.32197020948E-002 -4.75727468729E-001 +4.42557968199E-002 -3.06958444417E-002 -2.37437488977E-005 +3.50509399141E-005 -5.41119091213E-002 +3.58548201621E-002 
+4.41000000000E+009 -7.21746906638E-002 -4.84818220139E-001 -1.26894796267E-002 -5.31267896295E-002 +2.25053208851E-005 -3.84999402741E-005 -5.10763116181E-002 +4.42338474095E-002 
+4.61000000000E+009 -9.08729583025E-002 -4.92992877960E-001 -5.51689602435E-002 -7.00856791809E-003 -1.18202376598E-006 +3.01338586723E-005 -4.68356870115E-002 +5.15332072973E-002 
+4.81000000000E+009 -1.09478808939E-001 -5.00392138958E-001 -2.66370158643E-002 +4.97721508145E-002 -6.01929514232E-007 -3.90515606341E-006 -4.02314849198E-002 +5.87597526610E-002 
+5.01000000000E+009 -1.27566501498E-001 -5.07366657257E-001 +3.82844321430E-002 +4.38886992633E-002 +6.70041117701E-006 -3.96109635403E-006 -3.36107201874E-002 +6.54000416398E-002 
+5.21000000000E+009 -1.45268023014E-001 -5.13661026955E-001 +5.58773502707E-002 -2.19580549747E-002 -6.16240959062E-006 +2.12040431506E-005 -2.61548329145E-002 +7.13817030191E-002 
+5.41000000000E+009 -1.62755474448E-001 -5.18815398216E-001 -1.50560971815E-003 -6.07457160950E-002 +1.41304508361E-005 +1.82206331374E-005 -1.73149257898E-002 +7.65194743872E-002 
+5.61000000000E+009 -1.80261373520E-001 -5.23735404015E-001 -6.03342987597E-002 -1.95559784770E-002 +3.30362604473E-006 -3.95209826820E-006 -7.55270523950E-003 +7.96955749393E-002 
+5.81000000000E+009 -1.97074711323E-001 -5.27682900429E-001 -3.83940041065E-002 +5.28414510190E-002 +2.01053790079E-005 -1.04580522020E-006 +3.00190993585E-003 +8.06460082531E-002 
+6.01000000000E+009 -2.13390171528E-001 -5.30664443970E-001 +3.78525815904E-002 +5.38095049560E-002 +8.65194033395E-006 -3.46694760083E-005 +1.41870640218E-002 +8.25423225760E-002 
+6.21000000000E+009 -2.29583755136E-001 -5.33297479153E-001 +6.51114881039E-002 -2.04349160194E-002 +4.17182081947E-006 +2.24057521336E-006 +2.49769687653E-002 +8.20248126984E-002 
+6.41000000000E+009 -2.45111972094E-001 -5.35235226154E-001 -1.52490218170E-003 -6.91727995872E-002 +3.36706443704E-006 +1.02578019323E-006 +3.65175306797E-002 +8.01532343030E-002 
+6.61000000000E+009 -2.60648518801E-001 -5.36620199680E-001 -6.52741417289E-002 -1.96134727448E-002 -8.35566970636E-006 +6.19501042820E-006 +4.77274656296E-002 +7.51256421208E-002 
+6.81000000000E+009 -2.75767236948E-001 -5.37611961365E-001 -3.73038314283E-002 +5.79600110650E-002 +2.36223349930E-005 -1.21587318063E-005 +5.85405677557E-002 +6.92723095417E-002 
+7.01000000000E+009 -2.90270388126E-001 -5.38088679314E-001 +4.45367023349E-002 +5.01629449427E-002 -2.14681658690E-005 +9.17836769077E-006 +6.85181319714E-002 +6.29822537303E-002 
+7.21000000000E+009 -3.04339081049E-001 -5.37885010242E-001 +5.87796419859E-002 -2.65736412257E-002 +2.70161926892E-005 -9.29594079935E-006 +7.76811614633E-002 +5.44585958123E-002 
+7.41000000000E+009 -3.17724168301E-001 -5.37780582905E-001 -9.01430565864E-003 -6.19900003076E-002 +1.30687412820E-005 +2.39619794229E-006 +8.68602544069E-002 +4.42626141012E-002 
+7.61000000000E+009 -3.30253452063E-001 -5.36897301674E-001 -5.79539351165E-002 -8.05306341499E-003 -4.31749649579E-005 -1.03223219412E-005 +9.32050645351E-002 +3.21887545288E-002 
+7.81000000000E+009 -3.43046337366E-001 -5.35595238209E-001 -2.39104125649E-002 +4.91339974105E-002 -6.49856019663E-006 +2.87853708869E-007 +9.87203270197E-002 +1.98482479900E-002 
+8.01000000000E+009 -3.54779213667E-001 -5.34185886383E-001 +3.75081077218E-002 +3.50168235600E-002 +2.62511621258E-005 +7.14837278792E-006 +1.02280348539E-001 +6.08912343159E-003 
+8.21000000000E+009 -3.66331547499E-001 -5.32502532005E-001 +4.10320758820E-002 -2.27686669677E-002 -1.64058383234E-005 +8.31487614050E-006 +1.04504108429E-001 -8.15673079342E-003 
+8.41000000000E+009 -3.77569317818E-001 -5.30486643314E-001 -7.42469914258E-003 -4.27256189287E-002 -7.74347540755E-007 +2.22087201109E-005 +1.04045227170E-001 -2.32831202447E-002 
+8.61000000000E+009 -3.88550460339E-001 -5.28753697872E-001 -3.96781899035E-002 -5.84149220958E-003 -8.61797616380E-006 +2.98057875625E-005 +1.00753620267E-001 -3.87156531215E-002 
+8.81000000000E+009 -3.98974716663E-001 -5.26894867420E-001 -1.65730584413E-002 +3.23936790228E-002 +2.00669455808E-005 +8.06372327133E-007 +9.53275263309E-002 -5.43192252517E-002 
+9.01000000000E+009 -4.09184128046E-001 -5.24698615074E-001 +2.24642641842E-002 +2.41840127856E-002 -5.58065175937E-006 +1.01275809357E-005 +8.85600969195E-002 -6.81437551975E-002 
+9.21000000000E+009 -4.19082850218E-001 -5.22572994232E-001 +2.77657993138E-002 -1.13447969779E-002 +1.17402978503E-005 +1.19762371469E-005 +7.86943361163E-002 -8.30015689135E-002 
+9.41000000000E+009 -4.28313076496E-001 -5.20498692989E-001 -8.79776955117E-004 -2.73628421128E-002 +2.11836577364E-005 +4.14461692344E-006 +6.60797581077E-002 -9.66014713049E-002 
+9.61000000000E+009 -4.37549024820E-001 -5.18009781837E-001 -2.31097191572E-002 -8.51645506918E-003 -1.28213656581E-007 -1.63185050042E-005 +5.09510487318E-002 -1.08824282885E-001 
+9.81000000000E+009 -4.46184694767E-001 -5.16216456890E-001 -1.56838893890E-002 +1.70366466045E-002 +9.80633012659E-006 +1.63999266078E-006 +3.57316248119E-002 -1.18175037205E-001 
+1.00100000000E+010 -4.55129504204E-001 -5.13703107834E-001 +9.24508087337E-003 +1.91595535725E-002 +7.77930472395E-006 -2.27474520216E-005 +1.87179073691E-002 -1.25972837210E-001 
+1.02100000000E+010 -4.63321000338E-001 -5.10858297348E-001 +1.98725815862E-002 -1.11348379869E-003 +2.10924354178E-005 +3.36224438797E-005 +4.77937603137E-004 -1.32883951068E-001 
+1.04100000000E+010 -4.71492201090E-001 -5.08508741856E-001 +5.98553894088E-003 -1.77700240165E-002 -3.37956726071E-006 +1.41327313941E-006 -2.01071090996E-002 -1.38261452317E-001 
+1.06100000000E+010 -4.79401171207E-001 -5.05873739719E-001 -1.34357744828E-002 -1.13312900066E-002 +3.40300675816E-006 -8.24240123620E-006 -4.17631790042E-002 -1.40871629119E-001 
+1.08100000000E+010 -4.86226975918E-001 -5.03969311714E-001 -1.44578162581E-002 +7.63495871797E-003 -3.16471823680E-006 -1.17947001854E-005 -6.35820403695E-002 -1.40491560102E-001 
+1.10100000000E+010 -4.93527412415E-001 -5.01405835152E-001 +1.56054261606E-003 +1.53611060232E-002 -9.25339736568E-006 +7.71282543610E-007 -8.56163650751E-002 -1.36826619506E-001 
+1.12100000000E+010 -5.00171840191E-001 -4.99706953764E-001 +1.37874921784E-002 +3.89065383933E-003 +1.26573886519E-005 -1.25519418361E-005 -1.09470315278E-001 -1.30364552140E-001 
+1.14100000000E+010 -5.07149755955E-001 -4.97188836336E-001 +8.35101492703E-003 -1.04126129299E-002 -1.13290307127E-005 -8.35699029267E-006 -1.32477626204E-001 -1.20242670178E-001 
+1.16100000000E+010 -5.12726962566E-001 -4.94958460331E-001 -6.08308007941E-003 -1.11433202401E-002 -7.48207276047E-006 -2.18790737563E-005 -1.54333665967E-001 -1.06829248369E-001 
+1.18100000000E+010 -5.18730759621E-001 -4.92704927921E-001 -1.18389287964E-002 +1.43094698433E-003 -1.39844269142E-005 -7.74239106249E-006 -1.73986151814E-001 -9.00096073747E-002 
+1.20100000000E+010 -5.24825036526E-001 -4.90007549524E-001 -3.17006465048E-003 +1.07159093022E-002 -2.46907748078E-005 +3.57461112799E-006 -1.91084027290E-001 -7.04971551895E-002 
+1.22100000000E+010 -5.30996799469E-001 -4.87060517073E-001 +8.31461604685E-003 +6.69023394585E-003 +2.45086212090E-005 +4.82597670270E-006 -2.08455979824E-001 -4.85999695957E-002 
+1.24100000000E+010 -5.36618769169E-001 -4.84550297260E-001 +8.73014144599E-003 -4.90430369973E-003 +1.50157902681E-005 +7.10848553354E-006 -2.22987815738E-001 -2.32836473733E-002 
+1.26100000000E+010 -5.42179822922E-001 -4.81919378042E-001 -9.85495396890E-004 -9.38613340259E-003 +4.97901191920E-006 +8.31928718981E-006 -2.33365267515E-001 +4.37485473230E-003 
+1.28100000000E+010 -5.47477364540E-001 -4.79186028242E-001 -8.70403181762E-003 -2.53800093196E-003 +2.75414931821E-005 +6.19050695150E-007 -2.39624679089E-001 +3.35188880563E-002 
+1.30100000000E+010 -5.52835345268E-001 -4.75807070732E-001 -5.25222998112E-003 +6.65461039171E-003 -6.02249519943E-006 -4.49323088105E-005 -2.43330582976E-001 +6.34386390448E-002 
+1.32100000000E+010 -5.57734370232E-001 -4.72855746746E-001 +3.75121645629E-003 +7.10318470374E-003 -2.84180350718E-005 +2.69763204415E-005 -2.43595883250E-001 +9.50304269791E-002 
+1.34100000000E+010 -5.62693476677E-001 -4.69191044569E-001 +7.68835423514E-003 -7.23005563486E-004 +2.07503926504E-005 +6.79178901919E-006 -2.40057140589E-001 +1.26789152622E-001 
+1.36100000000E+010 -5.65766692162E-001 -4.66121077538E-001 +2.05942592584E-003 -6.90862862393E-003 +7.37299296816E-006 +1.08595952497E-006 -2.32221245766E-001 +1.59656748176E-001 
+1.38100000000E+010 -5.70794999599E-001 -4.63762879372E-001 -5.23625267670E-003 -4.48198104277E-003 +2.51458664025E-006 +7.55588780521E-006 -2.19094678760E-001 +1.91738411784E-001 
+1.40100000000E+010 -5.75709581375E-001 -4.60948377848E-001 -5.89383952320E-003 +3.03335883655E-003 -1.72564671175E-006 +3.37848287018E-005 -2.02385574579E-001 +2.22849160433E-001 
+1.42100000000E+010 -5.80190896988E-001 -4.58370506763E-001 +5.04654482938E-004 +6.18909671903E-003 +1.40613428812E-005 -1.09383499876E-005 -1.81913584471E-001 +2.54105776548E-001 
+1.44100000000E+010 -5.84943175316E-001 -4.55065578222E-001 +5.57373091578E-003 +1.92180380691E-003 +1.36299495352E-005 +3.82265540111E-007 -1.56115502119E-001 +2.82750040293E-001 
+1.46100000000E+010 -5.88646948338E-001 -4.52296793461E-001 +3.78137151711E-003 -4.23040706664E-003 -2.38900374825E-005 -6.65177253723E-007 -1.25444114208E-001 +3.08313965797E-001 
+1.48100000000E+010 -5.92358887196E-001 -4.47197973728E-001 -2.33411090448E-003 -4.84878243878E-003 +1.30045609694E-005 -1.76773537532E-005 -9.24884453416E-002 +3.30324053764E-001 
+1.50100000000E+010 -5.94084799290E-001 -4.46385562420E-001 -5.08472556248E-003 +1.72681204276E-004 -1.73041848939E-006 -1.86282140930E-005 -5.67444451153E-002 +3.49752366543E-001 
+1.52100000000E+010 -5.97061932087E-001 -4.45795655251E-001 -1.72279216349E-003 +4.62646363303E-003 -1.67051111930E-005 -1.25019209918E-006 -1.78809780627E-002 +3.64752650261E-001 
+1.54100000000E+010 -6.00702881813E-001 -4.43886518478E-001 +3.41809657402E-003 +3.17875901237E-003 +5.42933139513E-006 -3.12306497108E-006 +2.44244318455E-002 +3.74743103981E-001 
+1.56100000000E+010 -6.04510247707E-001 -4.40446913242E-001 +4.09156037495E-003 -1.76726444624E-003 +2.96687503578E-005 -9.11350161914E-006 +6.83791264892E-002 +3.78999590874E-001 
+1.58100000000E+010 -6.06025516987E-001 -4.39658641815E-001 -3.60383346560E-005 -4.31053992361E-003 -3.38488143825E-006 +1.96142468667E-006 +1.12335905433E-001 +3.79429966211E-001 
+1.60100000000E+010 -6.08420312405E-001 -4.38233047724E-001 -3.76403681003E-003 -1.56295881607E-003 +2.03289673664E-005 -4.25229791290E-006 +1.57576441765E-001 +3.74427199364E-001 
+1.62100000000E+010 -6.10841691494E-001 -4.36754733324E-001 -2.79171438888E-003 +2.70551443100E-003 +3.17122908200E-006 +8.97403515410E-006 +2.05103546381E-001 +3.64079862833E-001 
+1.64100000000E+010 -6.12910091877E-001 -4.35174256563E-001 +1.31322781090E-003 +3.49748879671E-003 -2.39620158027E-006 +1.06825827970E-005 +2.52020567656E-001 +3.47866892815E-001 
+1.66100000000E+010 -6.16469562054E-001 -4.33492660522E-001 +3.56720667332E-003 +1.17353345559E-004 +7.27039650883E-006 +2.54263195529E-005 +2.95968830585E-001 +3.24235856533E-001 
+1.68100000000E+010 -6.19708657265E-001 -4.31060373783E-001 +1.46576191764E-003 -3.07253538631E-003 -9.25627887227E-007 +1.27530902319E-005 +3.39329272509E-001 +2.96807289124E-001 
+1.70100000000E+010 -6.21612429619E-001 -4.28906649351E-001 -2.15757847764E-003 -2.46832240373E-003 -7.14374209565E-006 -3.15282159136E-006 +3.79453808069E-001 +2.65409618616E-001 
+1.72100000000E+010 -6.24000191689E-001 -4.26733106375E-001 -2.96511943452E-003 +9.66652296484E-004 -3.40496626450E-005 -1.05159133454E-005 +4.17005449533E-001 +2.26814210415E-001 
+1.74100000000E+010 -6.27057909966E-001 -4.24785524607E-001 -2.80203035800E-004 +2.98806536011E-003 +1.68113347172E-005 +2.00708873308E-005 +4.50379371643E-001 +1.83998212218E-001 
+1.76100000000E+010 -6.29768192768E-001 -4.22569870949E-001 +2.56828102283E-003 +1.36522366665E-003 +1.94881413336E-005 -1.92113948287E-005 +4.78265196085E-001 +1.37874767184E-001 
+1.78100000000E+010 -6.32613599300E-001 -4.20457869768E-001 +2.20235995948E-003 -1.71425309964E-003 +1.27128396343E-005 +5.71179361941E-006 +5.01792550087E-001 +8.90083685517E-002 
+1.80100000000E+010 -6.34995222092E-001 -4.18141454458E-001 -6.55660755001E-004 -2.57490342483E-003 -1.47358459799E-005 -9.47185526456E-006 +5.21070003510E-001 +3.78217101097E-002 
+1.82100000000E+010 -6.37684822083E-001 -4.16320443153E-001 -2.56855948828E-003 -3.85234161513E-004 +4.38753559138E-005 +2.02398769034E-005 +5.33698379993E-001 -1.68603602797E-002 
+1.84100000000E+010 -6.40349149704E-001 -4.14757132530E-001 -1.26659288071E-003 +2.06258986145E-003 +1.66608861036E-005 +8.48769559525E-006 +5.39841771126E-001 -7.42628648877E-002 
+1.86100000000E+010 -6.43266558647E-001 -4.12774950266E-001 +1.30548526067E-003 +1.95189844817E-003 -9.91343040369E-006 -2.98044014926E-005 +5.39999306202E-001 -1.31007343531E-001 
+1.88100000000E+010 -6.45704507828E-001 -4.10362541676E-001 +2.22851708531E-003 -4.43102384452E-004 +1.46684737956E-006 -1.87931182154E-005 +5.34046351910E-001 -1.87687590718E-001 
+1.90100000000E+010 -6.47374212742E-001 -4.08608734608E-001 +4.68717305921E-004 -2.12808838114E-003 +1.28806823341E-006 -2.91866253974E-005 +5.22387981415E-001 -2.44006231427E-001 
+1.92100000000E+010 -6.49675309658E-001 -4.07577186823E-001 -1.69735238887E-003 -1.19036831893E-003 +2.28515764320E-005 -9.99273834168E-006 +5.04294812679E-001 -3.01635950804E-001 
+1.94100000000E+010 -6.52290046215E-001 -4.05656427145E-001 -1.70273217373E-003 +1.09283998609E-003 +6.29031137578E-006 +7.22971890355E-006 +4.79055911303E-001 -3.56453537941E-001 
+1.96100000000E+010 -6.53250634670E-001 -4.03409510851E-001 +3.02870728774E-004 +1.90327630844E-003 +1.22295605252E-005 +3.77955147997E-005 +4.48298126459E-001 -4.08664196730E-001 
+1.98100000000E+010 -6.52732551098E-001 -4.00579303503E-001 +1.79890170693E-003 +5.46150724404E-004 -4.19755415351E-005 +2.65995240625E-005 +4.13426876068E-001 -4.56332534552E-001 
+2.00100000000E+010 -6.51969790459E-001 -3.99846911430E-001 +1.16290652659E-003 -1.40458880924E-003 -3.70054549421E-005 +3.70096458937E-005 +3.71581137180E-001 -5.02780973911E-001 
