!;Filter: kein Filter
!auto
!3/21/2019 9:27:07 AM
!3/21/2019 9:27:22 AM
!SP-Measurements Prober G4
!SP-Measurements Prober G4
!01103_448C
!134
!237
!12
!50
!-20
!0.00299959
!1.83
!0.38139174
!0.38139174
# Hz S  RI   R 50
+1.00000000000E+007 +1.98105886579E-001 +1.05926841497E-002 +6.56940266490E-002 -2.67565511167E-002 -5.10226236656E-004 -3.82697035093E-004 +4.68071037903E-003 +1.15628098138E-003 
+2.10000000000E+008 +2.12646439672E-001 -2.82909907401E-002 -2.21769209020E-003 -6.88189119101E-002 -2.33120026678E-005 +8.47216233524E-006 +8.79349000752E-003 -4.54598432407E-003 
+4.10000000000E+008 +2.11410373449E-001 -6.07340298593E-002 -6.48969635367E-002 -2.19917502254E-002 -2.17692086153E-005 -1.81860577868E-005 +1.01812137291E-002 -7.20925536007E-003 
+6.10000000000E+008 +2.07537576556E-001 -9.23979207873E-002 -4.28210794926E-002 +5.27625419199E-002 -1.72010568349E-005 -9.37701497605E-006 +9.76351648569E-003 -1.15336738527E-002 
+8.10000000000E+008 +2.00796127319E-001 -1.23375944793E-001 +3.41626442969E-002 +5.86789622903E-002 -1.43182132888E-005 -2.59426701632E-006 +7.02246744186E-003 -1.53499236330E-002 
+1.01000000000E+009 +1.92998364568E-001 -1.52743637562E-001 +6.78511857986E-002 -1.18145057932E-002 -1.83342417586E-005 +4.59481498183E-006 +2.85166525282E-003 -1.90494898707E-002 
+1.21000000000E+009 +1.82733625174E-001 -1.81885287166E-001 +1.28325521946E-002 -6.69222995639E-002 -8.74803117767E-006 +4.56340814026E-007 -1.74005993176E-003 -2.11551468819E-002 
+1.41000000000E+009 +1.71017050743E-001 -2.10551366210E-001 -5.84522038698E-002 -3.48954610527E-002 +2.44040838879E-005 -7.46023670217E-006 -7.47379940003E-003 -2.45553962886E-002 
+1.61000000000E+009 +1.58284097910E-001 -2.38000616431E-001 -5.28206713498E-002 +4.29093129933E-002 -4.27414397564E-006 -1.33059611471E-005 -1.37272002175E-002 -2.67766788602E-002 
+1.81000000000E+009 +1.43017709255E-001 -2.63219356537E-001 +2.04364676028E-002 +6.43420815468E-002 -1.82883668458E-005 +1.94316689885E-005 -1.76333542913E-002 -2.78222132474E-002 
+2.01000000000E+009 +1.27423197031E-001 -2.87524431944E-001 +6.72655552626E-002 +4.05273027718E-003 +3.74184346583E-005 +9.13261465030E-006 -2.32210718095E-002 -2.67701391131E-002 
+2.21000000000E+009 +1.10666140914E-001 -3.10181856155E-001 +2.84582991153E-002 -6.18916526437E-002 +1.71367410076E-005 -1.42942699313E-005 -2.88340747356E-002 -2.46150083840E-002 
+2.41000000000E+009 +9.31534916162E-002 -3.30936819315E-001 -4.74619530141E-002 -4.95146252215E-002 +8.77414186107E-006 -6.53785946270E-006 -3.54690700769E-002 -2.23529040813E-002 
+2.61000000000E+009 +7.54761174321E-002 -3.50374102592E-001 -6.51087909937E-002 +2.68608704209E-002 -1.36173093779E-005 -1.49225415953E-005 -4.07873243093E-002 -1.93717796355E-002 
+2.81000000000E+009 +5.73384687304E-002 -3.68532359600E-001 +2.34291842207E-003 +7.22073167562E-002 +1.13391351988E-005 -6.04505330557E-005 -4.47064787149E-002 -1.44543452188E-002 
+3.01000000000E+009 +3.86694632471E-002 -3.85177999735E-001 +6.92736953497E-002 +2.42159236223E-002 +1.22408737298E-005 +7.09552978151E-007 -4.85716834664E-002 -8.74343048781E-003 
+3.21000000000E+009 +2.02183015645E-002 -4.00668501854E-001 +4.97676655650E-002 -5.86504265666E-002 -4.93108791488E-006 -1.25006054077E-005 -5.25109209120E-002 -2.21863039769E-003 
+3.41000000000E+009 +2.10562418215E-003 -4.15338009596E-001 -4.04811613262E-002 -7.00726658106E-002 -1.95522061404E-005 +1.75728146132E-005 -5.54369017482E-002 +4.86459303647E-003 
+3.61000000000E+009 -1.66005380452E-002 -4.28892582655E-001 -8.19476097822E-002 +1.43379112706E-002 -2.69647189270E-005 -4.80388371216E-006 -5.72374910116E-002 +1.18225198239E-002 
+3.81000000000E+009 -3.50357294083E-002 -4.41221803427E-001 -1.54255665839E-002 +8.79203826189E-002 +6.07185938861E-006 +2.44223556365E-005 -5.70745021105E-002 +1.92278008908E-002 
+4.01000000000E+009 -5.32530695200E-002 -4.53466802835E-001 +8.48671346903E-002 +4.38056774437E-002 +1.92002917174E-005 +1.38689747473E-005 -5.60885146260E-002 +2.71216705441E-002 
+4.21000000000E+009 -7.20338895917E-002 -4.64092254639E-001 +7.10726901889E-002 -6.91911876202E-002 -1.85936933121E-005 -1.83590836969E-005 -5.41715845466E-002 +3.58815677464E-002 
+4.41000000000E+009 -9.03063789010E-002 -4.74231392145E-001 -4.96226176620E-002 -9.62108299136E-002 +1.23039699247E-005 -5.04265017298E-006 -5.10258674622E-002 +4.42773029208E-002 
+4.61000000000E+009 -1.09251305461E-001 -4.84011471272E-001 -1.11868411303E-001 +2.74277944118E-002 +1.84572925832E-007 -3.53177551915E-006 -4.68958765268E-002 +5.15173859894E-002 
+4.81000000000E+009 -1.28597885370E-001 -4.92041796446E-001 -3.31515097059E-003 +1.18129685521E-001 -7.69323037275E-007 -5.62109698876E-006 -4.02625389397E-002 +5.87684847414E-002 
+5.01000000000E+009 -1.48065924644E-001 -4.99982923269E-001 +1.21481224895E-001 +2.84967217594E-002 +1.08289923446E-005 -3.52426832251E-005 -3.36515977979E-002 +6.53986632824E-002 
+5.21000000000E+009 -1.67879447341E-001 -5.05932986736E-001 +4.75954934955E-002 -1.12253487110E-001 -1.50723026309E-005 -3.36895118380E-006 -2.62021534145E-002 +7.14383572340E-002 
+5.41000000000E+009 -1.86420738697E-001 -5.09682357311E-001 -9.22175794840E-002 -6.91996440291E-002 -1.39956991916E-005 -1.03628726720E-005 -1.73677764833E-002 +7.65667483211E-002 
+5.61000000000E+009 -2.05055460334E-001 -5.12871801853E-001 -8.08368325233E-002 +7.38138556480E-002 +2.14481906369E-006 +3.54394387614E-006 -7.56987510249E-003 +7.97165781260E-002 
+5.81000000000E+009 -2.21725061536E-001 -5.14419794083E-001 +4.74904850125E-002 +8.35643187165E-002 -2.03336676350E-005 -5.04361992171E-007 +3.00154578872E-003 +8.06843563914E-002 
+6.01000000000E+009 -2.36966654658E-001 -5.15834093094E-001 +8.38281363249E-002 -1.86049826443E-002 -3.42098683177E-005 +9.25844324229E-006 +1.41983516514E-002 +8.26078429818E-002 
+6.21000000000E+009 -2.52128422260E-001 -5.16867995262E-001 +2.86982185207E-003 -7.66157582402E-002 -1.24630023493E-005 -1.86764063983E-005 +2.49830000103E-002 +8.20696502924E-002 
+6.41000000000E+009 -2.66012459993E-001 -5.17769038677E-001 -6.16241581738E-002 -2.17978786677E-002 -2.92719596473E-005 +1.26066543089E-005 +3.65202724934E-002 +8.01607370377E-002 
+6.61000000000E+009 -2.80030995607E-001 -5.18752217293E-001 -3.70379760861E-002 +4.49591018260E-002 -3.45119078702E-005 +1.73940543391E-006 +4.77315373719E-002 +7.51719325781E-002 
+6.81000000000E+009 -2.93666392565E-001 -5.19342720509E-001 +2.76814103127E-002 +4.37776185572E-002 +9.75694820227E-006 +1.16483852253E-006 +5.85684552789E-002 +6.93083405495E-002 
+7.01000000000E+009 -3.06603014469E-001 -5.19858419895E-001 +4.40122261643E-002 -9.50661674142E-003 +1.39693975143E-005 -1.56808946485E-005 +6.85530006886E-002 +6.30050078034E-002 
+7.21000000000E+009 -3.19458335638E-001 -5.20020604134E-001 +6.47122366354E-003 -4.01099435985E-002 +2.19302705773E-006 +1.01919076769E-005 +7.77253806591E-002 +5.44646307826E-002 
+7.41000000000E+009 -3.31787437201E-001 -5.20222663879E-001 -3.19742932916E-002 -1.79658029228E-002 -3.11666281050E-006 -1.72828458744E-005 +8.68828296661E-002 +4.42721880972E-002 
+7.61000000000E+009 -3.43396931887E-001 -5.19910871983E-001 -2.51370649785E-002 +2.07162965089E-002 -1.32755822051E-005 -1.44583759720E-006 +9.32448208332E-002 +3.21804583073E-002 
+7.81000000000E+009 -3.55507850647E-001 -5.19114553928E-001 +8.80462862551E-003 +2.83375438303E-002 -6.68011398375E-006 -2.32234992836E-006 +9.87910032272E-002 +1.98434535414E-002 
+8.01000000000E+009 -3.66656869650E-001 -5.18212258816E-001 +2.70756427199E-002 +1.88663299195E-003 +1.04541140900E-005 -9.52263872023E-006 +1.02345257998E-001 +6.08643144369E-003 
+8.21000000000E+009 -3.77770096064E-001 -5.17026305199E-001 +1.06572164223E-002 -2.19843070954E-002 -8.57202667248E-006 +4.52028416476E-006 +1.04504808784E-001 -8.16683191806E-003 
+8.41000000000E+009 -3.88535410166E-001 -5.15436291695E-001 -1.48482862860E-002 -1.69648639858E-002 +1.31824272103E-005 +9.38088032854E-006 +1.04103736579E-001 -2.32768580317E-002 
+8.61000000000E+009 -3.99127572775E-001 -5.14133036137E-001 -1.98509674519E-002 +6.92546507344E-003 +8.88631257112E-006 -6.45416548650E-006 +1.00788868964E-001 -3.87477986515E-002 
+8.81000000000E+009 -4.09287869930E-001 -5.12634813786E-001 -9.00387938600E-004 +1.91833376884E-002 +3.98674092139E-006 +1.31853266794E-005 +9.53681990504E-002 -5.43547347188E-002 
+9.01000000000E+009 -4.19202089310E-001 -5.10832607746E-001 +1.61059834063E-002 +7.70082511008E-003 -9.53002381721E-006 +2.57568935922E-005 +8.85964408517E-002 -6.81640729308E-002 
+9.21000000000E+009 -4.28867757320E-001 -5.08979260921E-001 +1.23555231839E-002 -1.13577283919E-002 -2.62242224380E-006 +4.69098768008E-006 +7.87559524179E-002 -8.30335021019E-002 
+9.41000000000E+009 -4.37881469727E-001 -5.07249951363E-001 -5.48137258738E-003 -1.44528551027E-002 -9.16783506000E-007 -1.35595282700E-005 +6.61742314696E-002 -9.66660603881E-002 
+9.61000000000E+009 -4.46872770786E-001 -5.05027770996E-001 -1.43639920279E-002 -5.88931725360E-004 +1.27284847622E-005 +4.54244855064E-006 +5.09643480182E-002 -1.08833946288E-001 
+9.81000000000E+009 -4.55314934254E-001 -5.03507852554E-001 -5.66770462319E-003 +1.22814979404E-002 -1.46755028254E-005 -2.63016463578E-005 +3.57240699232E-002 -1.18228480220E-001 
+1.00100000000E+010 -4.64074075222E-001 -5.01274168491E-001 +8.56057181954E-003 +9.18514840305E-003 +1.23493282445E-006 -1.32233872137E-005 +1.87301430851E-002 -1.26096203923E-001 
+1.02100000000E+010 -4.72091495991E-001 -4.98772650957E-001 +1.10208243132E-002 -3.96129908040E-003 -8.65905712999E-006 +2.78587613138E-005 +5.32751204446E-004 -1.32978379726E-001 
+1.04100000000E+010 -4.80156660080E-001 -4.96594190598E-001 +5.19961875398E-004 -1.10853677616E-002 +3.02975786326E-005 +2.56858993453E-006 -2.01368536800E-002 -1.38344854116E-001 
+1.06100000000E+010 -4.87946242094E-001 -4.94157016277E-001 -9.39422473311E-003 -4.33733779937E-003 +2.38287939283E-005 -1.78973925813E-006 -4.17617112398E-002 -1.40933364630E-001 
+1.08100000000E+010 -4.94626104832E-001 -4.92501020432E-001 -7.20849446952E-003 +6.45431131124E-003 +1.39775484058E-005 -2.23324022954E-005 -6.35799616575E-002 -1.40512794256E-001 
+1.10100000000E+010 -5.01801908016E-001 -4.90140825510E-001 +2.98209860921E-003 +8.74432548881E-003 -9.51705487751E-008 +3.24576171806E-006 -8.56695771217E-002 -1.36892691255E-001 
+1.12100000000E+010 -5.08310616016E-001 -4.88601297140E-001 +8.62500257790E-003 +5.05535397679E-004 -1.92737898033E-005 +1.97839835892E-005 -1.09512351453E-001 -1.30463406444E-001 
+1.14100000000E+010 -5.15218734741E-001 -4.86352026463E-001 +3.66501323879E-003 -7.19950534403E-003 -4.92580420541E-006 -1.90279606613E-005 -1.32549867034E-001 -1.20321892202E-001 
+1.16100000000E+010 -5.20693480968E-001 -4.84305262566E-001 -5.02836797386E-003 -5.94693515450E-003 +8.82802487467E-006 -7.50490426071E-006 -1.54387950897E-001 -1.06888815761E-001 
+1.18100000000E+010 -5.26682496071E-001 -4.82225358486E-001 -6.92699989304E-003 +2.24260636605E-003 +1.16785986393E-006 +9.58990426625E-007 -1.74100816250E-001 -9.00339335203E-002 
+1.20100000000E+010 -5.32735586166E-001 -4.79695916176E-001 -6.63008657284E-004 +6.79967273027E-003 +2.22290509555E-006 -3.14380986310E-006 -1.91170394421E-001 -7.05312415957E-002 
+1.22100000000E+010 -5.38781821728E-001 -4.76810753345E-001 +5.81271573901E-003 +3.16896894947E-003 +1.43198412843E-005 -4.40826943304E-006 -2.08576545119E-001 -4.86190654337E-002 
+1.24100000000E+010 -5.44336616993E-001 -4.74519610405E-001 +4.83694346622E-003 -3.89861850999E-003 +1.26202758111E-005 +3.07820737362E-005 -2.23091289401E-001 -2.33305525035E-002 
+1.26100000000E+010 -5.49842357635E-001 -4.72148060799E-001 -1.51033594739E-003 -5.67495403811E-003 +2.54286569543E-005 -1.15851153168E-005 -2.33437776566E-001 +4.39819134772E-003 
+1.28100000000E+010 -5.55196404457E-001 -4.69585388899E-001 -5.59878489003E-003 -7.81450245995E-004 -1.78044756467E-005 -1.97830304387E-005 -2.39700347185E-001 +3.35020311177E-002 
+1.30100000000E+010 -5.60505270958E-001 -4.66419756413E-001 -2.68266606145E-003 +4.60897432640E-003 -1.69482973433E-005 +1.32326240418E-005 -2.43419140577E-001 +6.35290145874E-002 
+1.32100000000E+010 -5.65410494804E-001 -4.63629215956E-001 +2.94784200378E-003 +4.09203348681E-003 -3.42089515470E-005 +5.32398298674E-005 -2.43697270751E-001 +9.50944200158E-002 
+1.34100000000E+010 -5.70424079895E-001 -4.60065305233E-001 +4.77102352306E-003 -1.09434034675E-003 +2.30643818213E-005 -3.73548186872E-006 -2.40139275789E-001 +1.26827359200E-001 
+1.36100000000E+010 -5.73420703411E-001 -4.57189381123E-001 +7.02642602846E-004 -4.52580116689E-003 +3.29050126311E-005 +5.29934459337E-006 -2.32311353087E-001 +1.59671902657E-001 
+1.38100000000E+010 -5.78410208225E-001 -4.54943805933E-001 -3.61177395098E-003 -2.41638207808E-003 +3.43369429174E-005 -8.35080481920E-006 -2.19204097986E-001 +1.91801324487E-001 
+1.40100000000E+010 -5.83359777927E-001 -4.52290147543E-001 -3.53706139140E-003 +2.35053454526E-003 +1.27417852127E-005 -7.95544929133E-006 -2.02434465289E-001 +2.22932055593E-001 
+1.42100000000E+010 -5.87937057018E-001 -4.49844479561E-001 +7.92371283751E-004 +3.93919227645E-003 +1.35249920277E-005 -1.80936440302E-005 -1.81906566024E-001 +2.54221409559E-001 
+1.44100000000E+010 -5.92729032040E-001 -4.46650683880E-001 +3.69433616288E-003 +8.48940981086E-004 +1.10376822704E-006 -3.12107749778E-006 -1.56137272716E-001 +2.82869219780E-001 
+1.46100000000E+010 -5.96430540085E-001 -4.44009363651E-001 +2.16885562986E-003 -2.98163946718E-003 +3.09184651996E-005 -2.44521525019E-005 -1.25414192677E-001 +3.08368742466E-001 
+1.48100000000E+010 -6.00213468075E-001 -4.39030468464E-001 -1.82792893611E-003 -2.94717983343E-003 +3.02677744912E-005 -2.08676392504E-005 -9.24413204193E-002 +3.30390512943E-001 
+1.50100000000E+010 -6.01930737495E-001 -4.38322484493E-001 -3.27685172670E-003 +4.05251455959E-004 +1.38605273605E-005 +3.95192873839E-005 -5.67825324833E-002 +3.49759101868E-001 
+1.52100000000E+010 -6.04959666729E-001 -4.37841832638E-001 -8.57900711708E-004 +3.09456605464E-003 +1.49749530465E-005 -2.10779780900E-005 -1.78963951766E-002 +3.64801585674E-001 
+1.54100000000E+010 -6.08689665794E-001 -4.35947179794E-001 +2.40598991513E-003 +1.86225865036E-003 -1.44435289258E-005 +1.00319639387E-005 +2.44253259152E-002 +3.74774217606E-001 
+1.56100000000E+010 -6.12661182880E-001 -4.32551205158E-001 +2.57129454985E-003 -1.35797832627E-003 +2.43630347541E-005 -2.05051264857E-006 +6.84472024441E-002 +3.79093378782E-001 
+1.58100000000E+010 -6.14138245583E-001 -4.31794434786E-001 -2.15842708712E-004 -2.83402134664E-003 +1.74520901055E-005 -8.91610761755E-006 +1.12398527563E-001 +3.79486083984E-001 
+1.60100000000E+010 -6.16599559784E-001 -4.30490285158E-001 -2.52301897854E-003 -8.55036312714E-004 -1.08192361949E-005 +6.25808252153E-006 +1.57660782337E-001 +3.74462008476E-001 
+1.62100000000E+010 -6.18981420994E-001 -4.29008066654E-001 -1.74805091228E-003 +1.88632588834E-003 +8.71367592481E-006 +1.08575513877E-005 +2.05159544945E-001 +3.64094108343E-001 
+1.64100000000E+010 -6.21172726154E-001 -4.27491933107E-001 +1.05625169817E-003 +2.29338835925E-003 +1.69143477251E-005 +6.18493686488E-007 +2.52083003521E-001 +3.47901582718E-001 
+1.66100000000E+010 -6.24763667583E-001 -4.25732910633E-001 +2.41214735433E-003 -6.22717561782E-005 +1.88090889424E-005 +2.59227203969E-006 +2.96072363853E-001 +3.24269950390E-001 
+1.68100000000E+010 -6.27965450287E-001 -4.23245072365E-001 +8.71028692927E-004 -2.10798298940E-003 +1.41993075431E-006 -7.01512453816E-006 +3.39377224445E-001 +2.96785444021E-001 
+1.70100000000E+010 -6.29868388176E-001 -4.21156615019E-001 -1.54793204274E-003 -1.59007764887E-003 +1.28837109514E-005 +1.45827661981E-005 +3.79501223564E-001 +2.65428960323E-001 
+1.72100000000E+010 -6.32336497307E-001 -4.19022232294E-001 -1.94449652918E-003 +7.71702383645E-004 -1.32458853841E-005 -4.73029504064E-005 +4.17089372873E-001 +2.26740062237E-001 
+1.74100000000E+010 -6.35397374630E-001 -4.17010396719E-001 -8.18416592665E-005 +2.01670522802E-003 +7.96426957095E-006 -3.47676286765E-005 +4.50497597456E-001 +1.83944255114E-001 
+1.76100000000E+010 -6.38095080853E-001 -4.14808601141E-001 +1.79185485467E-003 +8.39928456116E-004 +4.88534215037E-006 +1.04659548015E-005 +4.78278458118E-001 +1.37809500098E-001 
+1.78100000000E+010 -6.40961527824E-001 -4.12636816502E-001 +1.38798484113E-003 -1.25616684090E-003 +2.27329522318E-007 +1.67637081177E-005 +5.01829624176E-001 +8.89347344637E-002 
+1.80100000000E+010 -6.43330395222E-001 -4.10333305597E-001 -4.62606694782E-004 -1.74598535523E-003 +2.48378164542E-005 +2.21481459448E-005 +5.21090924740E-001 +3.77429910004E-002 
+1.82100000000E+010 -6.46034300327E-001 -4.08390581608E-001 -1.72333000228E-003 -1.65934485267E-004 +1.40296624522E-005 -1.00924326034E-005 +5.33674120903E-001 -1.69745255262E-002 
+1.84100000000E+010 -6.48666620255E-001 -4.06807094812E-001 -7.80452508479E-004 +1.45089882426E-003 +3.39045291184E-005 +3.63584731531E-005 +5.39775133133E-001 -7.43145495653E-002 
+1.86100000000E+010 -6.51722073555E-001 -4.04793173075E-001 +9.61543759331E-004 +1.28571677487E-003 +1.77565198101E-005 -3.84433005820E-005 +5.39983272552E-001 -1.31003469229E-001 
+1.88100000000E+010 -6.54047548771E-001 -4.02444094419E-001 +1.51164969429E-003 -4.05519735068E-004 -3.08790149575E-005 +8.60830095917E-006 +5.34088134766E-001 -1.87782958150E-001 
+1.90100000000E+010 -6.55752897263E-001 -4.00637328625E-001 +2.48945376370E-004 -1.48405728396E-003 +1.14081342417E-006 -1.23183835967E-005 +5.22385239601E-001 -2.44108110666E-001 
+1.92100000000E+010 -6.58104300499E-001 -3.99568021297E-001 -1.21473753825E-003 -7.69479956944E-004 -4.76250970678E-005 -2.44092043431E-005 +5.04315197468E-001 -3.01655441523E-001 
+1.94100000000E+010 -6.60799503326E-001 -3.97346705198E-001 -1.17728463374E-003 +7.30502302758E-004 +5.04713352711E-005 -2.90840180242E-005 +4.78945702314E-001 -3.56530249119E-001 
+1.96100000000E+010 -6.61699354649E-001 -3.94868850708E-001 +2.76823062450E-004 +1.31522573065E-003 -3.78898803319E-005 -1.86942743312E-005 +4.48206216097E-001 -4.08695459366E-001 
+1.98100000000E+010 -6.61057770252E-001 -3.91781955957E-001 +1.23365712352E-003 +3.00955725834E-004 -5.44268402791E-007 +3.65522173524E-005 +4.13303792477E-001 -4.56263124943E-001 
+2.00100000000E+010 -6.59582555294E-001 -3.91325533390E-001 +7.26327241864E-004 -9.85414837487E-004 -2.59282496700E-005 -2.42612550210E-005 +3.71479421854E-001 -5.02786874771E-001 
