!;Filter: kein Filter
!auto
!3/21/2019 9:27:39 AM
!3/21/2019 9:27:53 AM
!SP-Measurements Prober G4
!SP-Measurements Prober G4
!01103_448C
!134
!235
!12
!50
!-20
!0.00499992
!1.96
!0.64375220
!0.64375220
# Hz S  RI   R 50
+1.00000000000E+007 +1.78179785609E-001 +7.03051872551E-003 +5.40749281645E-002 -2.01441552490E-002 +5.43833826669E-004 -9.13986470550E-004 +4.94279200211E-003 +6.49147143122E-004 
+2.10000000000E+008 +1.97638824582E-001 -2.11292598397E-002 -2.56160250865E-003 -5.59018887579E-002 -1.75413442776E-005 +5.55882179469E-005 +8.72855260968E-003 -4.38920268789E-003 
+4.10000000000E+008 +2.00446277857E-001 -5.21367043257E-002 -5.23171648383E-002 -1.68818850070E-002 -6.34429961792E-005 -2.99147886835E-005 +1.01305954158E-002 -7.19507224858E-003 
+6.10000000000E+008 +1.99071824551E-001 -8.30628275871E-002 -3.35034951568E-002 +4.24017421901E-002 -2.91472497338E-005 +7.92991413618E-005 +9.72932297736E-003 -1.15158166736E-002 
+8.10000000000E+008 +1.94133728743E-001 -1.13920494914E-001 +2.73175500333E-002 +4.59644868970E-002 +1.64193515957E-005 +1.05455801531E-005 +7.01419916004E-003 -1.52830043808E-002 
+1.01000000000E+009 +1.86916291714E-001 -1.43469884992E-001 +5.25117293000E-002 -9.21385083348E-003 -3.42438147527E-006 +4.70068789582E-006 +2.82450625673E-003 -1.90407186747E-002 
+1.21000000000E+009 +1.77999675274E-001 -1.71915203333E-001 +9.94098931551E-003 -5.14170899987E-002 +3.44690101883E-006 +2.00721569854E-005 -1.73943827394E-003 -2.11561433971E-002 
+1.41000000000E+009 +1.67051777244E-001 -1.99678048491E-001 -4.41700071096E-002 -2.76792086661E-002 -9.98789164441E-006 -1.01024825199E-005 -7.52018066123E-003 -2.45255213231E-002 
+1.61000000000E+009 +1.55331850052E-001 -2.26170897484E-001 -4.12518084049E-002 +3.13052162528E-002 -1.32447421493E-005 -2.84520274363E-006 -1.37520246208E-002 -2.67111100256E-002 
+1.81000000000E+009 +1.41629010439E-001 -2.51386314631E-001 +1.39405028895E-002 +4.95444163680E-002 +1.08694248411E-005 -6.84577088350E-008 -1.76700409502E-002 -2.78167314827E-002 
+2.01000000000E+009 +1.27520874143E-001 -2.75372862816E-001 +5.13644814491E-002 +4.75036073476E-003 +6.91990771884E-006 -2.84266461676E-005 -2.31975670904E-002 -2.67515350133E-002 
+2.21000000000E+009 +1.12071409822E-001 -2.98310995102E-001 +2.24311389029E-002 -4.63768020272E-002 -1.90869122889E-005 +8.47196406539E-006 -2.87985447794E-002 -2.45741959661E-002 
+2.41000000000E+009 +9.55132842064E-002 -3.19455176592E-001 -3.48483063281E-002 -3.73170077801E-002 +1.45726044138E-005 -1.12754250949E-005 -3.54040786624E-002 -2.23276130855E-002 
+2.61000000000E+009 +7.85838365555E-002 -3.39402943850E-001 -4.73458170891E-002 +1.92106924951E-002 -7.43786313251E-006 +5.27429756403E-006 -4.07379157841E-002 -1.93454269320E-002 
+2.81000000000E+009 +6.09718933702E-002 -3.57900917530E-001 +1.20198971126E-003 +5.08305169642E-002 -1.63626555150E-005 -1.14018257591E-005 -4.46833260357E-002 -1.44203919917E-002 
+3.01000000000E+009 +4.28267605603E-002 -3.74907225370E-001 +4.75407280028E-002 +1.72266196460E-002 -2.95569334412E-005 +9.82042365649E-006 -4.85010817647E-002 -8.67928937078E-003 
+3.21000000000E+009 +2.46583633125E-002 -3.90825092793E-001 +3.32685112953E-002 -3.83308380842E-002 -1.09503462227E-005 +1.21131442938E-005 -5.24380579591E-002 -2.18503898941E-003 
+3.41000000000E+009 +6.48591853678E-003 -4.05490040779E-001 -2.39942818880E-002 -4.46725897491E-002 +7.36779657018E-006 -5.58213378099E-006 -5.54128848016E-002 +4.83523262665E-003 
+3.61000000000E+009 -1.18070254102E-002 -4.19037669897E-001 -5.03158867359E-002 +6.20896881446E-003 +1.39477560879E-005 -2.18480890908E-005 -5.71851357818E-002 +1.18260225281E-002 
+3.81000000000E+009 -3.03794071078E-002 -4.31333601475E-001 -1.21147204190E-002 +4.97625581920E-002 -1.26166059999E-005 +1.33180974444E-005 -5.70264868438E-002 +1.92145761102E-002 
+4.01000000000E+009 -4.84710521996E-002 -4.42806959152E-001 +4.23795022070E-002 +2.87184622139E-002 -1.31266306198E-005 +1.71148815298E-006 -5.60118183494E-002 +2.71236076951E-002 
+4.21000000000E+009 -6.67218565941E-002 -4.53059017658E-001 +4.19870018959E-002 -2.93565168977E-002 +1.93946343643E-005 +1.63867389347E-005 -5.41067607701E-002 +3.58391553164E-002 
+4.41000000000E+009 -8.47184807062E-002 -4.62309390306E-001 -1.30825722590E-002 -5.00320307910E-002 +1.31450569825E-005 +4.28548264608E-006 -5.10028749704E-002 +4.42540943623E-002 
+4.61000000000E+009 -1.02457918227E-001 -4.70676779747E-001 -5.11153973639E-002 -5.08878473192E-003 +8.88100930752E-006 +1.61788029800E-005 -4.67968210578E-002 +5.14905415475E-002 
+4.81000000000E+009 -1.20155245066E-001 -4.78225529194E-001 -2.28654798120E-002 +4.59078252316E-002 +1.05837098090E-005 -9.96431390377E-006 -4.02425862849E-002 +5.87223097682E-002 
+5.01000000000E+009 -1.37360289693E-001 -4.85384732485E-001 +3.52057404816E-002 +3.75415794551E-002 -1.18435275454E-006 -2.09844911296E-005 -3.36054787040E-002 +6.53559491038E-002 
+5.21000000000E+009 -1.54206767678E-001 -4.91809159517E-001 +4.72756400704E-002 -1.93820912391E-002 -1.39415151352E-005 -7.54630991651E-006 -2.61787772179E-002 +7.13360309601E-002 
+5.41000000000E+009 -1.70796737075E-001 -4.97218072414E-001 -1.12612824887E-003 -5.16032166779E-002 +2.15795953409E-005 -3.85248204111E-005 -1.73285659403E-002 +7.65048190951E-002 
+5.61000000000E+009 -1.87471762300E-001 -5.02377390862E-001 -4.95037063956E-002 -1.71738583595E-002 +9.92677450995E-006 +1.10375412987E-005 -7.53707904369E-003 +7.96507745981E-002 
+5.81000000000E+009 -2.03374862671E-001 -5.06473541260E-001 -3.37414480746E-002 +4.09222804010E-002 +8.27049552754E-006 +2.75280362985E-005 +2.99272686243E-003 +8.05963203311E-002 
+6.01000000000E+009 -2.18831613660E-001 -5.09846031666E-001 +2.74865143001E-002 +4.66311834753E-002 +1.92860534298E-005 +6.47411934551E-006 +1.41730578616E-002 +8.25186893344E-002 
+6.21000000000E+009 -2.34247297049E-001 -5.12721598148E-001 +5.39279654622E-002 -1.09195820987E-002 -6.72522673995E-006 +2.45201663347E-005 +2.49479543418E-002 +8.20307210088E-002 
+6.41000000000E+009 -2.48918980360E-001 -5.15098512173E-001 +7.48364068568E-003 -5.52137866616E-002 +1.66801255546E-005 +7.70681162976E-006 +3.64837907255E-002 +8.01195129752E-002 
+6.61000000000E+009 -2.63702064753E-001 -5.17050862312E-001 -5.04061728716E-002 -2.49995756894E-002 +1.35457084980E-005 -2.86094091280E-005 +4.76737730205E-002 +7.50702694058E-002 
+6.81000000000E+009 -2.78079897165E-001 -5.18496572971E-001 -3.95979136229E-002 +4.05075587332E-002 +3.22748128383E-005 +1.34813426484E-005 +5.85002601147E-002 +6.92764744163E-002 
+7.01000000000E+009 -2.91880637407E-001 -5.19579172134E-001 +2.59978733957E-002 +5.02030849457E-002 -1.47930095409E-005 -3.70021234630E-006 +6.84755742550E-002 +6.29391670227E-002 
+7.21000000000E+009 -3.05444598198E-001 -5.20011842251E-001 +5.49941174686E-002 -9.36264917254E-003 +1.45075291584E-005 -2.79892219623E-006 +7.76082798839E-002 +5.44093810022E-002 
+7.41000000000E+009 -3.18392068148E-001 -5.20480692387E-001 +7.16341007501E-003 -5.42380064726E-002 +3.15825345751E-005 -7.45135366742E-006 +8.67874175310E-002 +4.42351363599E-002 
+7.61000000000E+009 -3.30624490976E-001 -5.20289957523E-001 -4.76446524262E-002 -2.27771438658E-002 -2.81262799717E-007 +2.38937318500E-005 +9.31476205587E-002 +3.21831777692E-002 
+7.81000000000E+009 -3.43088924885E-001 -5.19556283951E-001 -3.50519716740E-002 +3.70658077300E-002 -2.10557736864E-005 -2.44356469921E-005 +9.86509844661E-002 +1.98554228991E-002 
+8.01000000000E+009 -3.54633688927E-001 -5.18625557423E-001 +2.33592763543E-002 +4.25920374691E-002 -7.28934310246E-006 +2.99505200019E-006 +1.02263607085E-001 +6.08562445268E-003 
+8.21000000000E+009 -3.66018712521E-001 -5.17458915710E-001 +4.56497259438E-002 -7.86715000868E-003 -7.04318381395E-006 +1.17666559163E-005 +1.04439318180E-001 -8.10071080923E-003 
+8.41000000000E+009 -3.77071559429E-001 -5.15881597996E-001 +6.85509573668E-003 -4.39603812993E-002 +1.71433803189E-005 -1.93424784811E-005 +1.03974834085E-001 -2.32424121350E-002 
+8.61000000000E+009 -3.87885689735E-001 -5.14519214630E-001 -3.73162813485E-002 -1.91864371300E-002 -2.37962103711E-005 -2.61458154682E-007 +1.00704334676E-001 -3.86706665158E-002 
+8.81000000000E+009 -3.98216247559E-001 -5.13039886951E-001 -2.85285506397E-002 +2.76926830411E-002 +1.88650574273E-005 -1.55114248628E-005 +9.53136906028E-002 -5.42864091694E-002 
+9.01000000000E+009 -4.08263564110E-001 -5.11076331139E-001 +1.60799268633E-002 +3.33685576916E-002 +1.67851212609E-005 -5.67741608393E-006 +8.85025858879E-002 -6.80805444717E-002 
+9.21000000000E+009 -4.18007344007E-001 -5.09256422520E-001 +3.39719243348E-002 -3.54387215339E-003 +9.35382104217E-006 -2.54685983236E-005 +7.86976888776E-002 -8.29397588968E-002 
+9.41000000000E+009 -4.27079468966E-001 -5.07500767708E-001 +7.67883518711E-003 -3.10006234795E-002 +1.30511543830E-005 -4.37645066995E-005 +6.61369338632E-002 -9.66014862061E-002 
+9.61000000000E+009 -4.36140000820E-001 -5.05265057087E-001 -2.45216004550E-002 -1.64424236864E-002 +1.09075708679E-005 -3.07833943225E-005 +5.09168356657E-002 -1.08739353716E-001 
+9.81000000000E+009 -4.44581806660E-001 -5.03826498985E-001 -2.24785953760E-002 +1.57531332225E-002 -2.06279946724E-005 -4.66303390567E-006 +3.57568152249E-002 -1.18110172451E-001 
+1.00100000000E+010 -4.53376591206E-001 -5.01588106155E-001 +6.65338151157E-003 +2.51501929015E-002 -9.65805793385E-006 -5.74740488446E-006 +1.87780037522E-002 -1.25921994448E-001 
+1.02100000000E+010 -4.61433529854E-001 -4.99011516571E-001 +2.38693710417E-002 +2.06407601945E-003 +2.19281204750E-007 +9.72336783889E-006 +5.57270715944E-004 -1.32804349065E-001 
+1.04100000000E+010 -4.69573080540E-001 -4.96925503016E-001 +9.77585557848E-003 -1.96354016662E-002 -3.72738104488E-005 +4.74927037430E-006 -2.00891271234E-002 -1.38137787580E-001 
+1.06100000000E+010 -4.77324873209E-001 -4.94586676359E-001 -1.37116461992E-002 -1.52144562453E-002 -3.08717535518E-005 +2.35302795772E-005 -4.17142026126E-002 -1.40821307898E-001 
+1.08100000000E+010 -4.84014391899E-001 -4.93009835482E-001 -1.77295226604E-002 +6.59825513139E-003 -1.29663180815E-006 +3.68157566299E-006 -6.34929388762E-002 -1.40363097191E-001 
+1.10100000000E+010 -4.91201162338E-001 -4.90757554770E-001 -6.07981812209E-004 +1.77885852754E-002 -3.10373252432E-005 +4.04946185881E-005 -8.55121538043E-002 -1.36755228043E-001 
+1.12100000000E+010 -4.97814059258E-001 -4.89327937365E-001 +1.53550328687E-002 +6.58211857080E-003 -1.72402942553E-005 -8.02742488304E-006 -1.09364360571E-001 -1.30353584886E-001 
+1.14100000000E+010 -5.04721283913E-001 -4.87035304308E-001 +1.10181849450E-002 -1.08863087371E-002 +2.25956227951E-005 +9.91960769170E-006 -1.32415071130E-001 -1.20259217918E-001 
+1.16100000000E+010 -5.10240733624E-001 -4.85015004873E-001 -5.51326386631E-003 -1.35080525652E-002 -2.92757135867E-006 +8.96823894436E-006 -1.54276445508E-001 -1.06843963265E-001 
+1.18100000000E+010 -5.16168534756E-001 -4.82994824648E-001 -1.36681096628E-002 -3.72483032152E-006 -6.85624581820E-006 +1.40820402521E-005 -1.73908695579E-001 -8.99626016617E-002 
+1.20100000000E+010 -5.22209882736E-001 -4.80522722006E-001 -4.96717449278E-003 +1.18393059820E-002 +9.27589553612E-006 -8.50738069857E-006 -1.91030845046E-001 -7.05319643021E-002 
+1.22100000000E+010 -5.28294146061E-001 -4.77827101946E-001 +8.59074015170E-003 +8.71460419148E-003 +2.40184272116E-006 -1.33030221150E-006 -2.08388239145E-001 -4.86099757254E-002 
+1.24100000000E+010 -5.33793628216E-001 -4.75530266762E-001 +1.07119847089E-002 -4.49956953526E-003 -3.00708161376E-005 -4.22895618613E-006 -2.22901061177E-001 -2.34155915678E-002 
+1.26100000000E+010 -5.39324879646E-001 -4.73132133484E-001 -1.05907973193E-004 -1.08756460249E-002 +9.02062038222E-006 -1.28696365209E-005 -2.33284235001E-001 +4.24641184509E-003 
+1.28100000000E+010 -5.44563651085E-001 -4.70632165670E-001 -9.58561897278E-003 -3.92235303298E-003 -2.63126427313E-008 +1.08447538878E-005 -2.39529326558E-001 +3.34037467837E-002 
+1.30100000000E+010 -5.49845278263E-001 -4.67477053404E-001 -6.83598313481E-003 +6.97735138237E-003 +1.66239296959E-005 -1.35378309096E-006 -2.43230223656E-001 +6.33889511228E-002 
+1.32100000000E+010 -5.54743349552E-001 -4.64682102203E-001 +3.63213731907E-003 +8.51406436414E-003 -3.81938525607E-006 +2.38556331169E-005 -2.43553861976E-001 +9.49049741030E-002 
+1.34100000000E+010 -5.59688091278E-001 -4.61245626211E-001 +8.79409629852E-003 -3.67175721294E-006 +2.81179509329E-005 -3.81740255762E-006 -2.40044936538E-001 +1.26672968268E-001 
+1.36100000000E+010 -5.62710702419E-001 -4.58425343037E-001 +3.12028429471E-003 -7.70624075085E-003 -8.17625823402E-006 +2.83690860670E-005 -2.32207164168E-001 +1.59501865506E-001 
+1.38100000000E+010 -5.67725539207E-001 -4.56225842237E-001 -5.53493946791E-003 -5.57705387473E-003 +1.70126338617E-006 +1.13968389996E-005 -2.19091668725E-001 +1.91566675901E-001 
+1.40100000000E+010 -5.72618842125E-001 -4.53566849232E-001 -6.99439877644E-003 +2.84396111965E-003 +8.74893248692E-006 +2.37081872001E-006 -2.02402949333E-001 +2.22718864679E-001 
+1.42100000000E+010 -5.77071666718E-001 -4.51145410538E-001 -3.61695238098E-005 +7.11469678208E-003 -1.47985219883E-005 +2.15067811951E-005 -1.81925266981E-001 +2.53960549831E-001 
+1.44100000000E+010 -5.81846356392E-001 -4.48051005602E-001 +6.19280757383E-003 +2.71525583230E-003 +6.02558429819E-006 +8.30495173432E-006 -1.56171217561E-001 +2.82579004765E-001 
+1.46100000000E+010 -5.85575282574E-001 -4.45427030325E-001 +4.70117665827E-003 -4.47811512277E-003 +1.97791337087E-006 +9.18841578823E-006 -1.25535115600E-001 +3.08120399714E-001 
+1.48100000000E+010 -5.89247047901E-001 -4.40530091524E-001 -2.21278984100E-003 -5.72872674093E-003 +3.76463185603E-006 -1.00385859696E-005 -9.25843715668E-002 +3.30207884312E-001 
+1.50100000000E+010 -5.90969622135E-001 -4.39877837896E-001 -5.81509293988E-003 -2.36988402321E-004 +9.37208824325E-006 -1.94008080143E-005 -5.68766370416E-002 +3.49607497454E-001 
+1.52100000000E+010 -5.93883931637E-001 -4.39487338066E-001 -2.36479891464E-003 +5.06623741239E-003 +3.24442989950E-005 -2.12131635635E-005 -1.79976820946E-002 +3.64619195461E-001 
+1.54100000000E+010 -5.97550094128E-001 -4.37696874142E-001 +3.57311847620E-003 +3.93837504089E-003 +4.28559724241E-006 -2.46396994044E-005 +2.42581591010E-002 +3.74667286873E-001 
+1.56100000000E+010 -6.01435124874E-001 -4.34411138296E-001 +4.82114404440E-003 -1.61068723537E-003 +1.58546226885E-005 -1.49740537836E-006 +6.81583732367E-002 +3.78955602646E-001 
+1.58100000000E+010 -6.02903962135E-001 -4.33757692575E-001 +3.78280237783E-004 -4.89745754749E-003 +3.33607968059E-005 -2.01135662792E-005 +1.12142696977E-001 +3.79390537739E-001 
+1.60100000000E+010 -6.05360448360E-001 -4.32535648346E-001 -4.14845161140E-003 -2.16173403896E-003 +6.20497166892E-006 +4.50730067314E-006 +1.57360643148E-001 +3.74419301748E-001 
+1.62100000000E+010 -6.07738256454E-001 -4.31112229824E-001 -3.43179679476E-003 +2.82263662666E-003 -1.72421041498E-005 -4.51027017334E-006 +2.04894915223E-001 +3.64082098007E-001 
+1.64100000000E+010 -6.09813451767E-001 -4.29626137018E-001 +1.22922530863E-003 +4.13092412055E-003 -3.08041780954E-005 -2.26357915381E-005 +2.51771003008E-001 +3.47933560610E-001 
+1.66100000000E+010 -6.13370239735E-001 -4.28061455488E-001 +4.01895679533E-003 +4.23866877099E-004 -4.80902090203E-005 -3.24484681187E-005 +2.95786798000E-001 +3.24340462685E-001 
+1.68100000000E+010 -6.16643369198E-001 -4.25794035196E-001 +1.98056339286E-003 -3.40578705072E-003 +1.23168892969E-005 -1.97800527530E-005 +3.39201837778E-001 +2.96957850456E-001 
+1.70100000000E+010 -6.18644952774E-001 -4.23795431852E-001 -2.32046190649E-003 -3.03902500309E-003 -7.74403724790E-006 +2.29850393225E-005 +3.79260897636E-001 +2.65577465296E-001 
+1.72100000000E+010 -6.21065020561E-001 -4.21750783920E-001 -3.50549770519E-003 +8.72349890415E-004 +4.73713225801E-006 -1.58518741955E-005 +4.16819214821E-001 +2.26960152388E-001 
+1.74100000000E+010 -6.24086976051E-001 -4.19880032539E-001 -5.51690463908E-004 +3.46829160117E-003 +4.29699721280E-005 +1.74216038431E-005 +4.50269669294E-001 +1.84186682105E-001 
+1.76100000000E+010 -6.26742303371E-001 -4.17745620012E-001 +2.84764938988E-003 +1.77699455526E-003 +2.50522534770E-005 +3.10954283123E-006 +4.78095650673E-001 +1.38082876801E-001 
+1.78100000000E+010 -6.29697024822E-001 -4.15752559900E-001 +2.57357303053E-003 -1.84140261263E-003 +1.62535252457E-005 -8.88325394044E-006 +5.01717031002E-001 +8.92669484019E-002 
+1.80100000000E+010 -6.32059633732E-001 -4.13529783487E-001 -6.03611115366E-004 -3.01915616728E-003 -1.42902936204E-005 +3.12645556733E-006 +5.20993649960E-001 +3.80389615893E-002 
+1.82100000000E+010 -6.34748876095E-001 -4.11803156137E-001 -2.91464035399E-003 -6.00792642217E-004 +1.23841516597E-006 -5.88779357713E-006 +5.33629775047E-001 -1.66493952274E-002 
+1.84100000000E+010 -6.37354850769E-001 -4.10405099392E-001 -1.61528494209E-003 +2.33798916452E-003 +3.45681723957E-006 +3.68898727174E-005 +5.39843559265E-001 -7.39703029394E-002 
+1.86100000000E+010 -6.40414357185E-001 -4.08441185951E-001 +1.40401849058E-003 +2.31377291493E-003 +9.63057118497E-006 -2.77698236459E-005 +5.40046155453E-001 -1.30713149905E-001 
+1.88100000000E+010 -6.42790138721E-001 -4.06227022409E-001 +2.64015072025E-003 -3.99890472181E-004 -1.94149251911E-005 +1.33971013838E-006 +5.34134805202E-001 -1.87482357025E-001 
+1.90100000000E+010 -6.44515633583E-001 -4.04487103224E-001 +5.97937963903E-004 -2.45845876634E-003 -3.56857199222E-005 +6.35504375168E-006 +5.22489547729E-001 -2.43786826730E-001 
+1.92100000000E+010 -6.46832168102E-001 -4.03533756733E-001 -1.93123868667E-003 -1.48793275002E-003 +2.47744355875E-005 +4.96561078762E-005 +5.04461050034E-001 -3.01355183125E-001 
+1.94100000000E+010 -6.49461567402E-001 -4.01662021875E-001 -2.05632764846E-003 +1.09464745037E-003 +4.93063089380E-005 -1.15413140520E-005 +4.79252606630E-001 -3.56238812208E-001 
+1.96100000000E+010 -6.50403738022E-001 -3.99563878775E-001 +2.22246977501E-004 +2.21239542589E-003 +2.15161003325E-006 -1.62284250109E-005 +4.48488056660E-001 -4.08482968807E-001 
+1.98100000000E+010 -6.50008738041E-001 -3.96858483553E-001 +2.04750243574E-003 +6.52284768876E-004 -3.83129190595E-005 -1.36924645631E-005 +4.13588970900E-001 -4.56088572741E-001 
+2.00100000000E+010 -6.49157345295E-001 -3.96253585815E-001 +1.39805430081E-003 -1.50664511602E-003 +1.60524487001E-005 -7.35934145268E-006 +3.71791571379E-001 -5.02667248249E-001 
