!;Filter: kein Filter
!auto
!3/21/2019 9:25:24 AM
!3/21/2019 9:25:40 AM
!SP-Measurements Prober G4
!SP-Measurements Prober G4
!01103_448C
!134
!233
!12
!50
!-20
!0.00399976
!1.88
!0.54220246
!0.54220246
# Hz S  RI   R 50
+1.00000000000E+007 +2.85284459591E-001 +4.22137742862E-003 +4.47359532118E-002 -1.68420840055E-002 +4.57641472167E-005 -5.96000347286E-004 +5.29675418511E-003 +1.18658493739E-003 
+2.10000000000E+008 +2.98931866884E-001 -2.82054990530E-002 -1.35804095771E-003 -4.63312491775E-002 -5.76279599045E-005 +1.45720550790E-005 +8.79493821412E-003 -4.45645907894E-003 
+4.10000000000E+008 +2.99961149693E-001 -6.30944222212E-002 -4.32592555881E-002 -1.50924269110E-002 +2.71807239187E-005 +3.06141919282E-005 +1.02544017136E-002 -7.27348728105E-003 
+6.10000000000E+008 +2.97153174877E-001 -9.80192124844E-002 -2.91406624019E-002 +3.48871983588E-002 -2.50722018791E-006 -9.34298077482E-006 +9.71309840679E-003 -1.15549573675E-002 
+8.10000000000E+008 +2.91000425816E-001 -1.33065268397E-001 +2.21927277744E-002 +3.89213413000E-002 +1.53661803779E-005 +1.95184456970E-005 +6.99643697590E-003 -1.52796991169E-002 
+1.01000000000E+009 +2.82023519278E-001 -1.66900202632E-001 +4.47207204998E-002 -6.89741224051E-003 -2.76335140370E-006 +6.90849128659E-006 +2.82899010926E-003 -1.90514549613E-002 
+1.21000000000E+009 +2.70731657743E-001 -1.98903232813E-001 +9.55540407449E-003 -4.30269502103E-002 +1.53073942784E-005 -2.93956472888E-005 -1.72951002605E-003 -2.11708191782E-002 
+1.41000000000E+009 +2.57659047842E-001 -2.30165079236E-001 -3.67866642773E-002 -2.49585118145E-002 +1.51395797729E-005 +2.18555169340E-006 -7.50655261800E-003 -2.45376620442E-002 
+1.61000000000E+009 +2.43592232466E-001 -2.60005533695E-001 -3.67411933839E-002 +2.65133436769E-002 -1.87179614386E-006 +5.16601062373E-007 -1.37280626222E-002 -2.67619937658E-002 
+1.81000000000E+009 +2.27245569229E-001 -2.88303583860E-001 +1.12966736779E-002 +4.27479594946E-002 +7.52032474338E-006 +1.09743132271E-005 -1.76748856902E-002 -2.78196595609E-002 
+2.01000000000E+009 +2.10549950600E-001 -3.15202981234E-001 +4.46595810354E-002 +4.91850590333E-003 +7.72734256316E-006 +6.38087340121E-006 -2.32323762029E-002 -2.67550367862E-002 
+2.21000000000E+009 +1.92291691899E-001 -3.41105401516E-001 +1.94116495550E-002 -4.07373681664E-002 -1.43379547808E-005 +1.75814238901E-005 -2.88100074977E-002 -2.45927888900E-002 
+2.41000000000E+009 +1.72508358955E-001 -3.64724993706E-001 -3.00881434232E-002 -3.20396870375E-002 +2.04921816476E-005 -5.98391216045E-006 -3.54310385883E-002 -2.23267432302E-002 
+2.61000000000E+009 +1.52478128672E-001 -3.86887252331E-001 -4.08984422684E-002 +1.69774163514E-002 -2.13904186239E-005 +6.41282042579E-007 -4.07648012042E-002 -1.93644389510E-002 
+2.81000000000E+009 +1.31474599242E-001 -4.07406300306E-001 +2.29905685410E-003 +4.36067953706E-002 +1.71412866621E-005 +2.22299854613E-006 -4.46936897933E-002 -1.44507260993E-002 
+3.01000000000E+009 +1.09910182655E-001 -4.25900161266E-001 +4.02951687574E-002 +1.37413721532E-002 +2.01808670681E-005 -1.52576330947E-006 -4.85648065805E-002 -8.70413705707E-003 
+3.21000000000E+009 +8.83955433965E-002 -4.43073719740E-001 +2.76301335543E-002 -3.27710770071E-002 -2.04989009944E-005 -8.59792544361E-006 -5.24887926877E-002 -2.19053588808E-003 
+3.41000000000E+009 +6.68832510710E-002 -4.58743304014E-001 -2.11400073022E-002 -3.65816876292E-002 +5.92274682276E-006 -2.24238301598E-005 -5.53813874722E-002 +4.86252875999E-003 
+3.61000000000E+009 +4.53261956573E-002 -4.72958952188E-001 -4.10555303097E-002 +5.45751908794E-003 +1.78975005838E-005 +1.14235772344E-005 -5.72065524757E-002 +1.18467658758E-002 
+3.81000000000E+009 +2.36840210855E-002 -4.85638350248E-001 -1.01472726092E-002 +4.10224311054E-002 -2.63982951765E-006 -2.00733143174E-006 -5.70342242718E-002 +1.92297380418E-002 
+4.01000000000E+009 +2.54731555469E-003 -4.97438788414E-001 +3.46633121371E-002 +2.31538470834E-002 -1.70780003828E-005 +7.56703957450E-006 -5.60159347951E-002 +2.71533317864E-002 
+4.21000000000E+009 -1.85317900032E-002 -5.07673919201E-001 +3.43603380024E-002 -2.28693801910E-002 -5.72800809095E-006 -9.40173686104E-006 -5.41298054159E-002 +3.58402095735E-002 
+4.41000000000E+009 -3.91946360469E-002 -5.16862392426E-001 -9.28280968219E-003 -4.14765067399E-002 -2.05172873393E-005 -7.09266760168E-006 -5.10461032391E-002 +4.42551672459E-002 
+4.61000000000E+009 -5.95585331321E-002 -5.25059640408E-001 -4.14725467563E-002 -5.17030851915E-003 +2.10480811802E-005 -5.93881759414E-006 -4.67934235930E-002 +5.15326485038E-002 
+4.81000000000E+009 -7.97519236803E-002 -5.32210648060E-001 -2.08447314799E-002 +3.62918004394E-002 +1.13042199246E-006 +2.00100148504E-005 -4.02096696198E-002 +5.87922073901E-002 
+5.01000000000E+009 -9.92099866271E-002 -5.39032399654E-001 +2.79412735254E-002 +3.33405993879E-002 +8.84899782250E-006 -1.93104879145E-005 -3.35798040032E-002 +6.54087290168E-002 
+5.21000000000E+009 -1.18329159915E-001 -5.45013427734E-001 +3.99321280420E-002 -1.47567233071E-002 +2.13080147660E-006 -5.11349298904E-006 -2.61770468205E-002 +7.13693946600E-002 
+5.41000000000E+009 -1.36993601918E-001 -5.49736082554E-001 +1.72893248964E-003 -4.31855544448E-002 -3.76495790988E-006 -7.96161293692E-006 -1.73205677420E-002 +7.65551924706E-002 
+5.61000000000E+009 -1.55667975545E-001 -5.54351270199E-001 -4.19186614454E-002 -1.63593329489E-002 -1.49180586959E-005 +9.91377874016E-006 -7.54889659584E-003 +7.96793401241E-002 
+5.81000000000E+009 -1.73599258065E-001 -5.57748734951E-001 -2.87598297000E-002 +3.29604782164E-002 +9.42482984101E-006 -1.41776708915E-005 +3.01430863328E-003 +8.06501582265E-002 
+6.01000000000E+009 -1.90742522478E-001 -5.60366272926E-001 +2.04166714102E-002 +4.02870699763E-002 -1.83530676168E-006 -2.15805539483E-005 +1.42085691914E-002 +8.25916752219E-002 
+6.21000000000E+009 -2.07909747958E-001 -5.62502741814E-001 +4.60185557604E-002 -7.59865809232E-003 +8.29548025649E-006 +3.71235910279E-006 +2.50122956932E-002 +8.20613801479E-002 
+6.41000000000E+009 -2.24172517657E-001 -5.63942134380E-001 +8.37145280093E-003 -4.44175787270E-002 -1.00228380688E-005 +7.08320521881E-006 +3.65364328027E-002 +8.01277831197E-002 
+6.61000000000E+009 -2.40349903703E-001 -5.65134823322E-001 -4.03056479990E-002 -2.46122460812E-002 +5.26552321389E-006 +3.87067166230E-006 +4.77386191487E-002 +7.51339793205E-002 
+6.81000000000E+009 -2.56261974573E-001 -5.65732598305E-001 -3.51400300860E-002 +3.21804024279E-002 -3.16481373375E-006 +1.40188221849E-005 +5.85877262056E-002 +6.92712888122E-002 
+7.01000000000E+009 -2.71288961172E-001 -5.65841078758E-001 +1.71993914992E-002 +4.26089577377E-002 +1.10808568934E-005 +2.05336145882E-005 +6.85305893421E-002 +6.29759058356E-002 
+7.21000000000E+009 -2.86067992449E-001 -5.65543174744E-001 +4.83219586313E-002 -2.53755925223E-003 +1.43523693623E-005 +7.65907225286E-006 +7.77303874493E-002 +5.44534996152E-002 
+7.41000000000E+009 -3.00277501345E-001 -5.65122783184E-001 +9.79445129633E-003 -4.58592250943E-002 -1.07631376522E-005 +1.67228699866E-006 +8.68955850601E-002 +4.42307889462E-002 
+7.61000000000E+009 -3.13508868217E-001 -5.64019620419E-001 -3.80550399423E-002 -2.48245093971E-002 -4.89532021675E-006 -1.02162803159E-005 +9.32648777962E-002 +3.21697294712E-002 
+7.81000000000E+009 -3.27186405659E-001 -5.62444150448E-001 -3.58033254743E-002 +3.03769428283E-002 -1.17488925753E-005 +1.01249770523E-005 +9.87835675478E-002 +1.98415592313E-002 
+8.01000000000E+009 -3.39741140604E-001 -5.60514092445E-001 +1.83229651302E-002 +3.97227145731E-002 +2.87548136839E-005 +3.96218729293E-006 +1.02387003601E-001 +6.09352998435E-003 
+8.21000000000E+009 -3.51997911930E-001 -5.58469414711E-001 +4.20176833868E-002 -2.95149558224E-003 +8.92658044904E-006 -1.78002319444E-005 +1.04517363012E-001 -8.18315055221E-003 
+8.41000000000E+009 -3.63961875439E-001 -5.55873572826E-001 +8.10365378857E-003 -4.02757488191E-002 -2.78282641375E-005 -5.97071448283E-006 +1.04036748409E-001 -2.33234632760E-002 
+8.61000000000E+009 -3.75524282455E-001 -5.53586363792E-001 -3.18613685668E-002 -1.87461096793E-002 -2.53527250607E-005 -2.16460994125E-005 +1.00748628378E-001 -3.87647636235E-002 
+8.81000000000E+009 -3.86532396078E-001 -5.51165878773E-001 -2.83098574728E-002 +2.27110832930E-002 +6.62363936499E-006 -4.97190649185E-006 +9.53673273325E-002 -5.43917976320E-002 
+9.01000000000E+009 -3.97303044796E-001 -5.48366308212E-001 +1.34567786008E-002 +3.15437652171E-002 +3.00160882034E-005 +3.10872674163E-005 +8.85508656502E-002 -6.81765601039E-002 
+9.21000000000E+009 -4.07565087080E-001 -5.45613944530E-001 +3.06335687637E-002 -1.17542489897E-003 -6.97792484061E-006 -2.78608767985E-005 +7.86900371313E-002 -8.30433964729E-002 
+9.41000000000E+009 -4.17230516672E-001 -5.42913198471E-001 +9.44559462368E-003 -2.86112856120E-002 +1.28238234538E-005 -3.79360426450E-006 +6.61200359464E-002 -9.66770127416E-002 
+9.61000000000E+009 -4.26794618368E-001 -5.39835035801E-001 -2.25788727403E-002 -1.58079173416E-002 -5.48696743863E-006 +6.68466327625E-006 +5.09118996561E-002 -1.08829043806E-001 
+9.81000000000E+009 -4.35619384050E-001 -5.37471652031E-001 -2.10676509887E-002 +1.32607668638E-002 -3.96095492761E-006 +1.50072010001E-005 +3.57297286391E-002 -1.18204168975E-001 
+1.00100000000E+010 -4.44810211658E-001 -5.34396588802E-001 +5.13366330415E-003 +2.39354055375E-002 -1.52797529154E-005 +1.75945242518E-005 +1.86919663101E-002 -1.26062750816E-001 
+1.02100000000E+010 -4.53101545572E-001 -5.30969023705E-001 +2.18580365181E-002 +2.43959343061E-003 +1.83770571311E-005 +2.23607021326E-005 +4.51449566754E-004 -1.32953211665E-001 
+1.04100000000E+010 -4.61476206779E-001 -5.28179049492E-001 +1.01406201720E-002 -1.75737794489E-002 +2.52465288213E-005 -4.60813644168E-005 -2.01792400330E-002 -1.38272568583E-001 
+1.06100000000E+010 -4.69624757767E-001 -5.25060236454E-001 -1.28086488694E-002 -1.50800226256E-002 +4.54524115412E-006 +8.05346826382E-006 -4.18107137084E-002 -1.40878900886E-001 
+1.08100000000E+010 -4.76578384638E-001 -5.22771418095E-001 -1.65296457708E-002 +6.15413393825E-003 -4.35407336852E-008 +5.17848366144E-006 -6.36401027441E-002 -1.40465751290E-001 
+1.10100000000E+010 -4.83951508999E-001 -5.19788861275E-001 -1.11453980207E-003 +1.65293198079E-002 +2.92581330541E-006 -3.21942461596E-005 -8.56800824404E-002 -1.36859863997E-001 
+1.12100000000E+010 -4.90676194429E-001 -5.17595827579E-001 +1.47453099489E-002 +6.35837297887E-003 -2.03232266358E-005 +3.17625836033E-006 -1.09531700611E-001 -1.30411580205E-001 
+1.14100000000E+010 -4.97774899006E-001 -5.14626741409E-001 +1.00015336648E-002 -1.01455617696E-002 -1.80180322786E-005 +1.73313601408E-005 -1.32558330894E-001 -1.20297208428E-001 
+1.16100000000E+010 -5.03373980522E-001 -5.12012481689E-001 -4.85485512763E-003 -1.27663370222E-002 -3.02572047417E-008 +1.24609441627E-005 -1.54389247298E-001 -1.06836996973E-001 
+1.18100000000E+010 -5.09414911270E-001 -5.09297251701E-001 -1.31856137887E-002 +3.43570107361E-004 +9.37426830205E-006 -1.75127916009E-005 -1.74070909619E-001 -9.00094807148E-002 
+1.20100000000E+010 -5.15489757061E-001 -5.06263494492E-001 -4.20613773167E-003 +1.10795488581E-002 +7.23091307009E-006 -1.72004693013E-005 -1.91166520119E-001 -7.04644024372E-002 
+1.22100000000E+010 -5.21669387817E-001 -5.02932727337E-001 +8.13007354736E-003 +8.02546739578E-003 -6.46791158943E-006 +2.27820673899E-005 -2.08531051874E-001 -4.85633909702E-002 
+1.24100000000E+010 -5.27228116989E-001 -5.00032782555E-001 +9.72999539226E-003 -4.78408159688E-003 +1.43446059155E-005 -3.88709020527E-009 -2.23041027784E-001 -2.32860688120E-002 
+1.26100000000E+010 -5.32589495182E-001 -4.96984153986E-001 -4.45723650046E-004 -9.69825778157E-003 +3.14607241307E-005 -6.15653334535E-006 -2.33418360353E-001 +4.41260263324E-003 
+1.28100000000E+010 -5.37820041180E-001 -4.93840336800E-001 -8.85470677167E-003 -3.50817409344E-003 +2.54873339145E-006 -9.20744332689E-006 -2.39644631743E-001 +3.35817001760E-002 
+1.30100000000E+010 -5.42947113514E-001 -4.90161955357E-001 -5.94435073435E-003 +6.78987987339E-003 -1.41152213473E-005 +6.19400680080E-006 -2.43399664760E-001 +6.35484457016E-002 
+1.32100000000E+010 -5.47579228878E-001 -4.86933767796E-001 +3.46229481511E-003 +7.42075359449E-003 +1.76815992745E-005 +1.84212913155E-005 -2.43664562702E-001 +9.50978100300E-002 
+1.34100000000E+010 -5.52396476269E-001 -4.83072161674E-001 +8.07651598006E-003 -1.74087821506E-004 -1.60803847393E-005 +3.15063380185E-006 -2.40073129535E-001 +1.26900568604E-001 
+1.36100000000E+010 -5.55305898190E-001 -4.79784995317E-001 +2.45176209137E-003 -7.20091583207E-003 -1.81448504009E-005 +1.67974194483E-005 -2.32267647982E-001 +1.59757509828E-001 
+1.38100000000E+010 -5.60093462467E-001 -4.77141231298E-001 -5.02824271098E-003 -4.70128981397E-003 +2.52126519626E-005 +7.45611657749E-007 -2.19118461013E-001 +1.91831216216E-001 
+1.40100000000E+010 -5.64738333225E-001 -4.74122881889E-001 -6.35580113158E-003 +2.71232449450E-003 -7.14641100785E-006 +3.03289798467E-005 -2.02401697636E-001 +2.22978621721E-001 
+1.42100000000E+010 -5.68928658962E-001 -4.71348762512E-001 +3.88019281672E-004 +6.41253916547E-003 +9.62238573265E-006 +1.55736233864E-005 -1.81875988841E-001 +2.54219621420E-001 
+1.44100000000E+010 -5.73317885399E-001 -4.67922180891E-001 +5.48402126878E-003 +2.15995218605E-003 -6.06221647104E-006 -4.38019887952E-005 -1.56092166901E-001 +2.82875120640E-001 
+1.46100000000E+010 -5.76693654060E-001 -4.65086430311E-001 +4.18184278533E-003 -4.15077991784E-003 +1.34998963404E-005 +5.88155216974E-006 -1.25366613269E-001 +3.08344215155E-001 
+1.48100000000E+010 -5.80032765865E-001 -4.60085213184E-001 -2.31041386724E-003 -4.95738908648E-003 -3.53906443706E-006 -2.67489540420E-005 -9.23923850060E-002 +3.30398321152E-001 
+1.50100000000E+010 -5.81476867199E-001 -4.59281176329E-001 -5.07851690054E-003 -6.63973769406E-005 -2.26376027967E-006 +2.42514015554E-005 -5.66985160112E-002 +3.49871814251E-001 
+1.52100000000E+010 -5.84123551846E-001 -4.58745807409E-001 -2.01871828176E-003 +4.64370055124E-003 +2.38673583226E-005 -1.66357131093E-005 -1.77815556526E-002 +3.64840179682E-001 
+1.54100000000E+010 -5.87450742722E-001 -4.57000404596E-001 +3.37171391584E-003 +3.26874898747E-003 +2.59731768892E-005 +7.15675184892E-007 +2.44879834354E-002 +3.74821126461E-001 
+1.56100000000E+010 -5.90991616249E-001 -4.53776031733E-001 +4.12083882838E-003 -1.50938017759E-003 +2.02335049835E-005 -2.83577428490E-005 +6.84669837356E-002 +3.79060506821E-001 
+1.58100000000E+010 -5.92284083366E-001 -4.53256815672E-001 +1.65718753124E-004 -4.41830046475E-003 +6.11932273387E-006 -2.86937283818E-005 +1.12394392490E-001 +3.79484057426E-001 
+1.60100000000E+010 -5.94554305077E-001 -4.52140986919E-001 -3.70892905630E-003 -1.63086096290E-003 +5.88785678701E-006 +1.29160962388E-005 +1.57673060894E-001 +3.74490350485E-001 
+1.62100000000E+010 -5.96855521202E-001 -4.50911134481E-001 -2.88373092189E-003 +2.51172389835E-003 +7.25299923943E-006 -1.18633424790E-005 +2.05222830176E-001 +3.64102095366E-001 
+1.64100000000E+010 -5.98835349083E-001 -4.49675619602E-001 +1.20398751460E-003 +3.63090867177E-003 -2.64909940597E-005 +3.17775702570E-005 +2.52155482769E-001 +3.47880303860E-001 
+1.66100000000E+010 -6.02432668209E-001 -4.48344498873E-001 +3.52312973700E-003 +1.69836872374E-004 +4.98472363688E-005 +4.35500578533E-006 +2.96110689640E-001 +3.24245184660E-001 
+1.68100000000E+010 -6.05663537979E-001 -4.46224749088E-001 +1.65519060101E-003 -2.94990092516E-003 -2.94820729323E-005 +2.41733669100E-005 +3.39468777180E-001 +2.96797245741E-001 
+1.70100000000E+010 -6.07714235783E-001 -4.44406896830E-001 -2.10539461114E-003 -2.63870181516E-003 +7.92615719547E-006 -1.64208304341E-005 +3.79558622837E-001 +2.65365958214E-001 
+1.72100000000E+010 -6.10112726688E-001 -4.42590326071E-001 -2.97638541088E-003 +9.24082123674E-004 +1.54149383889E-005 -6.80988841850E-006 +4.17090207338E-001 +2.26704806089E-001 
+1.74100000000E+010 -6.13315224648E-001 -4.41041380167E-001 -4.64856566396E-004 +2.95947701670E-003 +1.26127008571E-006 +2.00768754439E-005 +4.50494438410E-001 +1.83904543519E-001 
+1.76100000000E+010 -6.16240680218E-001 -4.39104974270E-001 +2.55602714606E-003 +1.49478157982E-003 -1.24357175082E-005 +2.60714623437E-005 +4.78360950947E-001 +1.37751325965E-001 
+1.78100000000E+010 -6.19357764721E-001 -4.37259256840E-001 +2.17160931788E-003 -1.60846672952E-003 -1.68200858752E-005 -4.53895518149E-006 +5.01890957355E-001 +8.88812690973E-002 
+1.80100000000E+010 -6.22045874596E-001 -4.35294181108E-001 -5.51766250283E-004 -2.58060381748E-003 +1.86663964996E-005 +4.34308731201E-006 +5.21149039268E-001 +3.76887395978E-002 
+1.82100000000E+010 -6.25023424625E-001 -4.33546513319E-001 -2.55568628199E-003 -4.82470262796E-004 -1.65278233908E-005 +1.61859188665E-005 +5.33753335476E-001 -1.70200094581E-002 
+1.84100000000E+010 -6.28036439419E-001 -4.32083398104E-001 -1.29246886354E-003 +2.00882903300E-003 +7.65848994888E-007 -1.14642753033E-005 +5.39922416210E-001 -7.44044259191E-002 
+1.86100000000E+010 -6.31161093712E-001 -4.30251300335E-001 +1.23542943038E-003 +1.98800326325E-003 +3.44624618265E-006 -2.40851077251E-005 +5.40051877499E-001 -1.31152242422E-001 
+1.88100000000E+010 -6.33838832378E-001 -4.28074568510E-001 +2.25266790949E-003 -3.94139467971E-004 -1.88078192878E-005 -3.23197127727E-005 +5.34100532532E-001 -1.87876403332E-001 
+1.90100000000E+010 -6.35849595070E-001 -4.26422715187E-001 +4.85959812067E-004 -2.03419895843E-003 -2.83802382910E-005 -1.95974535018E-005 +5.22417306900E-001 -2.44190901518E-001 
+1.92100000000E+010 -6.38467550278E-001 -4.25495088100E-001 -1.62659224588E-003 -1.31713238079E-003 -1.04621412902E-005 +1.88968515431E-005 +5.04302799702E-001 -3.01771700382E-001 
+1.94100000000E+010 -6.41387045383E-001 -4.23437178135E-001 -1.73081003595E-003 +1.00074987859E-003 +2.48307824222E-005 +1.83271083642E-006 +4.78968054056E-001 -3.56686800718E-001 
+1.96100000000E+010 -6.42610788345E-001 -4.21502143145E-001 +1.70908067957E-004 +1.88947422430E-003 +6.20797218289E-005 +4.84494667035E-005 +4.48212057352E-001 -4.08887356520E-001 
+1.98100000000E+010 -6.42606556416E-001 -4.18893516064E-001 +1.77911354695E-003 +5.97603037022E-004 +8.84974815563E-006 -1.32975783345E-005 +4.13326680660E-001 -4.56516265869E-001 
+2.00100000000E+010 -6.42505705357E-001 -4.17577862740E-001 +1.21011107694E-003 -1.38120900374E-003 +1.51094036482E-005 -4.94248997711E-005 +3.71467173100E-001 -5.02957761288E-001 
