!;Filter: kein Filter
!auto
!3/21/2019 9:26:52 AM
!3/21/2019 9:27:07 AM
!SP-Measurements Prober G4
!SP-Measurements Prober G4
!01103_448C
!134
!237
!12
!50
!-20
!0.00199954
!1.75
!0.22129449
!0.22129449
# Hz S  RI   R 50
+1.00000000000E+007 +2.56699532270E-001 +7.47678522021E-003 +6.25998601317E-002 -2.54314318299E-002 +4.66192344902E-004 +5.11709251441E-004 +5.34753734246E-003 +3.76122799935E-004 
+2.10000000000E+008 +2.68302232027E-001 -3.28721255064E-002 -4.30846959352E-003 -6.54384195805E-002 -1.12027928481E-005 -4.63514770672E-005 +8.80348030478E-003 -4.48454683647E-003 
+4.10000000000E+008 +2.66646027565E-001 -6.80558532476E-002 -6.26208931208E-002 -1.71595402062E-002 -4.34951107309E-005 -3.88635235140E-005 +1.01603688672E-002 -7.28102400899E-003 
+6.10000000000E+008 +2.63569384813E-001 -1.04626953602E-001 -3.45853455365E-002 +5.27018383145E-002 -6.26479459243E-006 -1.05034496301E-006 +9.80898737907E-003 -1.15293189883E-002 
+8.10000000000E+008 +2.54219830036E-001 -1.40932291746E-001 +3.66819836199E-002 +4.89540286362E-002 -1.52414804688E-005 -5.32026342626E-006 +7.02936854213E-003 -1.53152579442E-002 
+1.01000000000E+009 +2.42381006479E-001 -1.74671739340E-001 +5.71928843856E-002 -1.71308610588E-002 -1.70999901457E-005 +1.43265306178E-005 +2.86122714169E-003 -1.90592352301E-002 
+1.21000000000E+009 +2.27978467941E-001 -2.06451416016E-001 +4.58451360464E-003 -5.74944578111E-002 -4.12390090787E-006 -2.46989966399E-005 -1.73469283618E-003 -2.12037153542E-002 
+1.41000000000E+009 +2.12085351348E-001 -2.35520049930E-001 -5.14371506870E-002 -2.59351432323E-002 +9.96611834125E-006 +1.39009262057E-005 -7.51189002767E-003 -2.45470553637E-002 
+1.61000000000E+009 +1.96746885777E-001 -2.62961804867E-001 -4.35463152826E-002 +3.93974147737E-002 +2.82417531707E-005 -2.30674431805E-005 -1.37265846133E-002 -2.68177464604E-002 
+1.81000000000E+009 +1.79406702518E-001 -2.89126157761E-001 +2.10230275989E-002 +5.48568479717E-002 -9.93800858851E-006 +7.34685136194E-006 -1.76677368581E-002 -2.78834197670E-002 
+2.01000000000E+009 +1.62127479911E-001 -3.13390493393E-001 +6.05621598661E-002 +6.13440235611E-004 +2.59966418525E-005 +5.87982276556E-006 -2.32020393014E-002 -2.68244836479E-002 
+2.21000000000E+009 +1.44310191274E-001 -3.36875766516E-001 +2.24046409130E-002 -5.91792687774E-002 +1.68875903910E-005 -2.00934882741E-005 -2.88120377809E-002 -2.46362425387E-002 
+2.41000000000E+009 +1.24618500471E-001 -3.58531713486E-001 -4.76294644177E-002 -4.22830507159E-002 -4.87225133838E-006 +4.98658573633E-006 -3.54621820152E-002 -2.24171709269E-002 
+2.61000000000E+009 +1.05458468199E-001 -3.78190547228E-001 -5.96841573715E-002 +3.02827190608E-002 -4.08963969676E-005 +2.03243907890E-005 -4.07722406089E-002 -1.94295477122E-002 
+2.81000000000E+009 +8.65468084812E-002 -3.97136986256E-001 +9.83960647136E-003 +7.21411108971E-002 -2.95208683383E-005 +3.21139509651E-006 -4.47326935828E-002 -1.44633604214E-002 
+3.01000000000E+009 +6.61949738860E-002 -4.14553135633E-001 +7.35801309347E-002 +1.55717534944E-002 -1.94515760086E-005 -5.54375765205E-006 -4.85833324492E-002 -8.73536895961E-003 
+3.21000000000E+009 +4.66342084110E-002 -4.30939406157E-001 +4.26386632025E-002 -7.02306032181E-002 +1.30516980335E-006 +3.77737305826E-005 -5.25388792157E-002 -2.28788307868E-003 
+3.41000000000E+009 +2.76407469064E-002 -4.47502046824E-001 -6.42161518335E-002 -6.72907382250E-002 +3.16221812682E-005 -9.89555701381E-006 -5.54461367428E-002 +4.83437208459E-003 
+3.61000000000E+009 +6.90000457689E-003 -4.62459743023E-001 -8.67543891072E-002 +4.51222881675E-002 -8.11695463199E-006 +2.25550388677E-006 -5.72724863887E-002 +1.18043003604E-002 
+3.81000000000E+009 -1.42435356975E-002 -4.77314919233E-001 +2.78231184930E-002 +1.04338712990E-001 -6.34275647826E-006 +1.61862117238E-005 -5.70834353566E-002 +1.92050356418E-002 
+4.01000000000E+009 -3.68601977825E-002 -4.92468506098E-001 +1.18046537042E-001 -1.66699104011E-002 -1.75989498530E-005 -5.77876671741E-005 -5.61184771359E-002 +2.71667689085E-002 
+4.21000000000E+009 -6.08689934015E-002 -5.02714633942E-001 +5.61505323276E-003 -1.16741858423E-001 +4.50667721452E-005 +2.68753974524E-005 -5.42314164340E-002 +3.58636081219E-002 
+4.41000000000E+009 -8.50985124707E-002 -5.10806977749E-001 -1.11148521304E-001 -2.11609527469E-002 -1.53995188157E-005 +1.64608100022E-005 -5.10740838945E-002 +4.42797467113E-002 
+4.61000000000E+009 -1.08664318919E-001 -5.15702188015E-001 -2.84011270851E-002 +9.86410230398E-002 -4.03942703997E-006 +1.06244942799E-005 -4.68694008887E-002 +5.15895821154E-002 
+4.81000000000E+009 -1.28414854407E-001 -5.19342124462E-001 +7.57092162967E-002 +4.78526838124E-002 -3.30701295752E-005 -1.04183682197E-005 -4.02786284685E-002 +5.88144212961E-002 
+5.01000000000E+009 -1.47655114532E-001 -5.22904276848E-001 +5.60680404305E-002 -5.72902485728E-002 +1.35744278396E-006 +3.72294516637E-006 -3.36222723126E-002 +6.54533877969E-002 
+5.21000000000E+009 -1.64926454425E-001 -5.25725066662E-001 -3.38221527636E-002 -5.47765754163E-002 -1.30783510031E-005 +3.58346454732E-007 -2.62167435139E-002 +7.14786723256E-002 
+5.41000000000E+009 -1.81521832943E-001 -5.28990983963E-001 -5.49670644104E-002 +1.01574547589E-002 -3.52779670720E-006 -2.68138592219E-005 -1.73487495631E-002 +7.66211897135E-002 
+5.61000000000E+009 -1.98616877198E-001 -5.32028913498E-001 -4.97681135312E-003 +4.97406721115E-002 -8.37649986352E-006 -2.50198700087E-005 -7.54396244884E-003 +7.97816142440E-002 
+5.81000000000E+009 -2.14260444045E-001 -5.34349024296E-001 +3.70916351676E-002 +1.71583369374E-002 -7.82719143899E-006 -1.01147024907E-005 +2.99815600738E-003 +8.07352364063E-002 
+6.01000000000E+009 -2.29723662138E-001 -5.36497056484E-001 +2.70847827196E-002 -2.43599321693E-002 -3.38436757374E-006 +2.91701417154E-005 +1.42068350688E-002 +8.26533660293E-002 
+6.21000000000E+009 -2.45227411389E-001 -5.38069128990E-001 -1.33528020233E-002 -3.02794612944E-002 +2.52225913755E-006 +1.43221122926E-005 +2.50288583338E-002 +8.20966884494E-002 
+6.41000000000E+009 -2.59733974934E-001 -5.39306163788E-001 -2.78439112008E-002 +1.35908322409E-003 +4.72910096505E-006 +7.80369009590E-006 +3.65658141673E-002 +8.02357494831E-002 
+6.61000000000E+009 -2.74574309587E-001 -5.40452599525E-001 -9.08909924328E-003 +2.36687269062E-002 -2.29291345022E-005 +2.75108641290E-006 +4.77807149291E-002 +7.52038359642E-002 
+6.81000000000E+009 -2.88975417614E-001 -5.40966093540E-001 +1.77194923162E-002 +1.50975007564E-002 -2.12770482904E-005 +4.26818151027E-005 +5.86468763649E-002 +6.93555623293E-002 
+7.01000000000E+009 -3.02697122097E-001 -5.41319787502E-001 +1.78872495890E-002 -9.34636499733E-003 +8.31275065138E-006 -4.84867678097E-006 +6.86549618840E-002 +6.30360022187E-002 
+7.21000000000E+009 -3.16286832094E-001 -5.41249334812E-001 -1.18006952107E-003 -1.85479875654E-002 +4.25711095886E-006 +9.56118242357E-007 +7.78238847852E-002 +5.44765479863E-002 
+7.41000000000E+009 -3.29272568226E-001 -5.41123569012E-001 -1.65331643075E-002 -4.93480265141E-003 +3.20624303640E-006 -1.62370506587E-005 +8.69948938489E-002 +4.42452579737E-002 
+7.61000000000E+009 -3.41525286436E-001 -5.40406703949E-001 -9.55607555807E-003 +1.18503049016E-002 -1.28860401674E-005 +1.68572223629E-005 +9.33536291122E-002 +3.21803353727E-002 
+7.81000000000E+009 -3.54162663221E-001 -5.39157211781E-001 +6.44560251385E-003 +1.26296570525E-002 -1.75205259438E-005 +1.12288989840E-006 +9.88583713770E-002 +1.98110453784E-002 
+8.01000000000E+009 -3.65841329098E-001 -5.37843823433E-001 +1.31625793874E-002 -1.43221986946E-003 +6.30385693512E-006 +1.66136996995E-005 +1.02456197143E-001 +6.06829812750E-003 
+8.21000000000E+009 -3.77354890108E-001 -5.36233603954E-001 +3.33181489259E-003 -1.13636031747E-002 +1.07697019303E-006 -2.75016354863E-005 +1.04624673724E-001 -8.20565968752E-003 
+8.41000000000E+009 -3.88631254435E-001 -5.34231841564E-001 -8.43686889857E-003 -7.21647636965E-003 +2.09195131902E-005 +1.17987374324E-005 +1.04155629873E-001 -2.33621988446E-002 
+8.61000000000E+009 -3.99665772915E-001 -5.32465696335E-001 -9.18575935066E-003 +4.93165338412E-003 -1.54592430590E-006 +1.47501793890E-006 +1.00873976946E-001 -3.88255529106E-002 
+8.81000000000E+009 -4.10127162933E-001 -5.30516684055E-001 +9.12317773327E-004 +9.39312763512E-003 -4.29281590186E-006 -1.43921715789E-005 +9.54563543200E-002 -5.44487647712E-002 
+9.01000000000E+009 -4.20400232077E-001 -5.28218805790E-001 +8.46542045474E-003 +2.86498130299E-003 -1.41772420648E-006 -2.54000151472E-005 +8.86628627777E-002 -6.82608783245E-002 
+9.21000000000E+009 -4.30372059345E-001 -5.25970995426E-001 +5.41723845527E-003 -6.45136972889E-003 +7.05668071532E-006 -1.19473338600E-006 +7.87737369537E-002 -8.31589251757E-002 
+9.41000000000E+009 -4.39669579268E-001 -5.23827195168E-001 -3.49357281812E-003 -6.83433655649E-003 +2.78035513475E-005 -1.69154991454E-005 +6.61967322230E-002 -9.67848971486E-002 
+9.61000000000E+009 -4.49055284262E-001 -5.21229028702E-001 -7.27093173191E-003 +3.66689608200E-004 +1.11616452614E-006 +1.17955714813E-005 +5.09767085314E-002 -1.08998484910E-001 
+9.81000000000E+009 -4.57593619823E-001 -5.19280731678E-001 -2.17878259718E-003 +6.55170157552E-003 -1.28800011225E-005 -1.86062607099E-006 +3.57722193003E-002 -1.18338309228E-001 
+1.00100000000E+010 -4.66604292393E-001 -5.16608655453E-001 +4.72158379853E-003 +4.20124316588E-003 -7.97403390607E-006 +1.79918097274E-005 +1.87129527330E-002 -1.26191899180E-001 
+1.02100000000E+010 -4.74853754044E-001 -5.13680756092E-001 +5.46327978373E-003 -2.48898961581E-003 -5.61800425203E-006 -8.44223268359E-006 +4.80876973597E-004 -1.33093982935E-001 
+1.04100000000E+010 -4.83098864555E-001 -5.11109173298E-001 -2.30859106523E-004 -5.70547813550E-003 -2.33284099522E-005 -2.71226854238E-005 -2.01614685357E-002 -1.38443917036E-001 
+1.06100000000E+010 -4.91050362587E-001 -5.08307874203E-001 -4.96216164902E-003 -1.84300425462E-003 +5.17625448992E-006 -5.55015367354E-006 -4.18695993721E-002 -1.41005665064E-001 
+1.08100000000E+010 -4.97895479202E-001 -5.06276428699E-001 -3.54616087861E-003 +3.57176898979E-003 -1.81111608981E-005 -2.80286968746E-007 -6.36887848377E-002 -1.40593618155E-001 
+1.10100000000E+010 -5.05173921585E-001 -5.03598153591E-001 +1.88565254211E-003 +4.42733010277E-003 +1.12302841444E-005 +1.69930299307E-005 -8.57706069946E-002 -1.37004092336E-001 
+1.12100000000E+010 -5.11874675751E-001 -5.01693964005E-001 +4.44960128516E-003 -2.03182480618E-005 -5.12668475494E-006 -7.75670378061E-006 -1.09609991312E-001 -1.30517572165E-001 
+1.14100000000E+010 -5.18869459629E-001 -4.98982697725E-001 +1.73077115323E-003 -3.86772397906E-003 +1.42116550705E-005 -8.23910909276E-007 -1.32678017020E-001 -1.20361469686E-001 
+1.16100000000E+010 -5.24464070797E-001 -4.96669977903E-001 -2.83866329119E-003 -2.94773629867E-003 +4.54869405075E-006 -1.39616950037E-005 -1.54523208737E-001 -1.06917597353E-001 
+1.18100000000E+010 -5.30523359776E-001 -4.94258463383E-001 -3.51692480035E-003 +1.36403401848E-003 -5.61492151974E-006 -3.83149053960E-005 -1.74187213182E-001 -9.01038125157E-002 
+1.20100000000E+010 -5.36657691002E-001 -4.91420209408E-001 -1.92572144442E-004 +3.61077464186E-003 -4.95011090607E-006 +9.76577098299E-007 -1.91383361816E-001 -7.05497339368E-002 
+1.22100000000E+010 -5.42768537998E-001 -4.88285094500E-001 +3.17160924897E-003 +1.53740402311E-003 +1.56590322149E-005 +7.06499804437E-006 -2.08770558238E-001 -4.85891811550E-002 
+1.24100000000E+010 -5.48409640789E-001 -4.85670685768E-001 +2.43332795799E-003 -2.18214746565E-003 -1.11313302114E-005 +5.11029952577E-007 -2.23264485598E-001 -2.32926197350E-002 
+1.26100000000E+010 -5.53979396820E-001 -4.83023762703E-001 -9.25291154999E-004 -2.95596849173E-003 -1.76137491508E-005 +1.10188348117E-005 -2.33566284180E-001 +4.43417485803E-003 
+1.28100000000E+010 -5.59381544590E-001 -4.80123788118E-001 -3.01833660342E-003 -2.53110018093E-004 -8.22503534437E-006 +6.97917300840E-007 -2.39775851369E-001 +3.36026586592E-002 
+1.30100000000E+010 -5.64734816551E-001 -4.76639866829E-001 -1.33512308821E-003 +2.47559254058E-003 +4.33079321738E-006 -4.32551087215E-006 -2.43525490165E-001 +6.36086314917E-002 
+1.32100000000E+010 -5.69667875767E-001 -4.73547369242E-001 +1.65238766931E-003 +2.10047676228E-003 +2.11710776057E-005 +7.76418801252E-006 -2.43778929114E-001 +9.51986089349E-002 
+1.34100000000E+010 -5.74740707874E-001 -4.69855576754E-001 +2.50297831371E-003 -6.90376095008E-004 -7.80299160397E-006 +1.57258432409E-006 -2.40238144994E-001 +1.26983582973E-001 
+1.36100000000E+010 -5.77743113041E-001 -4.66630369425E-001 +3.05675202981E-004 -2.43257591501E-003 +8.82508084032E-006 +1.78318532562E-005 -2.32392877340E-001 +1.59848645329E-001 
+1.38100000000E+010 -5.82776904106E-001 -4.64121788740E-001 -2.00273492374E-003 -1.19861878920E-003 +8.24571361591E-006 +1.16255714602E-005 -2.19266414642E-001 +1.91992565989E-001 
+1.40100000000E+010 -5.87731599808E-001 -4.61269140244E-001 -1.84704922140E-003 +1.34910293855E-003 +1.32010700327E-005 -1.60514864547E-005 -2.02447518706E-001 +2.23132222891E-001 
+1.42100000000E+010 -5.92257380486E-001 -4.58578974009E-001 +4.57175134216E-004 +2.06993659958E-003 +1.70033160884E-006 +4.62537354906E-006 -1.81928917766E-001 +2.54365295172E-001 
+1.44100000000E+010 -5.97032845020E-001 -4.55164402723E-001 +2.02372809872E-003 +4.24320722232E-004 -1.97110566660E-005 -1.34529436764E-005 -1.56146928668E-001 +2.83010631800E-001 
+1.46100000000E+010 -6.00768089294E-001 -4.52271521091E-001 +1.10496405978E-003 -1.64901290555E-003 -2.10839925785E-006 +2.65701760327E-006 -1.25404596329E-001 +3.08520525694E-001 
+1.48100000000E+010 -6.04587256908E-001 -4.47058022022E-001 -1.00785610266E-003 -1.56600330956E-003 +2.31587273447E-005 +1.67279649759E-005 -9.23792868853E-002 +3.30551862717E-001 
+1.50100000000E+010 -6.06250524521E-001 -4.46102887392E-001 -1.74755218904E-003 +3.08868184220E-004 +1.27867306219E-005 -2.09560366784E-005 -5.66377714276E-002 +3.49945604801E-001 
+1.52100000000E+010 -6.09250187874E-001 -4.45416212082E-001 -4.14221547544E-004 +1.68799678795E-003 +1.36968537845E-005 -2.32254642469E-005 -1.77347213030E-002 +3.64957958460E-001 
+1.54100000000E+010 -6.12987041473E-001 -4.43438172340E-001 +1.32607237902E-003 +9.84360231087E-004 -6.30034401183E-006 -3.33593197865E-006 +2.45772786438E-002 +3.74920457602E-001 
+1.56100000000E+010 -6.16962075233E-001 -4.39839571714E-001 +1.38040189631E-003 -7.56775261834E-004 +1.05287381302E-005 +2.65010894509E-005 +6.85808807611E-002 +3.79160642624E-001 
+1.58100000000E+010 -6.18366301060E-001 -4.38878357410E-001 -1.53572545969E-004 -1.52933993377E-003 +2.74480007647E-005 +1.34230856474E-006 +1.12579397857E-001 +3.79510283470E-001 
+1.60100000000E+010 -6.20767652988E-001 -4.37386989594E-001 -1.40711327549E-003 -4.11122193327E-004 -1.89599941223E-005 -8.21815046947E-006 +1.57815009356E-001 +3.74522268772E-001 
+1.62100000000E+010 -6.23214542866E-001 -4.35755848885E-001 -9.14362433832E-004 +1.06466352008E-003 +4.07041216022E-006 +1.75587720150E-005 +2.05311834812E-001 +3.64095509052E-001 
+1.64100000000E+010 -6.25311851501E-001 -4.34080600739E-001 +5.81581494771E-004 +1.20635167696E-003 -8.58451858221E-006 -3.27918460243E-005 +2.52260029316E-001 +3.47936511040E-001 
+1.66100000000E+010 -6.28899872303E-001 -4.32207077742E-001 +1.28527905326E-003 -5.92433061684E-005 +1.59760611496E-006 +9.40382233239E-006 +2.96245366335E-001 +3.24218392372E-001 
+1.68100000000E+010 -6.32135450840E-001 -4.29611861706E-001 +4.54669439932E-004 -1.16117380094E-003 -1.66421032191E-005 -7.92437822383E-006 +3.39570760727E-001 +2.96745061874E-001 
+1.70100000000E+010 -6.34013175964E-001 -4.27301764488E-001 -8.95195407793E-004 -8.12995480374E-004 +8.03832153906E-006 +3.43555475411E-005 +3.79660338163E-001 +2.65314996243E-001 
+1.72100000000E+010 -6.36373281479E-001 -4.25025850534E-001 -1.06363149825E-003 +4.44206583779E-004 +2.81155007542E-005 -1.18891039165E-005 +4.17203456163E-001 +2.26701483130E-001 
+1.74100000000E+010 -6.39428973198E-001 -4.22911077738E-001 -3.96122959501E-006 +1.05428253300E-003 +9.45049850998E-006 -1.67996142864E-006 +4.50591444969E-001 +1.83796435595E-001 
+1.76100000000E+010 -6.42145037651E-001 -4.20592755079E-001 +1.00382114761E-003 +4.56669426057E-004 +6.42485538265E-005 -2.20295191866E-006 +4.78356420994E-001 +1.37626305223E-001 
+1.78100000000E+010 -6.45042896271E-001 -4.18221443892E-001 +7.84669537097E-004 -6.74650189467E-004 -2.99545008602E-005 -6.20160426479E-006 +5.01911759377E-001 +8.88170301914E-002 
+1.80100000000E+010 -6.47363543510E-001 -4.15738493204E-001 -2.93462799164E-004 -9.54651739448E-004 -4.95194035466E-006 -1.37018532769E-005 +5.21119654179E-001 +3.75521816313E-002 
+1.82100000000E+010 -6.50013446808E-001 -4.13764357567E-001 -9.62423800956E-004 -6.74466573400E-005 +6.84851056576E-006 -6.55885469314E-006 +5.33718407154E-001 -1.71301737428E-002 
+1.84100000000E+010 -6.52661800385E-001 -4.11990016699E-001 -4.07705723774E-004 +8.32285149954E-004 +3.02175467368E-005 +1.37392689794E-005 +5.39803266525E-001 -7.45066627860E-002 
+1.86100000000E+010 -6.55627310276E-001 -4.09939169884E-001 +5.89614675846E-004 +6.82309851982E-004 +2.61595687334E-005 -2.16254829866E-005 +5.39939463139E-001 -1.31207153201E-001 
+1.88100000000E+010 -6.58002138138E-001 -4.07372415066E-001 +8.31105862744E-004 -1.75138455234E-004 -2.17253873416E-005 +7.35499725124E-006 +5.33981025219E-001 -1.87946289778E-001 
+1.90100000000E+010 -6.59703731537E-001 -4.05465245247E-001 +9.19558588066E-005 -7.93619547039E-004 -7.97810116637E-006 +6.11219184066E-006 +5.22261917591E-001 -2.44199156761E-001 
+1.92100000000E+010 -6.61920487881E-001 -4.04295325279E-001 -6.55889103655E-004 -4.34500660049E-004 -1.93096348085E-005 -4.87868555865E-006 +5.04112243652E-001 -3.01871865988E-001 
+1.94100000000E+010 -6.64656221867E-001 -4.02023047209E-001 -6.56535266899E-004 +4.32519911556E-004 -2.72614634014E-005 +4.75612650916E-005 +4.78766769171E-001 -3.56730520725E-001 
+1.96100000000E+010 -6.65450990200E-001 -3.99472981691E-001 +1.71925814357E-004 +7.41732714232E-004 -8.86103771336E-006 +1.74591059476E-005 +4.47980433702E-001 -4.08882439137E-001 
+1.98100000000E+010 -6.64720177650E-001 -3.96171033382E-001 +6.96253380738E-004 +2.09795383853E-004 -3.53863579221E-005 +1.29073043809E-006 +4.13069665432E-001 -4.56436693668E-001 
+2.00100000000E+010 -6.63299024105E-001 -3.95621716976E-001 +4.22245619120E-004 -5.51547273062E-004 -9.21965329326E-006 +3.97577650801E-006 +3.71236592531E-001 -5.02828061581E-001 
